(1720633388.994433) can0 00E#62E7 R
(1720633388.994559) can0 05C#62E762E7 R
(1720633388.994671) can0 041#01 R
(1720633388.994789) can0 016#24 R
(1720633388.994904) can0 015#01 R
(1720633388.995024) can0 017#01 R
(1720633388.995138) can0 056#01 R
(1720633389.002796) can0 007#01 R
(1720633389.032989) can0 00D#41E8 R
(1720633389.033121) can0 05B#41E8 R
(1720633389.033235) can0 014#01 R
(1720633389.033352) can0 008#01 R
(1720633389.033469) can0 055#01 R
(1720633389.033588) can0 05D#01 R
(1720633389.036107) can0 015#01 R
(1720633389.036225) can0 016#24 R
(1720633389.036359) can0 00E#59E8 R
(1720633389.036776) can0 041#01 R
(1720633389.036945) can0 05C#5FE85FE8 R
(1720633389.037060) can0 056#01 R
(1720633389.037196) can0 00E#5FE8 R
(1720633389.037363) can0 05C#5FE85FE8 R
(1720633389.037482) can0 016#24 R
(1720633389.044778) can0 00E#8EE8 R
(1720633389.044945) can0 05C#8EE88EE8 R
(1720633389.045062) can0 041#01 R
(1720633389.045180) can0 016#24 R
(1720633389.045296) can0 015#01 R
(1720633389.045414) can0 017#01 R
(1720633389.045530) can0 056#01 R
(1720633389.063645) can0 007#01 R
(1720633389.093815) can0 00D#A8E9 R
(1720633389.093944) can0 05B#A8E9 R
(1720633389.094061) can0 014#01 R
(1720633389.094179) can0 008#01 R
(1720633389.094293) can0 055#01 R
(1720633389.094410) can0 05D#01 R
(1720633389.095888) can0 00E#BAE9 R
(1720633389.096052) can0 05C#BAE9BAE9 R
(1720633389.096170) can0 041#01 R
(1720633389.096286) can0 016#24 R
(1720633389.096403) can0 015#01 R
(1720633389.096520) can0 017#01 R
(1720633389.096634) can0 056#01 R
(1720633389.097910) can0 015#01 R
(1720633389.098043) can0 00E#CBE9 R
(1720633389.098981) can0 016#24 R
(1720633389.099097) can0 041#01 R
(1720633389.099262) can0 05C#D1E9D1E9 R
(1720633389.099376) can0 056#01 R
(1720633389.099510) can0 00E#D1E9 R
(1720633389.099675) can0 05C#D1E9D1E9 R
(1720633389.099791) can0 016#24 R
(1720633389.124706) can0 007#01 R
(1720633389.145591) can0 00E#D8EA R
(1720633389.145752) can0 05C#D8EAD8EA R
(1720633389.145871) can0 041#01 R
(1720633389.145988) can0 016#24 R
(1720633389.146104) can0 015#01 R
(1720633389.146222) can0 017#01 R
(1720633389.146339) can0 056#01 R
(1720633389.155588) can0 00D#0BEB R
(1720633389.155725) can0 05B#0BEB R
(1720633389.155840) can0 014#01 R
(1720633389.155958) can0 008#01 R
(1720633389.156077) can0 055#01 R
(1720633389.156193) can0 05D#01 R
(1720633389.159695) can0 00E#28EB R
(1720633389.159823) can0 00E#28EB R
(1720633389.159990) can0 05C#27EB27EB R
(1720633389.160529) can0 015#01 R
(1720633389.160648) can0 016#24 R
(1720633389.160765) can0 041#01 R
(1720633389.160927) can0 05C#2DEB2DEB R
(1720633389.161042) can0 056#01 R
(1720633389.161161) can0 016#24 R
(1720633389.185550) can0 007#01 R
(1720633389.195451) can0 00E#F0EB R
(1720633389.195614) can0 05C#F0EBF0EB R
(1720633389.195732) can0 041#01 R
(1720633389.195849) can0 016#24 R
(1720633389.195965) can0 015#01 R
(1720633389.196083) can0 017#01 R
(1720633389.196199) can0 056#01 R
(1720633389.217082) can0 00D#5FEC R
(1720633389.217212) can0 05B#5FEC R
(1720633389.217328) can0 014#01 R
(1720633389.217443) can0 008#01 R
(1720633389.217559) can0 055#01 R
(1720633389.217677) can0 05D#01 R
(1720633389.218695) can0 015#01 R
(1720633389.218812) can0 016#24 R
(1720633389.218952) can0 00E#74EC R
(1720633389.219076) can0 00E#74EC R
(1720633389.219828) can0 041#01 R
(1720633389.219991) can0 05C#7AEC7AEC R
(1720633389.220152) can0 05C#7AEC7AEC R
(1720633389.220271) can0 016#24 R
(1720633389.220845) can0 056#01 R
(1720633389.248059) can0 007#01 R
(1720633389.249535) can0 00E#17ED R
(1720633389.249705) can0 05C#17ED17ED R
(1720633389.249822) can0 041#01 R
(1720633389.249937) can0 016#25 R
(1720633389.250052) can0 015#01 R
(1720633389.250171) can0 017#01 R
(1720633389.250286) can0 056#01 R
(1720633389.279196) can0 00D#ADED R
(1720633389.279329) can0 05B#ADED R
(1720633389.279443) can0 014#01 R
(1720633389.279559) can0 008#01 R
(1720633389.279674) can0 055#01 R
(1720633389.279793) can0 05D#01 R
(1720633389.281755) can0 015#01 R
(1720633389.281921) can0 05C#C7EDC7ED R
(1720633389.282037) can0 056#01 R
(1720633389.282170) can0 00E#C7ED R
(1720633389.282727) can0 016#25 R
(1720633389.282899) can0 041#01 R
(1720633389.283030) can0 00E#CDED R
(1720633389.283191) can0 05C#CDEDCDED R
(1720633389.283305) can0 016#25 R
(1720633389.298948) can0 00E#21EE R
(1720633389.299104) can0 05C#21EE21EE R
(1720633389.299222) can0 041#01 R
(1720633389.299337) can0 016#25 R
(1720633389.299452) can0 015#01 R
(1720633389.299570) can0 017#01 R
(1720633389.299686) can0 056#01 R
(1720633389.309239) can0 007#01 R
(1720633389.339055) can0 00D#E6EE R
(1720633389.339185) can0 05B#E6EE R
(1720633389.339299) can0 014#01 R
(1720633389.339416) can0 008#01 R
(1720633389.339531) can0 055#01 R
(1720633389.339651) can0 05D#01 R
(1720633389.341031) can0 00E#FBEE R
(1720633389.341773) can0 05C#00EF00EF R
(1720633389.341910) can0 00E#00EF R
(1720633389.342079) can0 05C#00EF00EF R
(1720633389.342193) can0 016#25 R
(1720633389.342923) can0 015#01 R
(1720633389.343040) can0 016#25 R
(1720633389.343156) can0 041#01 R
(1720633389.343272) can0 056#01 R
(1720633389.348930) can0 00E#24EF R
(1720633389.349094) can0 05C#24EF24EF R
(1720633389.349212) can0 041#01 R
(1720633389.349326) can0 016#25 R
(1720633389.349441) can0 015#01 R
(1720633389.349560) can0 017#01 R
(1720633389.349675) can0 056#01 R
(1720633389.369098) can0 007#01 R
(1720633389.398699) can0 00E#20F0 R
(1720633389.398875) can0 05C#1FF01FF0 R
(1720633389.398994) can0 041#01 R
(1720633389.399106) can0 016#25 R
(1720633389.399221) can0 015#01 R
(1720633389.399340) can0 017#01 R
(1720633389.399455) can0 056#01 R
(1720633389.400665) can0 00D#20F0 R
(1720633389.400801) can0 05B#20F0 R
(1720633389.400915) can0 014#01 R
(1720633389.401034) can0 008#01 R
(1720633389.401147) can0 055#01 R
(1720633389.401265) can0 05D#01 R
(1720633389.403563) can0 015#01 R
(1720633389.403677) can0 016#25 R
(1720633389.403809) can0 00E#38F0 R
(1720633389.403941) can0 00E#38F0 R
(1720633389.404105) can0 05C#38F038F0 R
(1720633389.404629) can0 041#01 R
(1720633389.404799) can0 05C#3DF03DF0 R
(1720633389.404916) can0 056#01 R
(1720633389.405029) can0 016#25 R
(1720633389.431057) can0 007#01 R
(1720633389.448894) can0 00E#14F1 R
(1720633389.449060) can0 05C#14F114F1 R
(1720633389.449177) can0 041#01 R
(1720633389.449291) can0 016#25 R
(1720633389.449407) can0 015#01 R
(1720633389.449525) can0 017#01 R
(1720633389.449640) can0 056#01 R
(1720633389.461305) can0 00D#44F1 R
(1720633389.461435) can0 05B#44F1 R
(1720633389.461552) can0 014#01 R
(1720633389.461670) can0 008#01 R
(1720633389.461784) can0 055#01 R
(1720633389.461900) can0 05D#01 R
(1720633389.463806) can0 05C#5CF15CF1 R
(1720633389.463923) can0 056#01 R
(1720633389.464053) can0 00E#5CF1 R
(1720633389.464185) can0 00E#5CF1 R
(1720633389.464701) can0 015#01 R
(1720633389.464816) can0 016#25 R
(1720633389.464935) can0 041#01 R
(1720633389.465100) can0 05C#61F161F1 R
(1720633389.465214) can0 016#25 R
(1720633389.491872) can0 007#01 R
(1720633389.498834) can0 00E#02F2 R
(1720633389.499000) can0 05C#02F202F2 R
(1720633389.499117) can0 041#01 R
(1720633389.499233) can0 016#25 R
(1720633389.499349) can0 015#01 R
(1720633389.499466) can0 017#01 R
(1720633389.499582) can0 056#01 R
(1720633389.522115) can0 00D#68F2 R
(1720633389.522246) can0 05B#68F2 R
(1720633389.522362) can0 014#01 R
(1720633389.522477) can0 008#01 R
(1720633389.522594) can0 055#01 R
(1720633389.522711) can0 05D#01 R
(1720633389.525234) can0 015#01 R
(1720633389.525347) can0 016#25 R
(1720633389.525510) can0 05C#7AF27AF2 R
(1720633389.525625) can0 056#01 R
(1720633389.525755) can0 00E#7AF2 R
(1720633389.527100) can0 041#01 R
(1720633389.527231) can0 00E#84F2 R
(1720633389.527392) can0 05C#84F284F2 R
(1720633389.527508) can0 016#25 R
(1720633389.548309) can0 00E#E8F2 R
(1720633389.548471) can0 05C#E8F2E8F2 R
(1720633389.548588) can0 041#01 R
(1720633389.548703) can0 016#25 R
(1720633389.548818) can0 015#01 R
(1720633389.548937) can0 017#01 R
(1720633389.549052) can0 056#01 R
(1720633389.553438) can0 007#01 R
(1720633389.584997) can0 00D#85F3 R
(1720633389.585130) can0 05B#85F3 R
(1720633389.585246) can0 014#01 R
(1720633389.585363) can0 008#01 R
(1720633389.585481) can0 055#01 R
(1720633389.585597) can0 05D#01 R
(1720633389.588043) can0 015#01 R
(1720633389.588210) can0 05C#9BF39BF3 R
(1720633389.588327) can0 056#01 R
(1720633389.588459) can0 00E#9BF3 R
(1720633389.590061) can0 016#26 R
(1720633389.590178) can0 041#01 R
(1720633389.590310) can0 00E#A4F3 R
(1720633389.590473) can0 05C#A4F3A4F3 R
(1720633389.590588) can0 016#26 R
(1720633389.598046) can0 00E#C7F3 R
(1720633389.598212) can0 05C#C7F3C7F3 R
(1720633389.598329) can0 041#01 R
(1720633389.598445) can0 016#26 R
(1720633389.598560) can0 015#01 R
(1720633389.598678) can0 017#01 R
(1720633389.598794) can0 056#01 R
(1720633389.615821) can0 007#01 R
(1720633389.646810) can0 00D#92F4 R
(1720633389.646953) can0 05B#92F4 R
(1720633389.647056) can0 014#01 R
(1720633389.647174) can0 008#01 R
(1720633389.647288) can0 055#01 R
(1720633389.647407) can0 05D#01 R
(1720633389.648854) can0 00E#9FF4 R
(1720633389.649263) can0 05C#9FF49FF4 R
(1720633389.649381) can0 041#01 R
(1720633389.649497) can0 016#26 R
(1720633389.649613) can0 015#01 R
(1720633389.649731) can0 017#01 R
(1720633389.649850) can0 056#01 R
(1720633389.649964) can0 015#01 R
(1720633389.650078) can0 016#26 R
(1720633389.650197) can0 041#01 R
(1720633389.650331) can0 00E#A3F4 R
(1720633389.650465) can0 00E#A3F4 R
(1720633389.650630) can0 05C#A3F4A3F4 R
(1720633389.650796) can0 05C#A7F4A7F4 R
(1720633389.650911) can0 056#01 R
(1720633389.651030) can0 016#26 R
(1720633389.677271) can0 007#01 R
(1720633389.698328) can0 00E#6FF5 R
(1720633389.698492) can0 05C#6FF56FF5 R
(1720633389.698611) can0 041#01 R
(1720633389.698725) can0 016#26 R
(1720633389.698842) can0 015#01 R
(1720633389.698961) can0 017#01 R
(1720633389.699076) can0 056#01 R
(1720633389.707723) can0 00D#90F5 R
(1720633389.707852) can0 05B#90F5 R
(1720633389.708028) can0 014#01 R
(1720633389.708145) can0 008#01 R
(1720633389.708259) can0 055#01 R
(1720633389.708379) can0 05D#01 R
(1720633389.709384) can0 00E#9CF5 R
(1720633389.709516) can0 00E#9CF5 R
(1720633389.710584) can0 015#01 R
(1720633389.710701) can0 016#26 R
(1720633389.710818) can0 041#01 R
(1720633389.710993) can0 05C#A0F5A0F5 R
(1720633389.711109) can0 056#01 R
(1720633389.711278) can0 05C#A0F5A0F5 R
(1720633389.711393) can0 016#26 R
(1720633389.737343) can0 007#01 R
(1720633389.748253) can0 00E#38F6 R
(1720633389.748418) can0 05C#38F638F6 R
(1720633389.748535) can0 041#01 R
(1720633389.748651) can0 016#26 R
(1720633389.748766) can0 015#01 R
(1720633389.748885) can0 017#01 R
(1720633389.749000) can0 056#01 R
(1720633389.767276) can0 00D#7BF6 R
(1720633389.767406) can0 05B#7BF6 R
(1720633389.767521) can0 014#01 R
(1720633389.767637) can0 008#01 R
(1720633389.767753) can0 055#01 R
(1720633389.767871) can0 05D#01 R
(1720633389.769335) can0 00E#8BF6 R
(1720633389.769956) can0 015#01 R
(1720633389.770072) can0 016#26 R
(1720633389.770256) can0 041#01 R
(1720633389.770417) can0 05C#8EF68EF6 R
(1720633389.770533) can0 056#01 R
(1720633389.770664) can0 00E#8EF6 R
(1720633389.770827) can0 05C#8EF68EF6 R
(1720633389.770949) can0 016#26 R
(1720633389.797072) can0 007#01 R
(1720633389.797954) can0 00E#FAF6 R
(1720633389.798122) can0 05C#FAF6FAF6 R
(1720633389.798239) can0 041#01 R
(1720633389.798356) can0 016#26 R
(1720633389.798470) can0 015#01 R
(1720633389.798590) can0 017#01 R
(1720633389.798706) can0 056#01 R
(1720633389.827050) can0 00D#5FF7 R
(1720633389.827187) can0 05B#5FF7 R
(1720633389.827302) can0 014#01 R
(1720633389.827421) can0 008#01 R
(1720633389.827538) can0 055#01 R
(1720633389.827655) can0 05D#01 R
(1720633389.829135) can0 00E#6EF7 R
(1720633389.829903) can0 015#01 R
(1720633389.830019) can0 016#26 R
(1720633389.830137) can0 041#01 R
(1720633389.830269) can0 00E#72F7 R
(1720633389.830429) can0 05C#72F772F7 R
(1720633389.830545) can0 016#26 R
(1720633389.830959) can0 05C#75F775F7 R
(1720633389.831065) can0 056#01 R
(1720633389.847820) can0 00E#B4F7 R
(1720633389.847983) can0 05C#B4F7B4F7 R
(1720633389.848101) can0 041#01 R
(1720633389.848216) can0 016#26 R
(1720633389.848333) can0 015#01 R
(1720633389.848450) can0 017#01 R
(1720633389.848569) can0 056#01 R
(1720633389.857719) can0 007#01 R
(1720633389.888786) can0 00D#40F8 R
(1720633389.888924) can0 05B#40F8 R
(1720633389.889039) can0 014#01 R
(1720633389.889155) can0 008#01 R
(1720633389.889271) can0 055#01 R
(1720633389.889389) can0 05D#01 R
(1720633389.890612) can0 015#01 R
(1720633389.890727) can0 016#26 R
(1720633389.890845) can0 041#01 R
(1720633389.891653) can0 05C#51F851F8 R
(1720633389.891771) can0 056#01 R
(1720633389.891905) can0 00E#51F8 R
(1720633389.892039) can0 00E#51F8 R
(1720633389.892210) can0 05C#51F851F8 R
(1720633389.892696) can0 016#26 R
(1720633389.898301) can0 00E#66F8 R
(1720633389.898471) can0 05C#66F866F8 R
(1720633389.898591) can0 041#01 R
(1720633389.898707) can0 016#26 R
(1720633389.898822) can0 015#01 R
(1720633389.898947) can0 017#01 R
(1720633389.899056) can0 056#01 R
(1720633389.919940) can0 007#01 R
(1720633389.947763) can0 00E#11F9 R
(1720633389.947932) can0 05C#11F911F9 R
(1720633389.948048) can0 041#01 R
(1720633389.948163) can0 016#26 R
(1720633389.948280) can0 015#01 R
(1720633389.948396) can0 017#01 R
(1720633389.948513) can0 056#01 R
(1720633389.949805) can0 00D#11F9 R
(1720633389.949940) can0 05B#11F9 R
(1720633389.950055) can0 014#01 R
(1720633389.950171) can0 008#01 R
(1720633389.950286) can0 055#01 R
(1720633389.950405) can0 05D#01 R
(1720633389.951808) can0 00E#1FF9 R
(1720633389.951947) can0 00E#1FF9 R
(1720633389.952846) can0 015#01 R
(1720633389.952963) can0 016#26 R
(1720633389.953080) can0 041#01 R
(1720633389.953248) can0 05C#22F922F9 R
(1720633389.953363) can0 016#26 R
(1720633389.953985) can0 05C#25F925F9 R
(1720633389.954101) can0 056#01 R
(1720633389.980625) can0 007#01 R
(1720633389.997728) can0 00E#B4F9 R
(1720633389.997893) can0 05C#B4F9B4F9 R
(1720633389.998012) can0 041#01 R
(1720633389.998126) can0 016#27 R
(1720633389.998242) can0 015#01 R
(1720633389.998360) can0 017#01 R
(1720633389.998476) can0 056#01 R
(1720633390.011526) can0 00D#DAF9 R
(1720633390.011659) can0 05B#DAF9 R
(1720633390.011776) can0 014#01 R
(1720633390.011890) can0 008#01 R
(1720633390.012007) can0 055#01 R
(1720633390.012124) can0 05D#01 R
(1720633390.015295) can0 05C#EAF9EAF9 R
(1720633390.015412) can0 056#01 R
(1720633390.015543) can0 00E#EAF9 R
(1720633390.016110) can0 015#01 R
(1720633390.016226) can0 016#27 R
(1720633390.016346) can0 041#01 R
(1720633390.016480) can0 00E#EDF9 R
(1720633390.016646) can0 05C#EDF9EDF9 R
(1720633390.016762) can0 016#27 R
(1720633390.042414) can0 007#01 R
(1720633390.047258) can0 00E#50FA R
(1720633390.047424) can0 05C#50FA50FA R
(1720633390.047540) can0 041#01 R
(1720633390.047656) can0 016#27 R
(1720633390.047772) can0 015#01 R
(1720633390.047890) can0 017#01 R
(1720633390.048006) can0 056#01 R
(1720633390.073510) can0 00D#98FA R
(1720633390.073643) can0 05B#98FA R
(1720633390.073867) can0 014#01 R
(1720633390.073985) can0 008#01 R
(1720633390.074099) can0 055#01 R
(1720633390.074216) can0 05D#01 R
(1720633390.076307) can0 015#01 R
(1720633390.076423) can0 016#27 R
(1720633390.076541) can0 041#01 R
(1720633390.076706) can0 05C#A7FAA6FA R
(1720633390.076822) can0 056#01 R
(1720633390.076954) can0 00E#A7FA R
(1720633390.077231) can0 00E#A7FA R
(1720633390.077395) can0 05C#A7FAA6FA R
(1720633390.077511) can0 016#27 R
(1720633390.097159) can0 00E#E4FA R
(1720633390.097325) can0 05C#E4FAE4FA R
(1720633390.097444) can0 041#01 R
(1720633390.097559) can0 016#27 R
(1720633390.097675) can0 015#01 R
(1720633390.097793) can0 017#01 R
(1720633390.097909) can0 056#01 R
(1720633390.105444) can0 007#01 R
(1720633390.136459) can0 00D#4CFB R
(1720633390.136591) can0 05B#4CFB R
(1720633390.136706) can0 014#01 R
(1720633390.136822) can0 008#01 R
(1720633390.136938) can0 055#01 R
(1720633390.137056) can0 05D#01 R
(1720633390.138361) can0 015#01 R
(1720633390.138476) can0 016#27 R
(1720633390.139100) can0 041#01 R
(1720633390.139268) can0 05C#5AFB5AFB R
(1720633390.139399) can0 00E#5AFB R
(1720633390.139530) can0 00E#5AFB R
(1720633390.139696) can0 05C#5AFB5AFB R
(1720633390.140293) can0 056#01 R
(1720633390.140410) can0 016#27 R
(1720633390.147376) can0 00E#70FB R
(1720633390.147542) can0 05C#70FB70FB R
(1720633390.147661) can0 041#01 R
(1720633390.147776) can0 016#27 R
(1720633390.147892) can0 015#01 R
(1720633390.148010) can0 017#01 R
(1720633390.148127) can0 056#01 R
(1720633390.166549) can0 007#01 R
(1720633390.196551) can0 00D#ECFB R
(1720633390.196682) can0 05B#ECFB R
(1720633390.196798) can0 014#01 R
(1720633390.196914) can0 008#01 R
(1720633390.197031) can0 055#01 R
(1720633390.197148) can0 05D#01 R
(1720633390.197281) can0 00E#F4FB R
(1720633390.197447) can0 05C#F4FBF4FB R
(1720633390.197586) can0 041#01 R
(1720633390.197702) can0 016#27 R
(1720633390.197818) can0 015#01 R
(1720633390.197936) can0 017#01 R
(1720633390.198052) can0 056#01 R
(1720633390.199324) can0 015#01 R
(1720633390.199441) can0 016#27 R
(1720633390.199558) can0 041#01 R
(1720633390.199694) can0 00E#F9FB R
(1720633390.199830) can0 00E#F9FB R
(1720633390.200307) can0 05C#FCFBFCFB R
(1720633390.200423) can0 056#01 R
(1720633390.200593) can0 05C#FCFBFCFB R
(1720633390.200709) can0 016#27 R
(1720633390.226379) can0 007#01 R
(1720633390.247269) can0 00E#70FC R
(1720633390.247437) can0 05C#70FC70FC R
(1720633390.247555) can0 041#01 R
(1720633390.247671) can0 016#27 R
(1720633390.247787) can0 015#01 R
(1720633390.247904) can0 017#01 R
(1720633390.248020) can0 056#01 R
(1720633390.256398) can0 00D#81FC R
(1720633390.256536) can0 05B#81FC R
(1720633390.256652) can0 014#01 R
(1720633390.256767) can0 008#01 R
(1720633390.256884) can0 055#01 R
(1720633390.257001) can0 05D#01 R
(1720633390.258181) can0 015#01 R
(1720633390.258297) can0 016#27 R
(1720633390.258416) can0 041#01 R
(1720633390.258550) can0 00E#8BFC R
(1720633390.259068) can0 00E#8DFC R
(1720633390.259234) can0 05C#8DFC8DFC R
(1720633390.259351) can0 016#27 R
(1720633390.260108) can0 05C#8FFC8FFC R
(1720633390.260225) can0 056#01 R
(1720633390.286272) can0 007#01 R
(1720633390.297274) can0 00E#E5FC R
(1720633390.297441) can0 05C#E5FCE5FC R
(1720633390.297558) can0 041#01 R
(1720633390.297674) can0 016#27 R
(1720633390.297790) can0 015#01 R
(1720633390.297908) can0 017#01 R
(1720633390.298023) can0 056#01 R
(1720633390.316030) can0 00D#0BFD R
(1720633390.316164) can0 05B#0BFD R
(1720633390.316278) can0 014#01 R
(1720633390.316395) can0 008#01 R
(1720633390.316510) can0 055#01 R
(1720633390.316628) can0 05D#01 R
(1720633390.318145) can0 015#01 R
(1720633390.318262) can0 016#27 R
(1720633390.318394) can0 00E#14FD R
(1720633390.319162) can0 041#01 R
(1720633390.319295) can0 00E#16FD R
(1720633390.319464) can0 05C#16FD16FD R
(1720633390.319580) can0 016#27 R
(1720633390.320351) can0 05C#18FD18FD R
(1720633390.320468) can0 056#01 R
(1720633390.346377) can0 007#01 R
(1720633390.347494) can0 00E#52FD R
(1720633390.347660) can0 05C#51FD51FD R
(1720633390.347831) can0 041#01 R
(1720633390.347947) can0 016#27 R
(1720633390.348062) can0 015#01 R
(1720633390.348181) can0 017#01 R
(1720633390.348308) can0 056#01 R
(1720633390.376737) can0 00D#8BFD R
(1720633390.376869) can0 05B#8BFD R
(1720633390.376986) can0 014#01 R
(1720633390.377102) can0 008#01 R
(1720633390.377218) can0 055#01 R
(1720633390.377336) can0 05D#01 R
(1720633390.379490) can0 015#01 R
(1720633390.380462) can0 016#27 R
(1720633390.380578) can0 041#01 R
(1720633390.380744) can0 05C#95FD95FD R
(1720633390.380859) can0 056#01 R
(1720633390.380994) can0 00E#95FD R
(1720633390.381127) can0 00E#95FD R
(1720633390.381293) can0 05C#95FD95FD R
(1720633390.381465) can0 016#27 R
(1720633390.397225) can0 00E#B6FD R
(1720633390.397391) can0 05C#B6FDB6FD R
(1720633390.397509) can0 041#01 R
(1720633390.397624) can0 016#27 R
(1720633390.397741) can0 015#01 R
(1720633390.397858) can0 017#01 R
(1720633390.397975) can0 056#01 R
(1720633390.406577) can0 007#01 R
(1720633390.436523) can0 00D#FEFD R
(1720633390.436659) can0 05B#FEFD R
(1720633390.436773) can0 014#01 R
(1720633390.436889) can0 008#01 R
(1720633390.437005) can0 055#01 R
(1720633390.437123) can0 05D#01 R
(1720633390.439350) can0 015#01 R
(1720633390.439467) can0 016#27 R
(1720633390.439640) can0 05C#05FE05FE R
(1720633390.439754) can0 056#01 R
(1720633390.439892) can0 00E#05FE R
(1720633390.440025) can0 00E#05FE R
(1720633390.440254) can0 041#01 R
(1720633390.440426) can0 05C#07FE06FE R
(1720633390.440543) can0 016#27 R
(1720633390.447172) can0 00E#13FE R
(1720633390.447339) can0 05C#13FE13FE R
(1720633390.447458) can0 041#01 R
(1720633390.447573) can0 016#27 R
(1720633390.447690) can0 015#01 R
(1720633390.447807) can0 017#01 R
(1720633390.447923) can0 056#01 R
(1720633390.466728) can0 007#01 R
(1720633390.496495) can0 00E#68FE R
(1720633390.496658) can0 05C#68FE68FE R
(1720633390.496777) can0 041#01 R
(1720633390.496892) can0 016#27 R
(1720633390.497008) can0 015#01 R
(1720633390.497126) can0 017#01 R
(1720633390.497260) can0 00D#66FE R
(1720633390.497375) can0 056#01 R
(1720633390.497508) can0 05B#66FE R
(1720633390.497623) can0 014#01 R
(1720633390.497739) can0 008#01 R
(1720633390.497855) can0 055#01 R
(1720633390.497973) can0 05D#01 R
(1720633390.499429) can0 00E#6DFE R
(1720633390.500450) can0 015#01 R
(1720633390.500567) can0 016#27 R
(1720633390.500683) can0 041#01 R
(1720633390.500816) can0 00E#6EFE R
(1720633390.500981) can0 05C#6EFE6EFE R
(1720633390.501098) can0 016#27 R
(1720633390.501528) can0 05C#70FE70FE R
(1720633390.501643) can0 056#01 R
(1720633390.528731) can0 007#01 R
(1720633390.546723) can0 00E#B5FE R
(1720633390.546887) can0 05C#B5FEB5FE R
(1720633390.547005) can0 041#01 R
(1720633390.547121) can0 016#27 R
(1720633390.547237) can0 015#01 R
(1720633390.547354) can0 017#01 R
(1720633390.547471) can0 056#01 R
(1720633390.558838) can0 00D#C3FE R
(1720633390.558974) can0 05B#C3FE R
(1720633390.559088) can0 014#01 R
(1720633390.559204) can0 008#01 R
(1720633390.559324) can0 055#01 R
(1720633390.559441) can0 05D#01 R
(1720633390.560615) can0 00E#C9FE R
(1720633390.561492) can0 05C#CAFECAFE R
(1720633390.561625) can0 00E#CAFE R
(1720633390.561794) can0 05C#CAFECAFE R
(1720633390.561910) can0 016#27 R
(1720633390.562586) can0 015#01 R
(1720633390.562701) can0 016#27 R
(1720633390.562820) can0 041#01 R
(1720633390.562951) can0 056#01 R
(1720633390.589675) can0 007#01 R
(1720633390.597224) can0 00E#FAFE R
(1720633390.597395) can0 05C#FAFEF9FE R
(1720633390.597512) can0 041#01 R
(1720633390.597627) can0 016#27 R
(1720633390.597743) can0 015#01 R
(1720633390.597861) can0 017#01 R
(1720633390.597977) can0 056#01 R
(1720633390.621499) can0 00D#17FF R
(1720633390.621633) can0 05B#17FF R
(1720633390.621750) can0 014#01 R
(1720633390.621865) can0 008#01 R
(1720633390.621981) can0 055#01 R
(1720633390.622098) can0 05D#01 R
(1720633390.624252) can0 015#01 R
(1720633390.625045) can0 016#27 R
(1720633390.625164) can0 041#01 R
(1720633390.625331) can0 05C#1DFF1DFF R
(1720633390.625448) can0 056#01 R
(1720633390.625581) can0 00E#1DFF R
(1720633390.625716) can0 00E#1DFF R
(1720633390.625884) can0 05C#1DFF1DFF R
(1720633390.626268) can0 016#27 R
(1720633390.646998) can0 00E#36FF R
(1720633390.647166) can0 05C#36FF36FF R
(1720633390.647282) can0 041#01 R
(1720633390.647399) can0 016#27 R
(1720633390.647516) can0 015#01 R
(1720633390.647635) can0 017#01 R
(1720633390.647751) can0 056#01 R
(1720633390.653258) can0 007#01 R
(1720633390.684113) can0 00D#5DFF R
(1720633390.684244) can0 05B#5DFF R
(1720633390.684361) can0 014#01 R
(1720633390.684480) can0 008#01 R
(1720633390.684594) can0 055#01 R
(1720633390.684714) can0 05D#01 R
(1720633390.686970) can0 015#01 R
(1720633390.687101) can0 00E#61FF R
(1720633390.687235) can0 00E#61FF R
(1720633390.687937) can0 016#27 R
(1720633390.688054) can0 041#01 R
(1720633390.688221) can0 05C#62FF62FF R
(1720633390.688336) can0 056#01 R
(1720633390.688502) can0 05C#62FF62FF R
(1720633390.688618) can0 016#27 R
(1720633390.696665) can0 00E#6BFF R
(1720633390.696835) can0 05C#6BFF6BFF R
(1720633390.696953) can0 041#01 R
(1720633390.697069) can0 016#27 R
(1720633390.697184) can0 015#01 R
(1720633390.697302) can0 017#01 R
(1720633390.697418) can0 056#01 R
(1720633390.714707) can0 007#01 R
(1720633390.744629) can0 00D#95FF R
(1720633390.744761) can0 05B#95FF R
(1720633390.744877) can0 014#01 R
(1720633390.744993) can0 008#01 R
(1720633390.745109) can0 055#01 R
(1720633390.745228) can0 05D#01 R
(1720633390.746556) can0 00E#98FF R
(1720633390.746689) can0 00E#98FF R
(1720633390.746854) can0 05C#98FF98FF R
(1720633390.746974) can0 041#01 R
(1720633390.747089) can0 016#27 R
(1720633390.747204) can0 015#01 R
(1720633390.747322) can0 017#01 R
(1720633390.747438) can0 056#01 R
(1720633390.747554) can0 015#01 R
(1720633390.747671) can0 016#27 R
(1720633390.747788) can0 041#01 R
(1720633390.747958) can0 05C#99FF99FF R
(1720633390.748074) can0 056#01 R
(1720633390.748209) can0 00E#99FF R
(1720633390.748380) can0 05C#99FF99FF R
(1720633390.748495) can0 016#27 R
(1720633390.774737) can0 007#01 R
(1720633390.796036) can0 00E#BDFF R
(1720633390.796203) can0 05C#BDFFBCFF R
(1720633390.796322) can0 041#01 R
(1720633390.796438) can0 016#27 R
(1720633390.796557) can0 015#01 R
(1720633390.796673) can0 017#01 R
(1720633390.796788) can0 056#01 R
(1720633390.805299) can0 00D#C1FF R
(1720633390.805436) can0 05B#C1FF R
(1720633390.805551) can0 014#01 R
(1720633390.805669) can0 008#01 R
(1720633390.805786) can0 055#01 R
(1720633390.805903) can0 05D#01 R
(1720633390.808086) can0 05C#C4FFC4FF R
(1720633390.808220) can0 00E#C4FF R
(1720633390.808852) can0 015#01 R
(1720633390.808969) can0 016#27 R
(1720633390.809087) can0 041#01 R
(1720633390.809203) can0 056#01 R
(1720633390.809336) can0 00E#C4FF R
(1720633390.809509) can0 05C#C4FFC4FF R
(1720633390.809624) can0 016#27 R
(1720633390.836133) can0 007#01 R
(1720633390.845969) can0 00E#D9FF R
(1720633390.846138) can0 05C#D9FFD9FF R
(1720633390.846256) can0 041#01 R
(1720633390.846371) can0 016#27 R
(1720633390.846488) can0 015#01 R
(1720633390.846605) can0 017#01 R
(1720633390.846721) can0 056#01 R
(1720633390.867217) can0 00D#E2FF R
(1720633390.867351) can0 05B#E2FF R
(1720633390.867468) can0 014#01 R
(1720633390.867583) can0 008#01 R
(1720633390.867698) can0 055#01 R
(1720633390.867817) can0 05D#01 R
(1720633390.869972) can0 05C#E4FFE4FF R
(1720633390.870815) can0 015#01 R
(1720633390.870931) can0 016#27 R
(1720633390.871050) can0 041#01 R
(1720633390.871165) can0 056#01 R
(1720633390.871301) can0 00E#E4FF R
(1720633390.871437) can0 00E#E4FF R
(1720633390.871604) can0 05C#E4FFE4FF R
(1720633390.871884) can0 016#27 R
(1720633390.896148) can0 00E#EEFF R
(1720633390.896316) can0 05C#EEFFEEFF R
(1720633390.896432) can0 041#01 R
(1720633390.896549) can0 016#27 R
(1720633390.896664) can0 015#01 R
(1720633390.896785) can0 017#01 R
(1720633390.896900) can0 056#01 R
(1720633390.898154) can0 007#01 R
(1720633390.929409) can0 00D#F6FF R
(1720633390.929540) can0 05B#F6FF R
(1720633390.929678) can0 014#01 R
(1720633390.929793) can0 008#01 R
(1720633390.929910) can0 055#01 R
(1720633390.930027) can0 05D#01 R
(1720633390.931164) can0 00E#F7FF R
(1720633390.931297) can0 00E#F7FF R
(1720633390.932103) can0 015#01 R
(1720633390.932218) can0 016#27 R
(1720633390.932336) can0 041#01 R
(1720633390.932511) can0 05C#F7FFF7FF R
(1720633390.932687) can0 05C#F7FFF7FF R
(1720633390.932803) can0 016#27 R
(1720633390.933272) can0 056#01 R
(1720633390.946155) can0 00E#FAFF R
(1720633390.946326) can0 05C#FAFFFAFF R
(1720633390.946445) can0 041#01 R
(1720633390.946561) can0 016#27 R
(1720633390.946675) can0 015#01 R
(1720633390.946793) can0 017#01 R
(1720633390.946909) can0 056#01 R
(1720633390.959394) can0 007#01 R
(1720633390.990003) can0 00D#FEFF R
(1720633390.990140) can0 05B#FEFF R
(1720633390.990254) can0 014#01 R
(1720633390.990369) can0 008#01 R
(1720633390.990486) can0 055#01 R
(1720633390.990606) can0 05D#01 R
(1720633390.992773) can0 015#01 R
(1720633390.992889) can0 016#27 R
(1720633390.993063) can0 05C#FEFFFEFF R
(1720633390.993199) can0 00E#FFFF R
(1720633390.993873) can0 041#01 R
(1720633390.993990) can0 056#01 R
(1720633390.994125) can0 00E#FFFF R
(1720633390.994299) can0 05C#FEFFFEFF R
(1720633390.994415) can0 016#27 R
(1720633390.995851) can0 00E#FFFF R
(1720633390.996025) can0 05C#FEFFFEFF R
(1720633390.996143) can0 041#01 R
(1720633390.996259) can0 016#27 R
(1720633390.996375) can0 015#01 R
(1720633390.996492) can0 017#01 R
(1720633390.996609) can0 056#01 R
(1720633391.020182) can0 007#01 R
(1720633391.046515) can0 00E#FBFF R
(1720633391.046689) can0 05C#FBFFFBFF R
(1720633391.046806) can0 041#01 R
(1720633391.046922) can0 016#27 R
(1720633391.047039) can0 015#01 R
(1720633391.047156) can0 017#01 R
(1720633391.047272) can0 056#01 R
(1720633391.050839) can0 00D#FAFF R
(1720633391.050974) can0 05B#FAFF R
(1720633391.051151) can0 014#01 R
(1720633391.051280) can0 008#01 R
(1720633391.051382) can0 055#01 R
(1720633391.051504) can0 05D#01 R
(1720633391.053565) can0 015#01 R
(1720633391.053735) can0 05C#FAFFFAFF R
(1720633391.053871) can0 00E#FAFF R
(1720633391.054539) can0 016#27 R
(1720633391.054658) can0 041#01 R
(1720633391.054774) can0 056#01 R
(1720633391.054910) can0 00E#FAFF R
(1720633391.055082) can0 05C#F9FFF9FF R
(1720633391.055198) can0 016#27 R
(1720633391.082440) can0 007#01 R
(1720633391.095682) can0 00E#EFFF R
(1720633391.095853) can0 05C#EFFFEFFF R
(1720633391.095971) can0 041#01 R
(1720633391.096087) can0 016#27 R
(1720633391.096202) can0 015#01 R
(1720633391.096321) can0 017#01 R
(1720633391.096439) can0 056#01 R
(1720633391.112694) can0 00D#EAFF R
(1720633391.112825) can0 05B#EAFF R
(1720633391.112941) can0 014#01 R
(1720633391.113057) can0 008#01 R
(1720633391.113172) can0 055#01 R
(1720633391.113291) can0 05D#01 R
(1720633391.115501) can0 05C#E8FFE8FF R
(1720633391.115633) can0 00E#E8FF R
(1720633391.115767) can0 00E#E8FF R
(1720633391.115939) can0 05C#E8FFE8FF R
(1720633391.116592) can0 015#01 R
(1720633391.116708) can0 016#27 R
(1720633391.116826) can0 041#01 R
(1720633391.116942) can0 056#01 R
(1720633391.117057) can0 016#27 R
(1720633391.142984) can0 007#01 R
(1720633391.145751) can0 00E#DBFF R
(1720633391.145921) can0 05C#DBFFDBFF R
(1720633391.146039) can0 041#01 R
(1720633391.146155) can0 016#27 R
(1720633391.146271) can0 015#01 R
(1720633391.146389) can0 017#01 R
(1720633391.146505) can0 056#01 R
(1720633391.173202) can0 00D#CEFF R
(1720633391.173338) can0 05B#CEFF R
(1720633391.173453) can0 014#01 R
(1720633391.173570) can0 008#01 R
(1720633391.173686) can0 055#01 R
(1720633391.173803) can0 05D#01 R
(1720633391.176031) can0 05C#CBFFCBFF R
(1720633391.176148) can0 056#01 R
(1720633391.176284) can0 00E#CBFF R
(1720633391.176418) can0 00E#CBFF R
(1720633391.176919) can0 015#01 R
(1720633391.177035) can0 016#27 R
(1720633391.177155) can0 041#01 R
(1720633391.177324) can0 05C#CBFFCBFF R
(1720633391.177444) can0 016#27 R
(1720633391.199190) can0 00E#BDFF R
(1720633391.199361) can0 05C#BDFFBDFF R
(1720633391.199479) can0 041#01 R
(1720633391.199594) can0 016#27 R
(1720633391.199711) can0 015#01 R
(1720633391.199828) can0 017#01 R
(1720633391.199944) can0 056#01 R
(1720633391.204357) can0 007#01 R
(1720633391.235057) can0 00D#A5FF R
(1720633391.235192) can0 05B#A5FF R
(1720633391.235308) can0 014#01 R
(1720633391.235424) can0 008#01 R
(1720633391.235539) can0 055#01 R
(1720633391.235657) can0 05D#01 R
(1720633391.237695) can0 015#01 R
(1720633391.237960) can0 016#27 R
(1720633391.238097) can0 00E#A2FF R
(1720633391.238586) can0 041#01 R
(1720633391.238755) can0 05C#A1FFA1FF R
(1720633391.238871) can0 056#01 R
(1720633391.239005) can0 00E#A1FF R
(1720633391.239175) can0 05C#A1FFA1FF R
(1720633391.239291) can0 016#27 R
(1720633391.248725) can0 00E#99FF R
(1720633391.248894) can0 05C#99FF99FF R
(1720633391.249012) can0 041#01 R
(1720633391.249130) can0 016#27 R
(1720633391.249246) can0 015#01 R
(1720633391.249363) can0 017#01 R
(1720633391.249480) can0 056#01 R
(1720633391.265522) can0 007#01 R
(1720633391.297129) can0 00D#6FFF R
(1720633391.297260) can0 05B#6FFF R
(1720633391.297379) can0 014#01 R
(1720633391.297492) can0 008#01 R
(1720633391.297607) can0 055#01 R
(1720633391.297725) can0 05D#01 R
(1720633391.299001) can0 00E#6CFF R
(1720633391.299132) can0 00E#6CFF R
(1720633391.299297) can0 05C#6CFF6CFF R
(1720633391.299415) can0 041#01 R
(1720633391.299531) can0 016#27 R
(1720633391.299647) can0 015#01 R
(1720633391.299765) can0 017#01 R
(1720633391.299881) can0 056#01 R
(1720633391.300000) can0 015#01 R
(1720633391.300113) can0 016#27 R
(1720633391.300234) can0 041#01 R
(1720633391.300403) can0 05C#6BFF6BFF R
(1720633391.300519) can0 056#01 R
(1720633391.300656) can0 00E#6BFF R
(1720633391.300826) can0 05C#6BFF6BFF R
(1720633391.300944) can0 016#27 R
(1720633391.327922) can0 007#01 R
(1720633391.348668) can0 00E#38FF R
(1720633391.348841) can0 05C#37FF37FF R
(1720633391.348960) can0 041#01 R
(1720633391.349076) can0 016#27 R
(1720633391.349191) can0 015#01 R
(1720633391.349310) can0 017#01 R
(1720633391.349427) can0 056#01 R
(1720633391.357743) can0 00D#30FF R
(1720633391.357875) can0 05B#30FF R
(1720633391.358083) can0 014#01 R
(1720633391.358199) can0 008#01 R
(1720633391.358314) can0 055#01 R
(1720633391.358432) can0 05D#01 R
(1720633391.360461) can0 015#01 R
(1720633391.360629) can0 05C#2AFF2AFF R
(1720633391.361461) can0 016#27 R
(1720633391.361580) can0 041#01 R
(1720633391.361696) can0 056#01 R
(1720633391.361827) can0 00E#29FF R
(1720633391.361959) can0 00E#29FF R
(1720633391.362128) can0 05C#28FF28FF R
(1720633391.362581) can0 016#27 R
(1720633391.387689) can0 007#01 R
(1720633391.399136) can0 00E#FBFE R
(1720633391.399308) can0 05C#FBFEFBFE R
(1720633391.399426) can0 041#01 R
(1720633391.399542) can0 016#27 R
(1720633391.399658) can0 015#01 R
(1720633391.399777) can0 017#01 R
(1720633391.399894) can0 056#01 R
(1720633391.418749) can0 00D#E3FE R
(1720633391.418881) can0 05B#E3FE R
(1720633391.418998) can0 014#01 R
(1720633391.419112) can0 008#01 R
(1720633391.419230) can0 055#01 R
(1720633391.419348) can0 05D#01 R
(1720633391.421325) can0 015#01 R
(1720633391.421441) can0 016#27 R
(1720633391.421607) can0 05C#DCFEDCFE R
(1720633391.421723) can0 056#01 R
(1720633391.421857) can0 00E#DCFE R
(1720633391.421991) can0 00E#DCFE R
(1720633391.422324) can0 041#01 R
(1720633391.422492) can0 05C#DBFEDBFE R
(1720633391.422608) can0 016#27 R
(1720633391.448286) can0 00E#B6FE R
(1720633391.448453) can0 05C#B6FEB6FE R
(1720633391.448570) can0 041#01 R
(1720633391.448688) can0 007#01 R
(1720633391.448803) can0 016#27 R
(1720633391.448919) can0 015#01 R
(1720633391.449037) can0 017#01 R
(1720633391.449153) can0 056#01 R
(1720633391.479420) can0 00D#8BFE R
(1720633391.479551) can0 05B#8BFE R
(1720633391.479721) can0 014#01 R
(1720633391.479836) can0 008#01 R
(1720633391.479952) can0 055#01 R
(1720633391.480072) can0 05D#01 R
(1720633391.482131) can0 015#01 R
(1720633391.482247) can0 016#27 R
(1720633391.482385) can0 00E#83FE R
(1720633391.483143) can0 041#01 R
(1720633391.483314) can0 05C#81FE81FE R
(1720633391.483430) can0 056#01 R
(1720633391.483563) can0 00E#81FE R
(1720633391.483734) can0 05C#81FE81FE R
(1720633391.483849) can0 016#27 R
(1720633391.498178) can0 00E#6AFE R
(1720633391.498343) can0 05C#69FE69FE R
(1720633391.498461) can0 041#01 R
(1720633391.498577) can0 016#27 R
(1720633391.498693) can0 015#01 R
(1720633391.498812) can0 017#01 R
(1720633391.498929) can0 056#01 R
(1720633391.511048) can0 007#01 R
(1720633391.542093) can0 00D#23FE R
(1720633391.542230) can0 05B#23FE R
(1720633391.542344) can0 014#01 R
(1720633391.542462) can0 008#01 R
(1720633391.542576) can0 055#01 R
(1720633391.542693) can0 05D#01 R
(1720633391.544423) can0 015#01 R
(1720633391.544556) can0 00E#1CFE R
(1720633391.545375) can0 016#27 R
(1720633391.545494) can0 041#01 R
(1720633391.545661) can0 05C#1AFE1AFE R
(1720633391.545777) can0 056#01 R
(1720633391.545909) can0 00E#1AFE R
(1720633391.546077) can0 05C#1AFE1AFE R
(1720633391.546193) can0 016#27 R
(1720633391.547649) can0 00E#15FE R
(1720633391.547818) can0 05C#15FE15FE R
(1720633391.547937) can0 041#01 R
(1720633391.548055) can0 016#27 R
(1720633391.548170) can0 015#01 R
(1720633391.548288) can0 017#01 R
(1720633391.548404) can0 056#01 R
(1720633391.572338) can0 007#01 R
(1720633391.598011) can0 00E#B8FD R
(1720633391.598178) can0 05C#B8FDB8FD R
(1720633391.598295) can0 041#01 R
(1720633391.598411) can0 016#27 R
(1720633391.598527) can0 015#01 R
(1720633391.598645) can0 017#01 R
(1720633391.598761) can0 056#01 R
(1720633391.602291) can0 00D#B4FD R
(1720633391.602429) can0 05B#B4FD R
(1720633391.602545) can0 014#01 R
(1720633391.602664) can0 008#01 R
(1720633391.602777) can0 055#01 R
(1720633391.602896) can0 05D#01 R
(1720633391.603962) can0 015#01 R
(1720633391.604080) can0 016#27 R
(1720633391.605004) can0 041#01 R
(1720633391.605139) can0 00E#ABFD R
(1720633391.605269) can0 00E#ABFD R
(1720633391.605434) can0 05C#ABFDABFD R
(1720633391.605971) can0 05C#A9FDA9FD R
(1720633391.606087) can0 056#01 R
(1720633391.606203) can0 016#27 R
(1720633391.632950) can0 007#01 R
(1720633391.648502) can0 00E#54FD R
(1720633391.648670) can0 05C#54FD54FD R
(1720633391.648785) can0 041#01 R
(1720633391.648901) can0 016#27 R
(1720633391.649017) can0 015#01 R
(1720633391.649135) can0 017#01 R
(1720633391.649251) can0 056#01 R
(1720633391.663977) can0 00D#36FD R
(1720633391.664110) can0 05B#36FD R
(1720633391.664226) can0 014#01 R
(1720633391.664342) can0 008#01 R
(1720633391.664458) can0 055#01 R
(1720633391.664576) can0 05D#01 R
(1720633391.666634) can0 015#01 R
(1720633391.666751) can0 016#27 R
(1720633391.666917) can0 05C#2DFD2DFD R
(1720633391.667035) can0 056#01 R
(1720633391.667166) can0 00E#2EFD R
(1720633391.667298) can0 00E#2EFD R
(1720633391.667592) can0 041#01 R
(1720633391.667757) can0 05C#2BFD2BFD R
(1720633391.667874) can0 016#27 R
(1720633391.694659) can0 007#01 R
(1720633391.697637) can0 00E#E7FC R
(1720633391.697804) can0 05C#E7FCE7FC R
(1720633391.697921) can0 041#01 R
(1720633391.698037) can0 016#27 R
(1720633391.698154) can0 015#01 R
(1720633391.698271) can0 017#01 R
(1720633391.698387) can0 056#01 R
(1720633391.725943) can0 00D#ACFC R
(1720633391.726079) can0 05B#ACFC R
(1720633391.726194) can0 014#01 R
(1720633391.726313) can0 008#01 R
(1720633391.726426) can0 055#01 R
(1720633391.726547) can0 05D#01 R
(1720633391.728994) can0 05C#A0FCA0FC R
(1720633391.729128) can0 00E#A0FC R
(1720633391.729595) can0 015#01 R
(1720633391.729711) can0 016#27 R
(1720633391.729830) can0 041#01 R
(1720633391.729947) can0 056#01 R
(1720633391.730077) can0 00E#9EFC R
(1720633391.730245) can0 05C#9EFC9DFC R
(1720633391.730361) can0 016#27 R
(1720633391.747837) can0 00E#73FC R
(1720633391.748002) can0 05C#73FC73FC R
(1720633391.748120) can0 041#01 R
(1720633391.748236) can0 016#27 R
(1720633391.748352) can0 015#01 R
(1720633391.748469) can0 017#01 R
(1720633391.748585) can0 056#01 R
(1720633391.755900) can0 007#01 R
(1720633391.786852) can0 00D#18FC R
(1720633391.786981) can0 05B#18FC R
(1720633391.787208) can0 014#01 R
(1720633391.787324) can0 008#01 R
(1720633391.787440) can0 055#01 R
(1720633391.787558) can0 05D#01 R
(1720633391.789906) can0 05C#0BFC0BFC R
(1720633391.790022) can0 056#01 R
(1720633391.790158) can0 00E#0BFC R
(1720633391.790651) can0 015#01 R
(1720633391.790767) can0 016#27 R
(1720633391.790885) can0 041#01 R
(1720633391.791027) can0 00E#08FC R
(1720633391.791199) can0 05C#08FC08FC R
(1720633391.791315) can0 016#27 R
(1720633391.798017) can0 00E#F7FB R
(1720633391.798184) can0 05C#F6FBF6FB R
(1720633391.798302) can0 041#01 R
(1720633391.798418) can0 016#27 R
(1720633391.798534) can0 015#01 R
(1720633391.798652) can0 017#01 R
(1720633391.798768) can0 056#01 R
(1720633391.816908) can0 007#01 R
(1720633391.847512) can0 00E#73FB R
(1720633391.847726) can0 00D#78FB R
(1720633391.847858) can0 05B#78FB R
(1720633391.847974) can0 014#01 R
(1720633391.848090) can0 008#01 R
(1720633391.848205) can0 055#01 R
(1720633391.848374) can0 05C#72FB72FB R
(1720633391.848491) can0 041#01 R
(1720633391.848608) can0 016#27 R
(1720633391.848723) can0 015#01 R
(1720633391.848841) can0 017#01 R
(1720633391.848957) can0 056#01 R
(1720633391.849075) can0 05D#01 R
(1720633391.850611) can0 05C#6AFB6AFB R
(1720633391.850727) can0 056#01 R
(1720633391.850859) can0 00E#6AFB R
(1720633391.850992) can0 00E#6AFB R
(1720633391.851157) can0 05C#6AFB6AFB R
(1720633391.851460) can0 015#01 R
(1720633391.851576) can0 016#27 R
(1720633391.851694) can0 041#01 R
(1720633391.851810) can0 016#27 R
(1720633391.878458) can0 007#01 R
(1720633391.897442) can0 00E#E7FA R
(1720633391.897608) can0 05C#E7FAE7FA R
(1720633391.897725) can0 041#01 R
(1720633391.897841) can0 016#27 R
(1720633391.897956) can0 015#01 R
(1720633391.898076) can0 017#01 R
(1720633391.898191) can0 056#01 R
(1720633391.909673) can0 00D#CAFA R
(1720633391.909807) can0 05B#CAFA R
(1720633391.909923) can0 014#01 R
(1720633391.910039) can0 008#01 R
(1720633391.910155) can0 055#01 R
(1720633391.910278) can0 05D#01 R
(1720633391.912265) can0 015#01 R
(1720633391.912398) can0 00E#BBFA R
(1720633391.912529) can0 00E#BBFA R
(1720633391.913351) can0 016#27 R
(1720633391.913470) can0 041#01 R
(1720633391.913638) can0 05C#B8FAB8FA R
(1720633391.913765) can0 056#01 R
(1720633391.913922) can0 05C#B8FAB8FA R
(1720633391.914038) can0 016#27 R
(1720633391.941004) can0 007#01 R
(1720633391.948013) can0 00E#53FA R
(1720633391.948182) can0 05C#53FA53FA R
(1720633391.948299) can0 041#01 R
(1720633391.948415) can0 016#27 R
(1720633391.948531) can0 015#01 R
(1720633391.948649) can0 017#01 R
(1720633391.948765) can0 056#01 R
(1720633391.971179) can0 00D#10FA R
(1720633391.971311) can0 05B#10FA R
(1720633391.971424) can0 014#01 R
(1720633391.971540) can0 008#01 R
(1720633391.971656) can0 055#01 R
(1720633391.971774) can0 05D#01 R
(1720633391.973848) can0 00E#03FA R
(1720633391.974833) can0 015#01 R
(1720633391.974965) can0 016#27 R
(1720633391.975067) can0 041#01 R
(1720633391.975241) can0 05C#00FA00FA R
(1720633391.975357) can0 056#01 R
(1720633391.975493) can0 00E#00FA R
(1720633391.975665) can0 05C#00FA00FA R
(1720633391.975780) can0 016#27 R
(1720633391.997326) can0 00E#B8F9 R
(1720633391.997492) can0 05C#B8F9B8F9 R
(1720633391.997609) can0 041#01 R
(1720633391.997725) can0 016#27 R
(1720633391.997841) can0 015#01 R
(1720633391.997959) can0 017#01 R
(1720633391.998074) can0 056#01 R
(1720633392.001650) can0 007#01 R
(1720633392.031677) can0 00D#50F9 R
(1720633392.031809) can0 05B#50F9 R
(1720633392.031946) can0 014#01 R
(1720633392.032062) can0 008#01 R
(1720633392.032178) can0 055#01 R
(1720633392.032296) can0 05D#01 R
(1720633392.033546) can0 00E#43F9 R
(1720633392.034397) can0 015#01 R
(1720633392.034567) can0 05C#40F940F9 R
(1720633392.034683) can0 056#01 R
(1720633392.034817) can0 00E#40F9 R
(1720633392.034987) can0 05C#40F940F9 R
(1720633392.035103) can0 016#26 R
(1720633392.035406) can0 016#26 R
(1720633392.035524) can0 041#01 R
(1720633392.047366) can0 00E#15F9 R
(1720633392.047535) can0 05C#15F914F9 R
(1720633392.047652) can0 041#01 R
(1720633392.047768) can0 016#26 R
(1720633392.047884) can0 015#01 R
(1720633392.048002) can0 017#01 R
(1720633392.048118) can0 056#01 R
(1720633392.061798) can0 007#01 R
(1720633392.093039) can0 00D#7FF8 R
(1720633392.093174) can0 05B#7FF8 R
(1720633392.093333) can0 014#01 R
(1720633392.093449) can0 008#01 R
(1720633392.093565) can0 055#01 R
(1720633392.093683) can0 05D#01 R
(1720633392.096011) can0 015#01 R
(1720633392.096127) can0 016#26 R
(1720633392.096246) can0 041#01 R
(1720633392.096377) can0 00E#6DF8 R
(1720633392.096509) can0 00E#6DF8 R
(1720633392.096675) can0 05C#6DF86DF8 R
(1720633392.097372) can0 05C#6AF86AF8 R
(1720633392.097488) can0 056#01 R
(1720633392.097607) can0 016#26 R
(1720633392.097739) can0 00E#6AF8 R
(1720633392.097904) can0 05C#6AF86AF8 R
(1720633392.098022) can0 041#01 R
(1720633392.098140) can0 016#26 R
(1720633392.098255) can0 015#01 R
(1720633392.098374) can0 017#01 R
(1720633392.098493) can0 056#01 R
(1720633392.123977) can0 007#01 R
(1720633392.146789) can0 00E#B8F7 R
(1720633392.146973) can0 05C#B8F7B7F7 R
(1720633392.147072) can0 041#01 R
(1720633392.147187) can0 016#26 R
(1720633392.147303) can0 015#01 R
(1720633392.147423) can0 017#01 R
(1720633392.147537) can0 056#01 R
(1720633392.156095) can0 00D#9EF7 R
(1720633392.156229) can0 05B#9EF7 R
(1720633392.156344) can0 014#01 R
(1720633392.156460) can0 008#01 R
(1720633392.156576) can0 055#01 R
(1720633392.156694) can0 05D#01 R
(1720633392.159139) can0 015#01 R
(1720633392.159255) can0 016#26 R
(1720633392.159387) can0 00E#8CF7 R
(1720633392.159521) can0 00E#8CF7 R
(1720633392.160389) can0 041#01 R
(1720633392.160554) can0 05C#88F788F7 R
(1720633392.160671) can0 056#01 R
(1720633392.160833) can0 05C#88F788F7 R
(1720633392.160949) can0 016#26 R
(1720633392.186827) can0 007#01 R
(1720633392.197088) can0 00E#FEF6 R
(1720633392.197254) can0 05C#FEF6FEF6 R
(1720633392.197372) can0 041#01 R
(1720633392.197489) can0 016#26 R
(1720633392.197605) can0 015#01 R
(1720633392.197723) can0 017#01 R
(1720633392.197839) can0 056#01 R
(1720633392.217618) can0 00D#B9F6 R
(1720633392.217754) can0 05B#B9F6 R
(1720633392.217870) can0 014#01 R
(1720633392.217985) can0 008#01 R
(1720633392.218101) can0 055#01 R
(1720633392.218219) can0 05D#01 R
(1720633392.220346) can0 015#01 R
(1720633392.220462) can0 016#26 R
(1720633392.220580) can0 041#01 R
(1720633392.220742) can0 05C#A6F6A6F6 R
(1720633392.220858) can0 056#01 R
(1720633392.220988) can0 00E#A6F6 R
(1720633392.221813) can0 00E#A2F6 R
(1720633392.221975) can0 05C#A2F6A2F6 R
(1720633392.222090) can0 016#26 R
(1720633392.247649) can0 00E#3CF6 R
(1720633392.247767) can0 007#01 R
(1720633392.247929) can0 05C#3CF63CF6 R
(1720633392.248047) can0 041#01 R
(1720633392.248162) can0 016#26 R
(1720633392.248278) can0 015#01 R
(1720633392.248396) can0 017#01 R
(1720633392.248512) can0 056#01 R
(1720633392.278516) can0 00D#C5F5 R
(1720633392.278650) can0 05B#C5F5 R
(1720633392.278765) can0 014#01 R
(1720633392.278883) can0 008#01 R
(1720633392.279000) can0 055#01 R
(1720633392.279117) can0 05D#01 R
(1720633392.280241) can0 00E#B9F5 R
(1720633392.281249) can0 015#01 R
(1720633392.281412) can0 05C#B5F5B4F5 R
(1720633392.281546) can0 00E#B5F5 R
(1720633392.281710) can0 05C#B5F5B4F5 R
(1720633392.281831) can0 016#26 R
(1720633392.282469) can0 016#26 R
(1720633392.282588) can0 041#01 R
(1720633392.282703) can0 056#01 R
(1720633392.296754) can0 00E#74F5 R
(1720633392.296920) can0 05C#73F573F5 R
(1720633392.297038) can0 041#01 R
(1720633392.297156) can0 016#26 R
(1720633392.297272) can0 015#01 R
(1720633392.297390) can0 017#01 R
(1720633392.297506) can0 056#01 R
(1720633392.309235) can0 007#01 R
(1720633392.339976) can0 00D#C9F4 R
(1720633392.340109) can0 05B#C9F4 R
(1720633392.340349) can0 014#01 R
(1720633392.340465) can0 008#01 R
(1720633392.340580) can0 055#01 R
(1720633392.340698) can0 05D#01 R
(1720633392.342855) can0 015#01 R
(1720633392.342973) can0 016#26 R
(1720633392.343133) can0 05C#B4F4B4F4 R
(1720633392.343249) can0 056#01 R
(1720633392.343381) can0 00E#B4F4 R
(1720633392.343513) can0 00E#B4F4 R
(1720633392.343675) can0 05C#B4F4B4F4 R
(1720633392.343956) can0 041#01 R
(1720633392.344072) can0 016#26 R
(1720633392.347280) can0 00E#A3F4 R
(1720633392.347446) can0 05C#A3F4A3F4 R
(1720633392.347564) can0 041#01 R
(1720633392.347679) can0 016#26 R
(1720633392.347797) can0 015#01 R
(1720633392.347915) can0 017#01 R
(1720633392.348031) can0 056#01 R
(1720633392.370656) can0 007#01 R
(1720633392.397004) can0 00E#CCF3 R
(1720633392.397167) can0 05C#CCF3CCF3 R
(1720633392.397285) can0 041#01 R
(1720633392.397400) can0 016#26 R
(1720633392.397516) can0 015#01 R
(1720633392.397634) can0 017#01 R
(1720633392.397750) can0 056#01 R
(1720633392.401312) can0 00D#C3F3 R
(1720633392.401447) can0 05B#C3F3 R
(1720633392.401563) can0 014#01 R
(1720633392.401678) can0 008#01 R
(1720633392.401795) can0 055#01 R
(1720633392.401914) can0 05D#01 R
(1720633392.403858) can0 015#01 R
(1720633392.404209) can0 05C#ADF3ADF3 R
(1720633392.404325) can0 056#01 R
(1720633392.404457) can0 00E#ADF3 R
(1720633392.404589) can0 00E#ADF3 R
(1720633392.404763) can0 016#26 R
(1720633392.404881) can0 041#01 R
(1720633392.405043) can0 05C#A8F3A8F3 R
(1720633392.405159) can0 016#26 R
(1720633392.431806) can0 007#01 R
(1720633392.447187) can0 00E#EDF2 R
(1720633392.447353) can0 05C#EDF2EDF2 R
(1720633392.447471) can0 041#01 R
(1720633392.447588) can0 016#25 R
(1720633392.447700) can0 015#01 R
(1720633392.447819) can0 017#01 R
(1720633392.447934) can0 056#01 R
(1720633392.463067) can0 00D#ADF2 R
(1720633392.463200) can0 05B#ADF2 R
(1720633392.463316) can0 014#01 R
(1720633392.463432) can0 008#01 R
(1720633392.463547) can0 055#01 R
(1720633392.463665) can0 05D#01 R
(1720633392.465537) can0 015#01 R
(1720633392.465651) can0 016#25 R
(1720633392.465780) can0 00E#96F2 R
(1720633392.466481) can0 041#01 R
(1720633392.466650) can0 05C#91F291F2 R
(1720633392.466765) can0 056#01 R
(1720633392.466897) can0 00E#91F2 R
(1720633392.467067) can0 05C#91F291F2 R
(1720633392.467182) can0 016#25 R
(1720633392.493878) can0 007#01 R
(1720633392.496887) can0 00E#06F2 R
(1720633392.497055) can0 05C#06F206F2 R
(1720633392.497173) can0 041#01 R
(1720633392.497287) can0 016#25 R
(1720633392.497405) can0 015#01 R
(1720633392.497523) can0 017#01 R
(1720633392.497642) can0 056#01 R
(1720633392.524176) can0 00D#8CF1 R
(1720633392.524307) can0 05B#8CF1 R
(1720633392.524423) can0 014#01 R
(1720633392.524539) can0 008#01 R
(1720633392.524655) can0 055#01 R
(1720633392.524773) can0 05D#01 R
(1720633392.527113) can0 015#01 R
(1720633392.527246) can0 00E#79F1 R
(1720633392.528027) can0 016#25 R
(1720633392.528146) can0 041#01 R
(1720633392.528306) can0 05C#74F174F1 R
(1720633392.528422) can0 056#01 R
(1720633392.528552) can0 00E#74F1 R
(1720633392.528717) can0 05C#74F174F1 R
(1720633392.528828) can0 016#25 R
(1720633392.546305) can0 00E#19F1 R
(1720633392.546472) can0 05C#19F119F1 R
(1720633392.546590) can0 041#01 R
(1720633392.546704) can0 016#25 R
(1720633392.546820) can0 015#01 R
(1720633392.546950) can0 017#01 R
(1720633392.547054) can0 056#01 R
(1720633392.554419) can0 007#01 R
(1720633392.585524) can0 00D#65F0 R
(1720633392.585659) can0 05B#65F0 R
(1720633392.585776) can0 014#01 R
(1720633392.585892) can0 008#01 R
(1720633392.586008) can0 055#01 R
(1720633392.586126) can0 05D#01 R
(1720633392.589519) can0 015#01 R
(1720633392.589635) can0 016#25 R
(1720633392.589754) can0 041#01 R
(1720633392.589923) can0 05C#47F047F0 R
(1720633392.590039) can0 056#01 R
(1720633392.590175) can0 00E#47F0 R
(1720633392.590311) can0 00E#47F0 R
(1720633392.590481) can0 05C#47F047F0 R
(1720633392.590594) can0 016#25 R
(1720633392.596580) can0 00E#25F0 R
(1720633392.596744) can0 05C#24F024F0 R
(1720633392.596862) can0 041#01 R
(1720633392.596979) can0 016#25 R
(1720633392.597091) can0 015#01 R
(1720633392.597213) can0 017#01 R
(1720633392.597327) can0 056#01 R
(1720633392.616117) can0 007#01 R
(1720633392.646666) can0 00E#29EF R
(1720633392.646833) can0 05C#29EF29EF R
(1720633392.646966) can0 00D#33EF R
(1720633392.647082) can0 041#01 R
(1720633392.647195) can0 016#25 R
(1720633392.647312) can0 015#01 R
(1720633392.647429) can0 017#01 R
(1720633392.647545) can0 056#01 R
(1720633392.647677) can0 05B#33EF R
(1720633392.647793) can0 014#01 R
(1720633392.647909) can0 008#01 R
(1720633392.648026) can0 055#01 R
(1720633392.648143) can0 05D#01 R
(1720633392.650420) can0 015#01 R
(1720633392.650534) can0 016#25 R
(1720633392.650702) can0 05C#14EF14EF R
(1720633392.650818) can0 056#01 R
(1720633392.650964) can0 00E#14EF R
(1720633392.651082) can0 00E#14EF R
(1720633392.651294) can0 041#01 R
(1720633392.651526) can0 05C#0FEF0FEF R
(1720633392.651639) can0 016#25 R
(1720633392.676661) can0 007#01 R
(1720633392.696383) can0 00E#26EE R
(1720633392.696546) can0 05C#26EE26EE R
(1720633392.696663) can0 041#01 R
(1720633392.696777) can0 016#25 R
(1720633392.696892) can0 015#01 R
(1720633392.697010) can0 017#01 R
(1720633392.697126) can0 056#01 R
(1720633392.706814) can0 00D#F7ED R
(1720633392.706959) can0 05B#F7ED R
(1720633392.707064) can0 014#01 R
(1720633392.707180) can0 008#01 R
(1720633392.707296) can0 055#01 R
(1720633392.707414) can0 05D#01 R
(1720633392.708728) can0 00E#E7ED R
(1720633392.710116) can0 05C#DCEDDCED R
(1720633392.710246) can0 00E#DDED R
(1720633392.710412) can0 05C#DCEDDCED R
(1720633392.710525) can0 016#25 R
(1720633392.711794) can0 015#01 R
(1720633392.711908) can0 016#25 R
(1720633392.712026) can0 041#01 R
(1720633392.712142) can0 056#01 R
(1720633392.738080) can0 007#01 R
(1720633392.748446) can0 00E#17ED R
(1720633392.748616) can0 05C#17ED17ED R
(1720633392.748734) can0 041#01 R
(1720633392.748848) can0 016#25 R
(1720633392.748963) can0 015#01 R
(1720633392.749081) can0 017#01 R
(1720633392.749197) can0 056#01 R
(1720633392.769107) can0 00D#ABEC R
(1720633392.769238) can0 05B#ABEC R
(1720633392.769354) can0 014#01 R
(1720633392.769470) can0 008#01 R
(1720633392.769588) can0 055#01 R
(1720633392.769704) can0 05D#01 R
(1720633392.773058) can0 015#01 R
(1720633392.773177) can0 016#24 R
(1720633392.773294) can0 041#01 R
(1720633392.773457) can0 05C#90EC90EC R
(1720633392.773588) can0 00E#90EC R
(1720633392.774948) can0 056#01 R
(1720633392.775081) can0 00E#7FEC R
(1720633392.775250) can0 05C#7FEC7FEC R
(1720633392.775368) can0 016#24 R
(1720633392.797075) can0 00E#07EC R
(1720633392.797240) can0 05C#06EC06EC R
(1720633392.797358) can0 041#01 R
(1720633392.797476) can0 016#24 R
(1720633392.797592) can0 015#01 R
(1720633392.797709) can0 017#01 R
(1720633392.797826) can0 056#01 R
(1720633392.799152) can0 007#01 R
(1720633392.830188) can0 00D#5AEB R
(1720633392.830318) can0 05B#5AEB R
(1720633392.830433) can0 014#01 R
(1720633392.830549) can0 008#01 R
(1720633392.830665) can0 055#01 R
(1720633392.830783) can0 05D#01 R
(1720633392.833359) can0 015#01 R
(1720633392.833843) can0 016#24 R
(1720633392.833961) can0 041#01 R
(1720633392.834125) can0 05C#38EB38EB R
(1720633392.834241) can0 056#01 R
(1720633392.834370) can0 00E#38EB R
(1720633392.834501) can0 00E#38EB R
(1720633392.834665) can0 05C#38EB38EB R
(1720633392.834960) can0 016#24 R
(1720633392.847210) can0 00E#EFEA R
(1720633392.847376) can0 05C#EFEAEFEA R
(1720633392.847493) can0 041#01 R
(1720633392.847612) can0 016#24 R
(1720633392.847727) can0 015#01 R
(1720633392.847845) can0 017#01 R
(1720633392.847961) can0 056#01 R
(1720633392.860596) can0 007#01 R
(1720633392.890519) can0 00D#FFE9 R
(1720633392.890652) can0 05B#FFE9 R
(1720633392.890768) can0 014#01 R
(1720633392.890884) can0 008#01 R
(1720633392.891000) can0 055#01 R
(1720633392.891118) can0 05D#01 R
(1720633392.892424) can0 00E#EEE9 R
(1720633392.892554) can0 00E#EEE9 R
(1720633392.893344) can0 015#01 R
(1720633392.893507) can0 05C#E8E9E8E9 R
(1720633392.893669) can0 05C#E8E9E8E9 R
(1720633392.893787) can0 016#24 R
(1720633392.894509) can0 016#24 R
(1720633392.894627) can0 041#01 R
(1720633392.894744) can0 056#01 R
(1720633392.897408) can0 00E#D1E9 R
(1720633392.897571) can0 05C#D1E9D1E9 R
(1720633392.897689) can0 041#01 R
(1720633392.897807) can0 016#24 R
(1720633392.897925) can0 015#01 R
(1720633392.898043) can0 017#01 R
(1720633392.898159) can0 056#01 R
(1720633392.921232) can0 007#01 R
(1720633392.947511) can0 00E#ACE8 R
(1720633392.947674) can0 05C#ACE8ACE8 R
(1720633392.947792) can0 041#01 R
(1720633392.947909) can0 016#24 R
(1720633392.948026) can0 015#01 R
(1720633392.948143) can0 017#01 R
(1720633392.948259) can0 056#01 R
(1720633392.951692) can0 00D#9AE8 R
(1720633392.951822) can0 05B#9AE8 R
(1720633392.951941) can0 014#01 R
(1720633392.952056) can0 008#01 R
(1720633392.952173) can0 055#01 R
(1720633392.952291) can0 05D#01 R
(1720633392.954499) can0 015#01 R
(1720633392.954617) can0 016#24 R
(1720633392.954785) can0 05C#82E882E8 R
(1720633392.954901) can0 056#01 R
(1720633392.955033) can0 00E#82E8 R
(1720633392.956355) can0 041#01 R
(1720633392.956489) can0 00E#77E8 R
(1720633392.956651) can0 05C#76E876E8 R
(1720633392.956768) can0 016#24 R
(1720633392.983380) can0 007#01 R
(1720633392.997205) can0 00E#80E7 R
(1720633392.997375) can0 05C#80E780E7 R
(1720633392.997491) can0 041#01 R
(1720633392.997609) can0 016#24 R
(1720633392.997724) can0 015#01 R
(1720633392.997842) can0 017#01 R
(1720633392.997958) can0 056#01 R
(1720633393.014515) can0 00D#1FE7 R
(1720633393.014648) can0 05B#1FE7 R
(1720633393.014764) can0 014#01 R
(1720633393.014880) can0 008#01 R
(1720633393.014996) can0 055#01 R
(1720633393.015114) can0 05D#01 R
(1720633393.017385) can0 015#01 R
(1720633393.017555) can0 05C#07E707E7 R
(1720633393.017673) can0 056#01 R
(1720633393.017809) can0 00E#07E7 R
(1720633393.018428) can0 016#24 R
(1720633393.018546) can0 041#01 R
(1720633393.018684) can0 00E#01E7 R
(1720633393.018857) can0 05C#01E701E7 R
(1720633393.018973) can0 016#24 R
(1720633393.046488) can0 007#01 R
(1720633393.047345) can0 00E#4EE6 R
(1720633393.047512) can0 05C#4EE64EE6 R
(1720633393.047629) can0 041#01 R
(1720633393.047743) can0 016#23 R
(1720633393.047859) can0 015#01 R
(1720633393.047979) can0 017#01 R
(1720633393.048094) can0 056#01 R
(1720633393.077278) can0 00D#9AE5 R
(1720633393.077407) can0 05B#9AE5 R
(1720633393.077523) can0 014#01 R
(1720633393.077643) can0 008#01 R
(1720633393.077756) can0 055#01 R
(1720633393.077873) can0 05D#01 R
(1720633393.080390) can0 015#01 R
(1720633393.080502) can0 016#23 R
(1720633393.080620) can0 041#01 R
(1720633393.080788) can0 05C#81E581E5 R
(1720633393.080919) can0 00E#81E5 R
(1720633393.081052) can0 00E#81E5 R
(1720633393.081219) can0 05C#81E581E5 R
(1720633393.081335) can0 056#01 R
(1720633393.081449) can0 016#23 R
(1720633393.096786) can0 00E#16E5 R
(1720633393.096949) can0 05C#16E516E5 R
(1720633393.097067) can0 041#01 R
(1720633393.097181) can0 016#23 R
(1720633393.097297) can0 015#01 R
(1720633393.097415) can0 017#01 R
(1720633393.097531) can0 056#01 R
(1720633393.108567) can0 007#01 R
(1720633393.139544) can0 00D#11E4 R
(1720633393.139674) can0 05B#11E4 R
(1720633393.139915) can0 014#01 R
(1720633393.140031) can0 008#01 R
(1720633393.140147) can0 055#01 R
(1720633393.140265) can0 05D#01 R
(1720633393.142363) can0 00E#F7E3 R
(1720633393.142498) can0 00E#F7E3 R
(1720633393.143317) can0 015#01 R
(1720633393.143431) can0 016#23 R
(1720633393.143549) can0 041#01 R
(1720633393.143712) can0 05C#F1E3F1E3 R
(1720633393.143829) can0 056#01 R
(1720633393.143993) can0 05C#F1E3F1E3 R
(1720633393.144107) can0 016#23 R
(1720633393.147436) can0 00E#D1E3 R
(1720633393.147600) can0 05C#D0E3D0E3 R
(1720633393.147718) can0 041#01 R
(1720633393.147832) can0 016#23 R
(1720633393.147947) can0 015#01 R
(1720633393.148065) can0 017#01 R
(1720633393.148181) can0 056#01 R
(1720633393.170069) can0 007#01 R
(1720633393.197983) can0 00E#8BE2 R
(1720633393.198150) can0 05C#8BE28BE2 R
(1720633393.198266) can0 041#01 R
(1720633393.198381) can0 016#23 R
(1720633393.198496) can0 015#01 R
(1720633393.198614) can0 017#01 R
(1720633393.198730) can0 056#01 R
(1720633393.201175) can0 00D#85E2 R
(1720633393.201305) can0 05B#85E2 R
(1720633393.201421) can0 014#01 R
(1720633393.201539) can0 008#01 R
(1720633393.201656) can0 055#01 R
(1720633393.201775) can0 05D#01 R
(1720633393.203816) can0 00E#64E2 R
(1720633393.204567) can0 015#01 R
(1720633393.204683) can0 016#23 R
(1720633393.204799) can0 041#01 R
(1720633393.204964) can0 05C#5DE25DE2 R
(1720633393.205079) can0 056#01 R
(1720633393.205213) can0 00E#5DE2 R
(1720633393.205374) can0 05C#5DE25DE2 R
(1720633393.205488) can0 016#23 R
(1720633393.231646) can0 007#01 R
(1720633393.247581) can0 00E#40E1 R
(1720633393.247747) can0 05C#40E140E1 R
(1720633393.247865) can0 041#01 R
(1720633393.247978) can0 016#23 R
(1720633393.248095) can0 015#01 R
(1720633393.248212) can0 017#01 R
(1720633393.248328) can0 056#01 R
(1720633393.262982) can0 00D#E8E0 R
(1720633393.263113) can0 05B#E8E0 R
(1720633393.263229) can0 014#01 R
(1720633393.263345) can0 008#01 R
(1720633393.263461) can0 055#01 R
(1720633393.263579) can0 05D#01 R
(1720633393.265784) can0 05C#C7E0C7E0 R
(1720633393.265919) can0 00E#C7E0 R
(1720633393.266455) can0 015#01 R
(1720633393.266569) can0 016#23 R
(1720633393.266687) can0 041#01 R
(1720633393.266803) can0 056#01 R
(1720633393.266947) can0 00E#C0E0 R
(1720633393.267109) can0 05C#C0E0C0E0 R
(1720633393.267223) can0 016#23 R
(1720633393.292689) can0 007#01 R
(1720633393.297346) can0 00E#EEDF R
(1720633393.297514) can0 05C#EEDFEEDF R
(1720633393.297632) can0 041#01 R
(1720633393.297746) can0 016#22 R
(1720633393.297862) can0 015#01 R
(1720633393.297980) can0 017#01 R
(1720633393.298096) can0 056#01 R
(1720633393.323032) can0 00D#4ADF R
(1720633393.323165) can0 05B#4ADF R
(1720633393.323280) can0 014#01 R
(1720633393.323396) can0 008#01 R
(1720633393.323512) can0 055#01 R
(1720633393.323630) can0 05D#01 R
(1720633393.325205) can0 05C#35DF35DF R
(1720633393.325322) can0 056#01 R
(1720633393.326071) can0 015#01 R
(1720633393.326185) can0 016#22 R
(1720633393.326303) can0 041#01 R
(1720633393.326437) can0 00E#2EDF R
(1720633393.326571) can0 00E#2EDF R
(1720633393.326737) can0 05C#2EDF2EDF R
(1720633393.327116) can0 016#22 R
(1720633393.351681) can0 00E#81DE R
(1720633393.351846) can0 05C#81DE81DE R
(1720633393.351963) can0 041#01 R
(1720633393.352077) can0 016#22 R
(1720633393.352195) can0 015#01 R
(1720633393.352313) can0 017#01 R
(1720633393.352431) can0 056#01 R
(1720633393.355153) can0 007#01 R
(1720633393.386881) can0 00D#8DDD R
(1720633393.387015) can0 05B#8DDD R
(1720633393.387325) can0 014#01 R
(1720633393.387442) can0 008#01 R
(1720633393.387557) can0 055#01 R
(1720633393.387675) can0 05D#01 R
(1720633393.388628) can0 00E#78DD R
(1720633393.388758) can0 00E#78DD R
(1720633393.389531) can0 015#01 R
(1720633393.389645) can0 016#22 R
(1720633393.389763) can0 041#01 R
(1720633393.389925) can0 05C#71DD71DD R
(1720633393.390087) can0 05C#71DD71DD R
(1720633393.390201) can0 016#22 R
(1720633393.390650) can0 056#01 R
(1720633393.400631) can0 00E#23DD R
(1720633393.400792) can0 05C#23DD23DD R
(1720633393.400910) can0 041#01 R
(1720633393.401024) can0 016#22 R
(1720633393.401140) can0 015#01 R
(1720633393.401258) can0 017#01 R
(1720633393.401374) can0 056#01 R
(1720633393.416435) can0 007#01 R
(1720633393.446730) can0 00D#E3DB R
(1720633393.446860) can0 05B#E3DB R
(1720633393.446977) can0 014#01 R
(1720633393.447091) can0 008#01 R
(1720633393.447207) can0 055#01 R
(1720633393.447325) can0 05D#01 R
(1720633393.449538) can0 015#01 R
(1720633393.449652) can0 016#22 R
(1720633393.449770) can0 041#01 R
(1720633393.449932) can0 05C#C6DBC6DB R
(1720633393.450048) can0 056#01 R
(1720633393.450178) can0 00E#C6DB R
(1720633393.450367) can0 00E#BFDB R
(1720633393.450535) can0 05C#BFDBBFDB R
(1720633393.450651) can0 016#22 R
(1720633393.450783) can0 00E#BFDB R
(1720633393.450962) can0 05C#BFDBBFDB R
(1720633393.451069) can0 041#01 R
(1720633393.451185) can0 016#22 R
(1720633393.451301) can0 015#01 R
(1720633393.451419) can0 017#01 R
(1720633393.451535) can0 056#01 R
(1720633393.476888) can0 007#01 R
(1720633393.501336) can0 00E#56DA R
(1720633393.501494) can0 05C#55DA55DA R
(1720633393.501610) can0 041#01 R
(1720633393.501724) can0 016#22 R
(1720633393.501840) can0 015#01 R
(1720633393.501958) can0 017#01 R
(1720633393.502073) can0 056#01 R
(1720633393.507168) can0 00D#31DA R
(1720633393.507288) can0 05B#31DA R
(1720633393.507404) can0 014#01 R
(1720633393.507521) can0 008#01 R
(1720633393.507636) can0 055#01 R
(1720633393.507754) can0 05D#01 R
(1720633393.509773) can0 015#01 R
(1720633393.509835) can0 016#22 R
(1720633393.509975) can0 041#01 R
(1720633393.510128) can0 05C#0CDA0CDA R
(1720633393.510244) can0 056#01 R
(1720633393.510374) can0 00E#0CDA R
(1720633393.510999) can0 00E#05DA R
(1720633393.511166) can0 05C#05DA05DA R
(1720633393.511279) can0 016#22 R
(1720633393.539025) can0 007#01 R
(1720633393.549774) can0 00E#E6D8 R
(1720633393.549939) can0 05C#E6D8E6D8 R
(1720633393.550058) can0 041#01 R
(1720633393.550170) can0 016#21 R
(1720633393.550285) can0 015#01 R
(1720633393.550406) can0 017#01 R
(1720633393.550521) can0 056#01 R
(1720633393.570755) can0 00D#59D8 R
(1720633393.570885) can0 05B#59D8 R
(1720633393.571001) can0 014#01 R
(1720633393.571116) can0 008#01 R
(1720633393.571233) can0 055#01 R
(1720633393.571350) can0 05D#01 R
(1720633393.573545) can0 015#01 R
(1720633393.573659) can0 016#21 R
(1720633393.573777) can0 041#01 R
(1720633393.574673) can0 05C#34D834D8 R
(1720633393.574790) can0 056#01 R
(1720633393.574920) can0 00E#34D8 R
(1720633393.575050) can0 00E#34D8 R
(1720633393.575214) can0 05C#34D834D8 R
(1720633393.575739) can0 016#21 R
(1720633393.599965) can0 00E#71D7 R
(1720633393.600127) can0 05C#71D771D7 R
(1720633393.600245) can0 041#01 R
(1720633393.600358) can0 016#21 R
(1720633393.600474) can0 015#01 R
(1720633393.600592) can0 017#01 R
(1720633393.600708) can0 056#01 R
(1720633393.600868) can0 007#01 R
(1720633393.631562) can0 00D#8ED6 R
(1720633393.631695) can0 05B#8ED6 R
(1720633393.631810) can0 014#01 R
(1720633393.631926) can0 008#01 R
(1720633393.632042) can0 055#01 R
(1720633393.632162) can0 05D#01 R
(1720633393.633332) can0 00E#78D6 R
(1720633393.633465) can0 00E#78D6 R
(1720633393.634249) can0 015#01 R
(1720633393.634363) can0 016#21 R
(1720633393.634484) can0 041#01 R
(1720633393.634644) can0 05C#70D670D6 R
(1720633393.634758) can0 016#21 R
(1720633393.635261) can0 05C#68D668D6 R
(1720633393.635377) can0 056#01 R
(1720633393.649675) can0 00E#F6D5 R
(1720633393.649836) can0 05C#F6D5F6D5 R
(1720633393.649955) can0 041#01 R
(1720633393.650068) can0 016#21 R
(1720633393.650184) can0 015#01 R
(1720633393.650302) can0 017#01 R
(1720633393.650418) can0 056#01 R
(1720633393.662947) can0 007#01 R
(1720633393.693317) can0 00D#B4D4 R
(1720633393.693447) can0 05B#B4D4 R
(1720633393.693563) can0 014#01 R
(1720633393.693678) can0 008#01 R
(1720633393.693794) can0 055#01 R
(1720633393.693911) can0 05D#01 R
(1720633393.695236) can0 015#01 R
(1720633393.695337) can0 016#21 R
(1720633393.695455) can0 041#01 R
(1720633393.695585) can0 00E#9DD4 R
(1720633393.696178) can0 00E#95D4 R
(1720633393.696340) can0 05C#95D495D4 R
(1720633393.696454) can0 016#21 R
(1720633393.697290) can0 05C#8DD48DD4 R
(1720633393.697406) can0 056#01 R
(1720633393.700322) can0 00E#76D4 R
(1720633393.700489) can0 05C#76D476D4 R
(1720633393.700604) can0 041#01 R
(1720633393.700719) can0 016#21 R
(1720633393.700834) can0 015#01 R
(1720633393.700952) can0 017#01 R
(1720633393.701068) can0 056#01 R
(1720633393.724146) can0 007#01 R
(1720633393.750408) can0 00E#F1D2 R
(1720633393.750573) can0 05C#F1D2F1D2 R
(1720633393.750690) can0 041#01 R
(1720633393.750810) can0 016#20 R
(1720633393.750926) can0 015#01 R
(1720633393.751058) can0 017#01 R
(1720633393.751173) can0 056#01 R
(1720633393.755527) can0 00D#D2D2 R
(1720633393.755656) can0 05B#D2D2 R
(1720633393.755774) can0 014#01 R
(1720633393.755887) can0 008#01 R
(1720633393.756003) can0 055#01 R
(1720633393.756121) can0 05D#01 R
(1720633393.758339) can0 015#01 R
(1720633393.758462) can0 016#20 R
(1720633393.758580) can0 041#01 R
(1720633393.758742) can0 05C#B2D2B2D2 R
(1720633393.758858) can0 056#01 R
(1720633393.758990) can0 00E#B2D2 R
(1720633393.760514) can0 00E#A2D2 R
(1720633393.760676) can0 05C#A2D2A2D2 R
(1720633393.760796) can0 016#20 R
(1720633393.786885) can0 007#01 R
(1720633393.800328) can0 00E#66D1 R
(1720633393.800492) can0 05C#66D166D1 R
(1720633393.800609) can0 041#01 R
(1720633393.800729) can0 016#20 R
(1720633393.800845) can0 015#01 R
(1720633393.800965) can0 017#01 R
(1720633393.801079) can0 056#01 R
(1720633393.817586) can0 00D#E7D0 R
(1720633393.817720) can0 05B#E7D0 R
(1720633393.817836) can0 014#01 R
(1720633393.817951) can0 008#01 R
(1720633393.818068) can0 055#01 R
(1720633393.818188) can0 05D#01 R
(1720633393.821201) can0 015#01 R
(1720633393.821322) can0 016#20 R
(1720633393.821439) can0 041#01 R
(1720633393.821607) can0 05C#BFD0BFD0 R
(1720633393.821723) can0 056#01 R
(1720633393.821855) can0 00E#BFD0 R
(1720633393.821986) can0 00E#BFD0 R
(1720633393.822154) can0 05C#BFD0BFD0 R
(1720633393.822274) can0 016#20 R
(1720633393.847839) can0 007#01 R
(1720633393.849740) can0 00E#D6CF R
(1720633393.849906) can0 05C#D6CFD6CF R
(1720633393.850026) can0 041#01 R
(1720633393.850143) can0 016#20 R
(1720633393.850262) can0 015#01 R
(1720633393.850377) can0 017#01 R
(1720633393.850493) can0 056#01 R
(1720633393.878911) can0 00D#FDCE R
(1720633393.879045) can0 05B#FDCE R
(1720633393.879183) can0 014#01 R
(1720633393.879299) can0 008#01 R
(1720633393.879415) can0 055#01 R
(1720633393.879532) can0 05D#01 R
(1720633393.880737) can0 00E#DCCE R
(1720633393.880867) can0 00E#DCCE R
(1720633393.881692) can0 05C#D4CED4CE R
(1720633393.881856) can0 05C#D4CED4CE R
(1720633393.881978) can0 016#20 R
(1720633393.882629) can0 015#01 R
(1720633393.882751) can0 016#20 R
(1720633393.882869) can0 041#01 R
(1720633393.882985) can0 056#01 R
(1720633393.899339) can0 00E#42CE R
(1720633393.899504) can0 05C#42CE42CE R
(1720633393.899621) can0 041#01 R
(1720633393.899739) can0 016#20 R
(1720633393.899855) can0 015#01 R
(1720633393.899979) can0 017#01 R
(1720633393.900088) can0 056#01 R
(1720633393.910028) can0 007#01 R
(1720633393.939899) can0 00D#0BCD R
(1720633393.940039) can0 05B#0BCD R
(1720633393.940146) can0 014#01 R
(1720633393.940264) can0 008#01 R
(1720633393.940380) can0 055#01 R
(1720633393.940498) can0 05D#01 R
(1720633393.941636) can0 00E#EACC R
(1720633393.942550) can0 015#01 R
(1720633393.942715) can0 05C#E2CCE1CC R
(1720633393.942828) can0 056#01 R
(1720633393.942994) can0 00E#E2CC R
(1720633393.943131) can0 05C#E2CCE1CC R
(1720633393.943250) can0 016#20 R
(1720633393.943531) can0 016#20 R
(1720633393.943646) can0 041#01 R
(1720633393.949658) can0 00E#A8CC R
(1720633393.949817) can0 05C#A8CCA8CC R
(1720633393.949933) can0 041#01 R
(1720633393.950050) can0 016#1F R
(1720633393.950167) can0 015#01 R
(1720633393.950286) can0 017#01 R
(1720633393.950405) can0 056#01 R
(1720633393.969681) can0 007#01 R
(1720633393.999384) can0 00E#09CB R
(1720633393.999527) can0 05C#09CB09CB R
(1720633393.999644) can0 041#01 R
(1720633393.999760) can0 016#1F R
(1720633393.999875) can0 015#01 R
(1720633393.999995) can0 017#01 R
(1720633394.000109) can0 056#01 R
(1720633394.000367) can0 00D#12CB R
(1720633394.000499) can0 05B#12CB R
(1720633394.000611) can0 014#01 R
(1720633394.000727) can0 008#01 R
(1720633394.000843) can0 055#01 R
(1720633394.000963) can0 05D#01 R
(1720633394.003398) can0 05C#E8CAE8CA R
(1720633394.003511) can0 056#01 R
(1720633394.003643) can0 00E#E8CA R
(1720633394.004232) can0 015#01 R
(1720633394.004346) can0 016#1F R
(1720633394.004465) can0 041#01 R
(1720633394.004597) can0 00E#E0CA R
(1720633394.004764) can0 05C#E0CAE0CA R
(1720633394.004877) can0 016#1F R
(1720633394.030671) can0 007#01 R
(1720633394.049805) can0 00E#66C9 R
(1720633394.049965) can0 05C#66C966C9 R
(1720633394.050084) can0 041#01 R
(1720633394.050199) can0 016#1F R
(1720633394.050316) can0 015#01 R
(1720633394.050433) can0 017#01 R
(1720633394.050549) can0 056#01 R
(1720633394.061371) can0 00D#12C9 R
(1720633394.061502) can0 05B#12C9 R
(1720633394.061616) can0 014#01 R
(1720633394.061733) can0 008#01 R
(1720633394.061847) can0 055#01 R
(1720633394.061967) can0 05D#01 R
(1720633394.064088) can0 015#01 R
(1720633394.064199) can0 016#1F R
(1720633394.064319) can0 041#01 R
(1720633394.064492) can0 05C#E7C8E7C8 R
(1720633394.064601) can0 056#01 R
(1720633394.064734) can0 00E#E7C8 R
(1720633394.064868) can0 00E#E7C8 R
(1720633394.065034) can0 05C#E7C8E7C8 R
(1720633394.065219) can0 016#1F R
(1720633394.092172) can0 007#01 R
(1720633394.102155) can0 00E#ADC7 R
(1720633394.102305) can0 05C#ADC7ADC7 R
(1720633394.102422) can0 041#01 R
(1720633394.102536) can0 016#1F R
(1720633394.102654) can0 015#01 R
(1720633394.102773) can0 017#01 R
(1720633394.102888) can0 056#01 R
(1720633394.122500) can0 00D#0BC7 R
(1720633394.122632) can0 05B#0BC7 R
(1720633394.122746) can0 014#01 R
(1720633394.122861) can0 008#01 R
(1720633394.123011) can0 055#01 R
(1720633394.123067) can0 05D#01 R
(1720633394.124412) can0 00E#E8C6 R
(1720633394.124537) can0 00E#E8C6 R
(1720633394.125338) can0 015#01 R
(1720633394.125510) can0 05C#E0C6E0C6 R
(1720633394.125671) can0 05C#E0C6E0C6 R
(1720633394.125788) can0 016#1F R
(1720633394.126399) can0 016#1F R
(1720633394.126520) can0 041#01 R
(1720633394.126658) can0 056#01 R
(1720633394.151777) can0 00E#00C6 R
(1720633394.151946) can0 05C#00C600C6 R
(1720633394.152060) can0 041#01 R
(1720633394.152175) can0 016#1E R
(1720633394.152290) can0 015#01 R
(1720633394.152409) can0 017#01 R
(1720633394.152524) can0 056#01 R
(1720633394.153719) can0 007#01 R
(1720633394.185374) can0 00D#ECC4 R
(1720633394.185502) can0 05B#ECC4 R
(1720633394.185616) can0 014#01 R
(1720633394.185733) can0 008#01 R
(1720633394.185848) can0 055#01 R
(1720633394.185965) can0 05D#01 R
(1720633394.187173) can0 00E#C9C4 R
(1720633394.187855) can0 015#01 R
(1720633394.187969) can0 016#1E R
(1720633394.188159) can0 041#01 R
(1720633394.188296) can0 00E#C0C4 R
(1720633394.188461) can0 05C#C0C4C0C4 R
(1720633394.188570) can0 016#1E R
(1720633394.188977) can0 05C#B7C4B7C4 R
(1720633394.189089) can0 056#01 R
(1720633394.201116) can0 00E#4FC4 R
(1720633394.201282) can0 05C#4FC44FC4 R
(1720633394.201397) can0 041#01 R
(1720633394.201511) can0 016#1E R
(1720633394.201629) can0 015#01 R
(1720633394.201748) can0 017#01 R
(1720633394.201864) can0 056#01 R
(1720633394.216220) can0 007#01 R
(1720633394.246833) can0 00D#CFC2 R
(1720633394.247106) can0 05B#CFC2 R
(1720633394.247213) can0 014#01 R
(1720633394.247329) can0 008#01 R
(1720633394.247445) can0 055#01 R
(1720633394.247567) can0 05D#01 R
(1720633394.249669) can0 015#01 R
(1720633394.249782) can0 016#1E R
(1720633394.249900) can0 041#01 R
(1720633394.250030) can0 00E#ABC2 R
(1720633394.251677) can0 05C#91C291C2 R
(1720633394.251790) can0 056#01 R
(1720633394.251922) can0 00E#91C2 R
(1720633394.252090) can0 05C#91C291C2 R
(1720633394.252198) can0 016#1E R
(1720633394.252335) can0 00E#91C2 R
(1720633394.252495) can0 05C#91C291C2 R
(1720633394.252612) can0 041#01 R
(1720633394.252725) can0 016#1E R
(1720633394.252848) can0 015#01 R
(1720633394.252961) can0 017#01 R
(1720633394.253082) can0 056#01 R
(1720633394.278003) can0 007#01 R
(1720633394.302189) can0 00E#D7C0 R
(1720633394.302346) can0 05C#D7C0D7C0 R
(1720633394.302467) can0 041#01 R
(1720633394.302575) can0 016#1E R
(1720633394.302694) can0 015#01 R
(1720633394.302812) can0 017#01 R
(1720633394.302927) can0 056#01 R
(1720633394.308289) can0 00D#B4C0 R
(1720633394.308418) can0 05B#B4C0 R
(1720633394.308531) can0 014#01 R
(1720633394.308648) can0 008#01 R
(1720633394.308763) can0 055#01 R
(1720633394.308883) can0 05D#01 R
(1720633394.311088) can0 015#01 R
(1720633394.311222) can0 00E#87C0 R
(1720633394.311357) can0 00E#87C0 R
(1720633394.311526) can0 05C#87C087C0 R
(1720633394.312148) can0 016#1E R
(1720633394.312259) can0 041#01 R
(1720633394.312434) can0 05C#7EC07EC0 R
(1720633394.312547) can0 056#01 R
(1720633394.312661) can0 016#1E R
(1720633394.339533) can0 007#01 R
(1720633394.352602) can0 00E#19BF R
(1720633394.352771) can0 05C#19BF19BF R
(1720633394.352887) can0 041#01 R
(1720633394.353000) can0 016#1D R
(1720633394.353118) can0 015#01 R
(1720633394.353235) can0 017#01 R
(1720633394.353351) can0 056#01 R
(1720633394.371751) can0 00D#78BE R
(1720633394.371885) can0 05B#78BE R
(1720633394.372001) can0 014#01 R
(1720633394.372115) can0 008#01 R
(1720633394.372232) can0 055#01 R
(1720633394.372349) can0 05D#01 R
(1720633394.374446) can0 015#01 R
(1720633394.374559) can0 016#1D R
(1720633394.374684) can0 041#01 R
(1720633394.374848) can0 05C#54BE54BE R
(1720633394.374994) can0 056#01 R
(1720633394.375096) can0 00E#54BE R
(1720633394.375235) can0 00E#54BE R
(1720633394.375537) can0 05C#4BBE4BBE R
(1720633394.375641) can0 016#1D R
(1720633394.402082) can0 00E#58BD R
(1720633394.402238) can0 05C#58BD58BD R
(1720633394.402346) can0 041#01 R
(1720633394.402464) can0 016#1D R
(1720633394.402577) can0 015#01 R
(1720633394.402697) can0 017#01 R
(1720633394.402810) can0 056#01 R
(1720633394.403008) can0 007#01 R
(1720633394.434067) can0 00D#48BC R
(1720633394.434198) can0 05B#48BC R
(1720633394.434310) can0 014#01 R
(1720633394.434428) can0 008#01 R
(1720633394.434542) can0 055#01 R
(1720633394.434662) can0 05D#01 R
(1720633394.435925) can0 00E#24BC R
(1720633394.436778) can0 015#01 R
(1720633394.436950) can0 05C#1ABC1ABC R
(1720633394.437073) can0 00E#1BBC R
(1720633394.437240) can0 05C#1ABC1ABC R
(1720633394.437356) can0 016#1D R
(1720633394.437968) can0 016#1D R
(1720633394.438079) can0 041#01 R
(1720633394.438196) can0 056#01 R
(1720633394.451958) can0 00E#92BB R
(1720633394.452123) can0 05C#92BB92BB R
(1720633394.452235) can0 041#01 R
(1720633394.452349) can0 016#1D R
(1720633394.452465) can0 015#01 R
(1720633394.452582) can0 017#01 R
(1720633394.452699) can0 056#01 R
(1720633394.464116) can0 007#01 R
(1720633394.494250) can0 00D#1BBA R
(1720633394.494378) can0 05B#1BBA R
(1720633394.494490) can0 014#01 R
(1720633394.494607) can0 008#01 R
(1720633394.494724) can0 055#01 R
(1720633394.494839) can0 05D#01 R
(1720633394.497043) can0 015#01 R
(1720633394.497154) can0 016#1D R
(1720633394.497275) can0 041#01 R
(1720633394.497403) can0 00E#F7B9 R
(1720633394.497916) can0 05C#EDB9EDB9 R
(1720633394.498029) can0 056#01 R
(1720633394.498161) can0 00E#EDB9 R
(1720633394.498325) can0 05C#EDB9EDB9 R
(1720633394.498435) can0 016#1D R
(1720633394.502112) can0 00E#C9B9 R
(1720633394.502267) can0 05C#C9B9C9B9 R
(1720633394.502378) can0 041#01 R
(1720633394.502491) can0 016#1D R
(1720633394.502606) can0 015#01 R
(1720633394.502726) can0 017#01 R
(1720633394.502840) can0 056#01 R
(1720633394.525515) can0 007#01 R
(1720633394.552344) can0 00E#FCB7 R
(1720633394.552512) can0 05C#FBB7FBB7 R
(1720633394.552625) can0 041#01 R
(1720633394.552744) can0 016#1C R
(1720633394.552858) can0 015#01 R
(1720633394.552978) can0 017#01 R
(1720633394.553092) can0 056#01 R
(1720633394.556365) can0 00D#E0B7 R
(1720633394.556499) can0 05B#E0B7 R
(1720633394.556612) can0 014#01 R
(1720633394.556728) can0 008#01 R
(1720633394.556844) can0 055#01 R
(1720633394.556962) can0 05D#01 R
(1720633394.559128) can0 015#01 R
(1720633394.559295) can0 05C#BBB7BBB7 R
(1720633394.559402) can0 056#01 R
(1720633394.559545) can0 00E#BBB7 R
(1720633394.559672) can0 00E#BBB7 R
(1720633394.559832) can0 05C#BBB7BBB7 R
(1720633394.560145) can0 016#1C R
(1720633394.560260) can0 041#01 R
(1720633394.560382) can0 016#1C R
(1720633394.587452) can0 007#01 R
(1720633394.601499) can0 00E#2BB6 R
(1720633394.601667) can0 05C#2BB62BB6 R
(1720633394.601778) can0 041#01 R
(1720633394.601895) can0 016#1C R
(1720633394.602009) can0 015#01 R
(1720633394.602130) can0 017#01 R
(1720633394.602244) can0 056#01 R
(1720633394.619034) can0 00D#9FB5 R
(1720633394.619166) can0 05B#9FB5 R
(1720633394.619279) can0 014#01 R
(1720633394.619394) can0 008#01 R
(1720633394.619512) can0 055#01 R
(1720633394.619629) can0 05D#01 R
(1720633394.620704) can0 00E#79B5 R
(1720633394.620840) can0 00E#79B5 R
(1720633394.621803) can0 05C#70B570B5 R
(1720633394.621923) can0 056#01 R
(1720633394.622082) can0 05C#70B570B5 R
(1720633394.622195) can0 016#1C R
(1720633394.622961) can0 015#01 R
(1720633394.623066) can0 016#1C R
(1720633394.623173) can0 041#01 R
(1720633394.649231) can0 007#01 R
(1720633394.652186) can0 00E#57B4 R
(1720633394.652352) can0 05C#57B457B4 R
(1720633394.652467) can0 041#01 R
(1720633394.652584) can0 016#1C R
(1720633394.652699) can0 015#01 R
(1720633394.652818) can0 017#01 R
(1720633394.652932) can0 056#01 R
(1720633394.680132) can0 00D#59B3 R
(1720633394.680259) can0 05B#59B3 R
(1720633394.680375) can0 014#01 R
(1720633394.680490) can0 008#01 R
(1720633394.680607) can0 055#01 R
(1720633394.680723) can0 05D#01 R
(1720633394.681719) can0 015#01 R
(1720633394.681850) can0 00E#3CB3 R
(1720633394.682854) can0 016#1C R
(1720633394.682994) can0 041#01 R
(1720633394.683103) can0 00E#33B3 R
(1720633394.683274) can0 05C#33B333B3 R
(1720633394.683381) can0 016#1C R
(1720633394.683704) can0 05C#2AB32AB3 R
(1720633394.683819) can0 056#01 R
(1720633394.703498) can0 00E#76B2 R
(1720633394.703649) can0 05C#76B276B2 R
(1720633394.703765) can0 041#01 R
(1720633394.703882) can0 016#1B R
(1720633394.703998) can0 015#01 R
(1720633394.704116) can0 017#01 R
(1720633394.704232) can0 056#01 R
(1720633394.711068) can0 007#01 R
(1720633394.742133) can0 00D#0EB1 R
(1720633394.742262) can0 05B#0EB1 R
(1720633394.742379) can0 014#01 R
(1720633394.742493) can0 008#01 R
(1720633394.742611) can0 055#01 R
(1720633394.742728) can0 05D#01 R
(1720633394.744897) can0 015#01 R
(1720633394.745063) can0 05C#E8B0E8B0 R
(1720633394.745192) can0 00E#E8B0 R
(1720633394.745748) can0 016#1B R
(1720633394.745864) can0 041#01 R
(1720633394.745980) can0 056#01 R
(1720633394.746113) can0 00E#DEB0 R
(1720633394.746278) can0 05C#DEB0DEB0 R
(1720633394.746394) can0 016#1B R
(1720633394.752940) can0 00E#9CB0 R
(1720633394.753104) can0 05C#9BB09BB0 R
(1720633394.753217) can0 041#01 R
(1720633394.753335) can0 016#1B R
(1720633394.753452) can0 015#01 R
(1720633394.753569) can0 017#01 R
(1720633394.753686) can0 056#01 R
(1720633394.773473) can0 007#01 R
(1720633394.801927) can0 00E#BEAE R
(1720633394.802093) can0 05C#BEAEBEAE R
(1720633394.802210) can0 041#01 R
(1720633394.802327) can0 016#1B R
(1720633394.802444) can0 015#01 R
(1720633394.802560) can0 017#01 R
(1720633394.802677) can0 056#01 R
(1720633394.804031) can0 00D#BEAE R
(1720633394.804155) can0 05B#BEAE R
(1720633394.804266) can0 014#01 R
(1720633394.804381) can0 008#01 R
(1720633394.804497) can0 055#01 R
(1720633394.804615) can0 05D#01 R
(1720633394.806693) can0 015#01 R
(1720633394.806802) can0 016#1B R
(1720633394.807000) can0 05C#97AE97AE R
(1720633394.807065) can0 056#01 R
(1720633394.807751) can0 041#01 R
(1720633394.807882) can0 00E#8EAE R
(1720633394.808014) can0 00E#8EAE R
(1720633394.808177) can0 05C#8EAE8EAE R
(1720633394.808725) can0 016#1B R
(1720633394.835005) can0 007#01 R
(1720633394.852872) can0 00E#DDAC R
(1720633394.853038) can0 05C#DDACDDAC R
(1720633394.853149) can0 041#01 R
(1720633394.853268) can0 016#1B R
(1720633394.853385) can0 015#01 R
(1720633394.853502) can0 017#01 R
(1720633394.853625) can0 056#01 R
(1720633394.866087) can0 00D#69AC R
(1720633394.866216) can0 05B#69AC R
(1720633394.866334) can0 014#01 R
(1720633394.866446) can0 008#01 R
(1720633394.866562) can0 055#01 R
(1720633394.866680) can0 05D#01 R
(1720633394.869111) can0 015#01 R
(1720633394.869278) can0 05C#39AC39AC R
(1720633394.869390) can0 056#01 R
(1720633394.869530) can0 00E#39AC R
(1720633394.869653) can0 00E#39AC R
(1720633394.870071) can0 016#1A R
(1720633394.870187) can0 041#01 R
(1720633394.870356) can0 05C#2FAC2FAC R
(1720633394.870468) can0 016#1A R
(1720633394.896816) can0 007#01 R
(1720633394.902641) can0 00E#FAAA R
(1720633394.902808) can0 05C#FAAAFAAA R
(1720633394.902924) can0 041#01 R
(1720633394.903023) can0 016#1A R
(1720633394.903154) can0 015#01 R
(1720633394.903271) can0 017#01 R
(1720633394.903387) can0 056#01 R
(1720633394.928213) can0 00D#11AA R
(1720633394.928346) can0 05B#11AA R
(1720633394.928458) can0 014#01 R
(1720633394.928575) can0 008#01 R
(1720633394.928689) can0 055#01 R
(1720633394.928808) can0 05D#01 R
(1720633394.930966) can0 015#01 R
(1720633394.931033) can0 016#1A R
(1720633394.931179) can0 041#01 R
(1720633394.931346) can0 05C#E0A9E0A9 R
(1720633394.931482) can0 00E#E0A9 R
(1720633394.932242) can0 056#01 R
(1720633394.932371) can0 00E#D6A9 R
(1720633394.932536) can0 05C#D6A9D6A9 R
(1720633394.932646) can0 016#1A R
(1720633394.952750) can0 00E#14A9 R
(1720633394.952920) can0 05C#14A914A9 R
(1720633394.953032) can0 041#01 R
(1720633394.953148) can0 016#1A R
(1720633394.953267) can0 015#01 R
(1720633394.953383) can0 017#01 R
(1720633394.953500) can0 056#01 R
(1720633394.958890) can0 007#01 R
(1720633394.989097) can0 00D#BEA7 R
(1720633394.989227) can0 05B#BEA7 R
(1720633394.989362) can0 014#01 R
(1720633394.989480) can0 008#01 R
(1720633394.989573) can0 055#01 R
(1720633394.989698) can0 05D#01 R
(1720633394.990964) can0 00E#97A7 R
(1720633394.991931) can0 015#01 R
(1720633394.992037) can0 016#1A R
(1720633394.992159) can0 041#01 R
(1720633394.992326) can0 05C#8DA78DA7 R
(1720633394.992437) can0 056#01 R
(1720633394.992568) can0 00E#8DA7 R
(1720633394.992735) can0 05C#8DA78DA7 R
(1720633394.992849) can0 016#1A R
(1720633395.002273) can0 00E#2BA7 R
(1720633395.002437) can0 05C#2BA72BA7 R
(1720633395.002551) can0 041#01 R
(1720633395.002667) can0 016#1A R
(1720633395.002781) can0 015#01 R
(1720633395.002900) can0 017#01 R
(1720633395.003024) can0 056#01 R
(1720633395.019182) can0 007#01 R
(1720633395.049893) can0 00D#67A5 R
(1720633395.050020) can0 05B#67A5 R
(1720633395.050137) can0 014#01 R
(1720633395.050257) can0 008#01 R
(1720633395.050370) can0 055#01 R
(1720633395.050492) can0 05D#01 R
(1720633395.052502) can0 015#01 R
(1720633395.052616) can0 016#19 R
(1720633395.052734) can0 041#01 R
(1720633395.052903) can0 05C#40A540A5 R
(1720633395.053019) can0 056#01 R
(1720633395.053152) can0 00E#40A5 R
(1720633395.053321) can0 05C#40A540A5 R
(1720633395.053414) can0 041#01 R
(1720633395.053554) can0 016#19 R
(1720633395.053669) can0 015#01 R
(1720633395.053787) can0 017#01 R
(1720633395.053902) can0 056#01 R
(1720633395.054039) can0 00E#36A5 R
(1720633395.054181) can0 00E#36A5 R
(1720633395.054337) can0 05C#36A536A5 R
(1720633395.054534) can0 016#19 R
(1720633395.080772) can0 007#01 R
(1720633395.102532) can0 00E#48A3 R
(1720633395.102693) can0 05C#48A348A3 R
(1720633395.102810) can0 041#01 R
(1720633395.102929) can0 016#19 R
(1720633395.103012) can0 015#01 R
(1720633395.103161) can0 017#01 R
(1720633395.103271) can0 056#01 R
(1720633395.111909) can0 00D#03A3 R
(1720633395.112040) can0 05B#03A3 R
(1720633395.112153) can0 014#01 R
(1720633395.112269) can0 008#01 R
(1720633395.112385) can0 055#01 R
(1720633395.112504) can0 05D#01 R
(1720633395.114546) can0 015#01 R
(1720633395.114653) can0 016#19 R
(1720633395.114773) can0 041#01 R
(1720633395.114905) can0 00E#DBA2 R
(1720633395.115037) can0 00E#DBA2 R
(1720633395.115591) can0 05C#D1A2D1A2 R
(1720633395.115704) can0 056#01 R
(1720633395.115871) can0 05C#D1A2D1A2 R
(1720633395.115979) can0 016#19 R
(1720633395.143422) can0 007#01 R
(1720633395.155190) can0 00E#44A1 R
(1720633395.155347) can0 05C#44A144A1 R
(1720633395.155468) can0 041#01 R
(1720633395.155580) can0 016#19 R
(1720633395.155697) can0 015#01 R
(1720633395.155816) can0 017#01 R
(1720633395.155933) can0 056#01 R
(1720633395.173244) can0 00D#A5A0 R
(1720633395.173376) can0 05B#A5A0 R
(1720633395.173490) can0 014#01 R
(1720633395.173606) can0 008#01 R
(1720633395.173721) can0 055#01 R
(1720633395.173842) can0 05D#01 R
(1720633395.176148) can0 05C#73A073A0 R
(1720633395.176278) can0 00E#73A0 R
(1720633395.177014) can0 015#01 R
(1720633395.177124) can0 016#19 R
(1720633395.177249) can0 041#01 R
(1720633395.177363) can0 056#01 R
(1720633395.177499) can0 00E#6AA0 R
(1720633395.177665) can0 05C#69A069A0 R
(1720633395.177778) can0 016#19 R
(1720633395.203706) can0 007#01 R
(1720633395.204463) can0 00E#529F R
(1720633395.204630) can0 05C#529F529F R
(1720633395.204744) can0 041#01 R
(1720633395.204862) can0 016#18 R
(1720633395.204977) can0 015#01 R
(1720633395.205096) can0 017#01 R
(1720633395.205211) can0 056#01 R
(1720633395.235411) can0 00D#319E R
(1720633395.235543) can0 05B#319E R
(1720633395.235658) can0 014#01 R
(1720633395.235775) can0 008#01 R
(1720633395.235890) can0 055#01 R
(1720633395.236007) can0 05D#01 R
(1720633395.237285) can0 00E#139E R
(1720633395.238232) can0 015#01 R
(1720633395.238345) can0 016#18 R
(1720633395.238466) can0 041#01 R
(1720633395.238636) can0 05C#089E089E R
(1720633395.238750) can0 056#01 R
(1720633395.238895) can0 00E#099E R
(1720633395.239052) can0 05C#089E089E R
(1720633395.239169) can0 016#18 R
(1720633395.255296) can0 00E#5E9D R
(1720633395.255462) can0 05C#5E9D5E9D R
(1720633395.255578) can0 041#01 R
(1720633395.255690) can0 016#18 R
(1720633395.255807) can0 015#01 R
(1720633395.255924) can0 017#01 R
(1720633395.256041) can0 056#01 R
(1720633395.265991) can0 007#01 R
(1720633395.296804) can0 00D#CD9B R
(1720633395.296932) can0 05B#CD9B R
(1720633395.297048) can0 014#01 R
(1720633395.297170) can0 008#01 R
(1720633395.297279) can0 055#01 R
(1720633395.297403) can0 05D#01 R
(1720633395.299701) can0 015#01 R
(1720633395.299833) can0 00E#9B9B R
(1720633395.299966) can0 00E#9B9B R
(1720633395.300127) can0 05C#9B9B9B9B R
(1720633395.300597) can0 016#18 R
(1720633395.300715) can0 041#01 R
(1720633395.300898) can0 05C#919B919B R
(1720633395.301003) can0 056#01 R
(1720633395.301110) can0 016#18 R
(1720633395.304735) can0 00E#689B R
(1720633395.304899) can0 05C#689B689B R
(1720633395.305015) can0 041#01 R
(1720633395.305130) can0 016#18 R
(1720633395.305247) can0 015#01 R
(1720633395.305365) can0 017#01 R
(1720633395.305480) can0 056#01 R
(1720633395.327469) can0 007#01 R
(1720633395.354875) can0 00E#7199 R
(1720633395.355035) can0 05C#71997199 R
(1720633395.355158) can0 041#01 R
(1720633395.355263) can0 016#17 R
(1720633395.355381) can0 015#01 R
(1720633395.355500) can0 017#01 R
(1720633395.355618) can0 056#01 R
(1720633395.358010) can0 00D#6799 R
(1720633395.358143) can0 05B#6799 R
(1720633395.358315) can0 014#01 R
(1720633395.358429) can0 008#01 R
(1720633395.358545) can0 055#01 R
(1720633395.358664) can0 05D#01 R
(1720633395.360777) can0 00E#3499 R
(1720633395.360909) can0 00E#3499 R
(1720633395.361795) can0 015#01 R
(1720633395.361905) can0 016#17 R
(1720633395.362026) can0 041#01 R
(1720633395.362196) can0 05C#2A992A99 R
(1720633395.362304) can0 056#01 R
(1720633395.362476) can0 05C#2A992A99 R
(1720633395.362581) can0 016#17 R
(1720633395.389326) can0 007#01 R
(1720633395.404935) can0 00E#7897 R
(1720633395.405082) can0 05C#78977897 R
(1720633395.405195) can0 041#01 R
(1720633395.405310) can0 016#17 R
(1720633395.405424) can0 015#01 R
(1720633395.405543) can0 017#01 R
(1720633395.405660) can0 056#01 R
(1720633395.419365) can0 00D#F496 R
(1720633395.419497) can0 05B#F496 R
(1720633395.419610) can0 014#01 R
(1720633395.419727) can0 008#01 R
(1720633395.419842) can0 055#01 R
(1720633395.419961) can0 05D#01 R
(1720633395.422172) can0 05C#CB96CB96 R
(1720633395.422299) can0 00E#CB96 R
(1720633395.422913) can0 015#01 R
(1720633395.423013) can0 016#17 R
(1720633395.423146) can0 041#01 R
(1720633395.423262) can0 056#01 R
(1720633395.423395) can0 00E#C196 R
(1720633395.423561) can0 05C#C196C196 R
(1720633395.423673) can0 016#17 R
(1720633395.449931) can0 007#01 R
(1720633395.454843) can0 00E#7D95 R
(1720633395.455020) can0 05C#7D957D95 R
(1720633395.455124) can0 041#01 R
(1720633395.455238) can0 016#17 R
(1720633395.455356) can0 015#01 R
(1720633395.455471) can0 017#01 R
(1720633395.455590) can0 056#01 R
(1720633395.480444) can0 00D#8994 R
(1720633395.480572) can0 05B#8994 R
(1720633395.480685) can0 014#01 R
(1720633395.480804) can0 008#01 R
(1720633395.480923) can0 055#01 R
(1720633395.481036) can0 05D#01 R
(1720633395.482263) can0 015#01 R
(1720633395.482395) can0 00E#6194 R
(1720633395.483144) can0 016#17 R
(1720633395.483259) can0 041#01 R
(1720633395.483427) can0 05C#56945694 R
(1720633395.483546) can0 056#01 R
(1720633395.483672) can0 00E#5694 R
(1720633395.483841) can0 05C#56945694 R
(1720633395.483952) can0 016#17 R
(1720633395.504586) can0 00E#8193 R
(1720633395.504756) can0 05C#81938193 R
(1720633395.504869) can0 041#01 R
(1720633395.504983) can0 016#17 R
(1720633395.505100) can0 015#01 R
(1720633395.505217) can0 017#01 R
(1720633395.505331) can0 056#01 R
(1720633395.511676) can0 007#01 R
(1720633395.541772) can0 00D#1292 R
(1720633395.541901) can0 05B#1292 R
(1720633395.542019) can0 014#01 R
(1720633395.542134) can0 008#01 R
(1720633395.542250) can0 055#01 R
(1720633395.542368) can0 05D#01 R
(1720633395.543739) can0 015#01 R
(1720633395.543851) can0 016#16 R
(1720633395.544498) can0 041#01 R
(1720633395.544631) can0 00E#E991 R
(1720633395.544760) can0 00E#E991 R
(1720633395.544923) can0 05C#E991E991 R
(1720633395.545703) can0 05C#DF91DF91 R
(1720633395.545819) can0 056#01 R
(1720633395.545937) can0 016#16 R
(1720633395.555052) can0 00E#7991 R
(1720633395.555200) can0 05C#79917991 R
(1720633395.555318) can0 041#01 R
(1720633395.555430) can0 016#16 R
(1720633395.555547) can0 015#01 R
(1720633395.555664) can0 017#01 R
(1720633395.555781) can0 056#01 R
(1720633395.573318) can0 007#01 R
(1720633395.604528) can0 00D#9A8F R
(1720633395.604663) can0 05B#9A8F R
(1720633395.604857) can0 014#01 R
(1720633395.604970) can0 008#01 R
(1720633395.605086) can0 055#01 R
(1720633395.605204) can0 05D#01 R
(1720633395.605388) can0 00E#7B8F R
(1720633395.605552) can0 05C#7B8F7B8F R
(1720633395.605666) can0 041#01 R
(1720633395.605783) can0 016#16 R
(1720633395.605897) can0 015#01 R
(1720633395.606019) can0 017#01 R
(1720633395.606137) can0 056#01 R
(1720633395.607282) can0 00E#668F R
(1720633395.607411) can0 00E#668F R
(1720633395.608187) can0 015#01 R
(1720633395.608298) can0 016#16 R
(1720633395.608417) can0 041#01 R
(1720633395.608587) can0 05C#5C8F5C8F R
(1720633395.608696) can0 056#01 R
(1720633395.608867) can0 05C#5C8F5C8F R
(1720633395.608971) can0 016#16 R
(1720633395.635539) can0 007#01 R
(1720633395.655460) can0 00E#7C8D R
(1720633395.655608) can0 05C#7B8D7B8D R
(1720633395.655726) can0 041#01 R
(1720633395.655838) can0 016#16 R
(1720633395.655955) can0 015#01 R
(1720633395.656076) can0 017#01 R
(1720633395.656187) can0 056#01 R
(1720633395.665865) can0 00D#1F8D R
(1720633395.665996) can0 05B#1F8D R
(1720633395.666111) can0 014#01 R
(1720633395.666227) can0 008#01 R
(1720633395.666344) can0 055#01 R
(1720633395.666461) can0 05D#01 R
(1720633395.668617) can0 015#01 R
(1720633395.668732) can0 016#16 R
(1720633395.668849) can0 041#01 R
(1720633395.669023) can0 05C#F68CF68C R
(1720633395.669127) can0 056#01 R
(1720633395.669261) can0 00E#F68C R
(1720633395.669706) can0 00E#EC8C R
(1720633395.669863) can0 05C#EC8CEC8C R
(1720633395.669979) can0 016#16 R
(1720633395.696872) can0 007#01 R
(1720633395.707292) can0 00E#678B R
(1720633395.707456) can0 05C#678B678B R
(1720633395.707570) can0 041#01 R
(1720633395.707687) can0 016#15 R
(1720633395.707804) can0 015#01 R
(1720633395.707925) can0 017#01 R
(1720633395.708040) can0 056#01 R
(1720633395.727774) can0 00D#A48A R
(1720633395.727903) can0 05B#A48A R
(1720633395.728016) can0 014#01 R
(1720633395.728133) can0 008#01 R
(1720633395.728248) can0 055#01 R
(1720633395.728367) can0 05D#01 R
(1720633395.730693) can0 015#01 R
(1720633395.730861) can0 05C#718A718A R
(1720633395.731001) can0 056#01 R
(1720633395.731104) can0 00E#718A R
(1720633395.732689) can0 016#15 R
(1720633395.732806) can0 041#01 R
(1720633395.732936) can0 00E#5C8A R
(1720633395.733102) can0 05C#5C8A5C8A R
(1720633395.733211) can0 016#15 R
(1720633395.756748) can0 00E#6689 R
(1720633395.756904) can0 05C#66896689 R
(1720633395.757017) can0 041#01 R
(1720633395.757135) can0 016#15 R
(1720633395.757250) can0 015#01 R
(1720633395.757369) can0 017#01 R
(1720633395.757483) can0 056#01 R
(1720633395.758719) can0 007#01 R
(1720633395.789477) can0 00D#2788 R
(1720633395.789607) can0 05B#2788 R
(1720633395.790047) can0 014#01 R
(1720633395.790160) can0 008#01 R
(1720633395.790276) can0 055#01 R
(1720633395.790395) can0 05D#01 R
(1720633395.792334) can0 015#01 R
(1720633395.792503) can0 05C#FE87FE87 R
(1720633395.792620) can0 056#01 R
(1720633395.792753) can0 00E#FE87 R
(1720633395.792894) can0 00E#FE87 R
(1720633395.793057) can0 05C#FE87FE87 R
(1720633395.793170) can0 016#15 R
(1720633395.793290) can0 041#01 R
(1720633395.793405) can0 016#15 R
(1720633395.807166) can0 00E#6487 R
(1720633395.807329) can0 05C#64876487 R
(1720633395.807447) can0 041#01 R
(1720633395.807559) can0 016#15 R
(1720633395.807676) can0 015#01 R
(1720633395.807793) can0 017#01 R
(1720633395.807910) can0 056#01 R
(1720633395.819286) can0 007#01 R
(1720633395.850026) can0 00D#BF85 R
(1720633395.850160) can0 05B#BF85 R
(1720633395.850273) can0 014#01 R
(1720633395.850390) can0 008#01 R
(1720633395.850505) can0 055#01 R
(1720633395.850623) can0 05D#01 R
(1720633395.852886) can0 05C#8B858B85 R
(1720633395.852993) can0 056#01 R
(1720633395.853128) can0 00E#8B85 R
(1720633395.853257) can0 00E#8B85 R
(1720633395.853629) can0 015#01 R
(1720633395.853741) can0 016#14 R
(1720633395.853860) can0 041#01 R
(1720633395.854034) can0 05C#81858185 R
(1720633395.854138) can0 016#14 R
(1720633395.856807) can0 00E#6285 R
(1720633395.856953) can0 05C#62856285 R
(1720633395.857068) can0 041#01 R
(1720633395.857184) can0 016#14 R
(1720633395.857303) can0 015#01 R
(1720633395.857416) can0 017#01 R
(1720633395.857533) can0 056#01 R
(1720633395.881439) can0 007#01 R
(1720633395.906725) can0 00E#6083 R
(1720633395.906896) can0 05C#60836083 R
(1720633395.907028) can0 041#01 R
(1720633395.907126) can0 016#14 R
(1720633395.907244) can0 015#01 R
(1720633395.907366) can0 017#01 R
(1720633395.907476) can0 056#01 R
(1720633395.911923) can0 00D#4183 R
(1720633395.912064) can0 05B#4183 R
(1720633395.912171) can0 014#01 R
(1720633395.912290) can0 008#01 R
(1720633395.912405) can0 055#01 R
(1720633395.912524) can0 05D#01 R
(1720633395.913880) can0 015#01 R
(1720633395.913989) can0 016#14 R
(1720633395.914113) can0 041#01 R
(1720633395.914249) can0 00E#1883 R
(1720633395.915136) can0 05C#0D830D83 R
(1720633395.915274) can0 00E#0D83 R
(1720633395.915438) can0 05C#0D830D83 R
(1720633395.915550) can0 016#14 R
(1720633395.915953) can0 056#01 R
(1720633395.942728) can0 007#01 R
(1720633395.956709) can0 00E#5D81 R
(1720633395.956863) can0 05C#5D815D81 R
(1720633395.956980) can0 041#01 R
(1720633395.957093) can0 016#14 R
(1720633395.957211) can0 015#01 R
(1720633395.957329) can0 017#01 R
(1720633395.957445) can0 056#01 R
(1720633395.973330) can0 00D#CD80 R
(1720633395.973461) can0 05B#CD80 R
(1720633395.973577) can0 014#01 R
(1720633395.973692) can0 008#01 R
(1720633395.973809) can0 055#01 R
(1720633395.973938) can0 05D#01 R
(1720633395.975722) can0 015#01 R
(1720633395.975891) can0 05C#99809980 R
(1720633395.976023) can0 00E#9980 R
(1720633395.976801) can0 016#14 R
(1720633395.976919) can0 041#01 R
(1720633395.977034) can0 056#01 R
(1720633395.977172) can0 00E#8F80 R
(1720633395.977344) can0 05C#8F808F80 R
(1720633395.977456) can0 016#14 R
(1720633396.003012) can0 007#00 R
(1720633396.006885) can0 00E#5A7F R
(1720633396.007055) can0 05C#5A7F5A7F R
(1720633396.007175) can0 041#00 R
(1720633396.007289) can0 016#13 R
(1720633396.007408) can0 015#00 R
(1720633396.007524) can0 017#00 R
(1720633396.007643) can0 056#00 R
(1720633396.032996) can0 00D#637E R
(1720633396.033125) can0 05B#637E R
(1720633396.033241) can0 014#00 R
(1720633396.033357) can0 008#00 R
(1720633396.033478) can0 055#00 R
(1720633396.033595) can0 05D#00 R
(1720633396.035804) can0 015#00 R
(1720633396.035920) can0 056#00 R
(1720633396.036065) can0 00E#307E R
(1720633396.036199) can0 00E#307E R
(1720633396.036373) can0 05C#307E307E R
(1720633396.039283) can0 016#13 R
(1720633396.039408) can0 041#00 R
(1720633396.039573) can0 05C#117E117E R
(1720633396.039690) can0 016#13 R
(1720633396.056927) can0 00E#587D R
(1720633396.057078) can0 05C#587D587D R
(1720633396.057199) can0 041#00 R
(1720633396.057312) can0 016#13 R
(1720633396.057432) can0 015#00 R
(1720633396.057548) can0 017#00 R
(1720633396.057670) can0 056#00 R
(1720633396.062960) can0 007#00 R
(1720633396.094130) can0 00D#E57B R
(1720633396.094260) can0 05B#E57B R
(1720633396.094374) can0 014#00 R
(1720633396.094491) can0 008#00 R
(1720633396.094613) can0 055#00 R
