(1722448704.827036) can0 00E#4ED1 R
(1722448704.827133) can0 00E#4ED1 R
(1722448704.827293) can0 05C#4ED14ED1 R
(1722448704.827412) can0 041#01 R
(1722448704.827534) can0 016#20 R
(1722448704.827648) can0 015#01 R
(1722448704.827765) can0 017#01 R
(1722448704.827882) can0 056#01 R
(1722448704.827997) can0 015#01 R
(1722448704.828118) can0 016#20 R
(1722448704.828235) can0 041#01 R
(1722448704.828400) can0 05C#4ED14ED1 R
(1722448704.828515) can0 056#01 R
(1722448704.828647) can0 00E#4ED1 R
(1722448704.828810) can0 05C#4ED14ED1 R
(1722448704.828931) can0 016#20 R
(1722448704.857856) can0 007#01 R
(1722448704.860415) can0 00D#0CD2 R
(1722448704.861171) can0 05B#0CD2 R
(1722448704.861288) can0 014#01 R
(1722448704.861404) can0 008#01 R
(1722448704.861522) can0 055#01 R
(1722448704.861638) can0 05D#01 R
(1722448704.874464) can0 015#01 R
(1722448704.874584) can0 016#20 R
(1722448704.874700) can0 041#01 R
(1722448704.874867) can0 05C#C1D2C1D2 R
(1722448704.874982) can0 056#01 R
(1722448704.875113) can0 00E#C2D2 R
(1722448704.890460) can0 00E#3FD3 R
(1722448704.890624) can0 05C#3FD33FD3 R
(1722448704.890737) can0 016#21 R
(1722448704.890872) can0 00E#3FD3 R
(1722448704.891037) can0 05C#3FD33FD3 R
(1722448704.891156) can0 041#01 R
(1722448704.891272) can0 016#21 R
(1722448704.891386) can0 015#01 R
(1722448704.891503) can0 017#01 R
(1722448704.891620) can0 056#01 R
(1722448704.907376) can0 007#01 R
(1722448704.922630) can0 00D#FAD3 R
(1722448704.922761) can0 05B#FAD3 R
(1722448704.922877) can0 014#01 R
(1722448704.922992) can0 008#01 R
(1722448704.923109) can0 055#01 R
(1722448704.923227) can0 05D#01 R
(1722448704.952807) can0 015#01 R
(1722448704.952972) can0 05C#27D527D5 R
(1722448704.953089) can0 056#01 R
(1722448704.953222) can0 00E#27D5 R
(1722448704.953389) can0 05C#27D527D5 R
(1722448704.953508) can0 041#01 R
(1722448704.953621) can0 016#21 R
(1722448704.953736) can0 015#01 R
(1722448704.953856) can0 017#01 R
(1722448704.953971) can0 056#01 R
(1722448704.957259) can0 007#01 R
(1722448704.968618) can0 016#21 R
(1722448704.968747) can0 041#01 R
(1722448704.968868) can0 00E#9AD5 R
(1722448704.969000) can0 00E#9AD5 R
(1722448704.969164) can0 05C#9AD59AD5 R
(1722448704.983700) can0 016#21 R
(1722448704.983879) can0 00D#C8D5 R
(1722448704.984008) can0 05B#C8D5 R
(1722448704.984124) can0 014#01 R
(1722448704.984240) can0 008#01 R
(1722448704.984359) can0 055#01 R
(1722448704.984477) can0 05D#01 R
(1722448705.006923) can0 007#01 R
(1722448705.015671) can0 05C#00D700D7 R
(1722448705.015788) can0 056#01 R
(1722448705.015920) can0 00E#00D7 R
(1722448705.016052) can0 00E#00D7 R
(1722448705.016184) can0 00E#00D7 R
(1722448705.016352) can0 05C#00D700D7 R
(1722448705.016470) can0 041#01 R
(1722448705.016586) can0 016#21 R
(1722448705.016702) can0 015#01 R
(1722448705.016821) can0 017#01 R
(1722448705.016937) can0 056#01 R
(1722448705.030836) can0 015#01 R
(1722448705.031051) can0 016#21 R
(1722448705.031168) can0 041#01 R
(1722448705.031330) can0 05C#71D771D7 R
(1722448705.031444) can0 016#21 R
(1722448705.046428) can0 00D#A5D7 R
(1722448705.046607) can0 05B#A5D7 R
(1722448705.046725) can0 014#01 R
(1722448705.046840) can0 008#01 R
(1722448705.046957) can0 055#01 R
(1722448705.047074) can0 05D#01 R
(1722448705.057386) can0 007#01 R
(1722448705.078058) can0 05C#CFD8CFD8 R
(1722448705.078174) can0 056#01 R
(1722448705.078304) can0 00E#D0D8 R
(1722448705.078435) can0 00E#D0D8 R
(1722448705.078606) can0 05C#D7D8D7D8 R
(1722448705.078722) can0 041#01 R
(1722448705.078837) can0 016#21 R
(1722448705.078952) can0 015#01 R
(1722448705.079071) can0 017#01 R
(1722448705.079186) can0 056#01 R
(1722448705.093253) can0 015#01 R
(1722448705.093413) can0 016#21 R
(1722448705.093532) can0 041#01 R
(1722448705.093663) can0 00E#46D9 R
(1722448705.093825) can0 05C#46D946D9 R
(1722448705.093939) can0 016#21 R
(1722448705.107108) can0 007#01 R
(1722448705.108179) can0 00D#72D9 R
(1722448705.108312) can0 05B#72D9 R
(1722448705.108428) can0 014#01 R
(1722448705.108544) can0 008#01 R
(1722448705.108661) can0 055#01 R
(1722448705.108782) can0 05D#01 R
(1722448705.138655) can0 015#01 R
(1722448705.138770) can0 016#22 R
(1722448705.138887) can0 041#01 R
(1722448705.139055) can0 05C#8FDA8FDA R
(1722448705.139172) can0 056#01 R
(1722448705.139300) can0 00E#90DA R
(1722448705.139431) can0 00E#90DA R
(1722448705.139596) can0 05C#8FDA8FDA R
(1722448705.139715) can0 041#01 R
(1722448705.139828) can0 016#22 R
(1722448705.139945) can0 015#01 R
(1722448705.140062) can0 017#01 R
(1722448705.140180) can0 056#01 R
(1722448705.154682) can0 00E#04DB R
(1722448705.154850) can0 05C#04DB03DB R
(1722448705.154963) can0 016#22 R
(1722448705.162333) can0 007#01 R
(1722448705.169779) can0 00D#36DB R
(1722448705.169908) can0 05B#36DB R
(1722448705.170024) can0 014#01 R
(1722448705.170140) can0 008#01 R
(1722448705.170256) can0 055#01 R
(1722448705.170375) can0 05D#01 R
(1722448705.185149) can0 015#01 R
(1722448705.185260) can0 016#22 R
(1722448705.185424) can0 05C#E3DBE3DB R
(1722448705.185539) can0 056#01 R
(1722448705.200172) can0 041#01 R
(1722448705.200304) can0 00E#4EDC R
(1722448705.200434) can0 00E#4EDC R
(1722448705.200598) can0 05C#4EDC4EDC R
(1722448705.200728) can0 00E#4EDC R
(1722448705.200894) can0 05C#4EDC4EDC R
(1722448705.201010) can0 041#01 R
(1722448705.201125) can0 016#22 R
(1722448705.201240) can0 015#01 R
(1722448705.201359) can0 017#01 R
(1722448705.201474) can0 056#01 R
(1722448705.201589) can0 016#22 R
(1722448705.211727) can0 007#01 R
(1722448705.231134) can0 00D#EADC R
(1722448705.231340) can0 05B#EADC R
(1722448705.231454) can0 014#01 R
(1722448705.231571) can0 008#01 R
(1722448705.231686) can0 055#01 R
(1722448705.231805) can0 05D#01 R
(1722448705.261917) can0 007#01 R
(1722448705.262068) can0 00E#FDDD R
(1722448705.262201) can0 00E#FDDD R
(1722448705.262335) can0 00E#FDDD R
(1722448705.262503) can0 05C#FDDDFDDD R
(1722448705.262621) can0 041#01 R
(1722448705.262735) can0 016#22 R
(1722448705.262851) can0 015#01 R
(1722448705.262968) can0 017#01 R
(1722448705.263085) can0 056#01 R
(1722448705.277538) can0 015#01 R
(1722448705.277653) can0 016#22 R
(1722448705.277772) can0 041#01 R
(1722448705.277935) can0 05C#6CDE6CDE R
(1722448705.278052) can0 056#01 R
(1722448705.278213) can0 05C#6CDE6CDE R
(1722448705.278328) can0 016#22 R
(1722448705.293691) can0 00D#9DDE R
(1722448705.293822) can0 05B#9DDE R
(1722448705.293938) can0 014#01 R
(1722448705.294053) can0 008#01 R
(1722448705.294170) can0 055#01 R
(1722448705.294287) can0 05D#01 R
(1722448705.311200) can0 007#01 R
(1722448705.325515) can0 015#01 R
(1722448705.325626) can0 016#22 R
(1722448705.325744) can0 041#01 R
(1722448705.325882) can0 00E#B7DF R
(1722448705.326020) can0 00E#B7DF R
(1722448705.326188) can0 05C#B7DFB7DF R
(1722448705.326305) can0 041#01 R
(1722448705.326419) can0 016#22 R
(1722448705.326537) can0 015#01 R
(1722448705.326657) can0 017#01 R
(1722448705.326771) can0 056#01 R
(1722448705.341313) can0 05C#24E024E0 R
(1722448705.341427) can0 056#01 R
(1722448705.341559) can0 00E#24E0 R
(1722448705.341726) can0 05C#24E024E0 R
(1722448705.341841) can0 016#23 R
(1722448705.356917) can0 00D#4DE0 R
(1722448705.357048) can0 05B#4DE0 R
(1722448705.357166) can0 014#01 R
(1722448705.357286) can0 008#01 R
(1722448705.357399) can0 055#01 R
(1722448705.357516) can0 05D#01 R
(1722448705.360953) can0 007#01 R
(1722448705.388238) can0 015#01 R
(1722448705.388367) can0 00E#61E1 R
(1722448705.388495) can0 00E#61E1 R
(1722448705.388659) can0 05C#61E161E1 R
(1722448705.388783) can0 041#01 R
(1722448705.388895) can0 016#23 R
(1722448705.389010) can0 015#01 R
(1722448705.389129) can0 017#01 R
(1722448705.389244) can0 056#01 R
(1722448705.404074) can0 016#23 R
(1722448705.404190) can0 041#01 R
(1722448705.404530) can0 05C#C5E1C5E1 R
(1722448705.404646) can0 056#01 R
(1722448705.404778) can0 00E#C5E1 R
(1722448705.404940) can0 05C#C5E1C5E1 R
(1722448705.405055) can0 016#23 R
(1722448705.411259) can0 007#01 R
(1722448705.419014) can0 00D#F3E1 R
(1722448705.419147) can0 05B#F3E1 R
(1722448705.419264) can0 014#01 R
(1722448705.419379) can0 008#01 R
(1722448705.419496) can0 055#01 R
(1722448705.419614) can0 05D#01 R
(1722448705.450196) can0 00E#FAE2 R
(1722448705.450363) can0 05C#FAE2FAE2 R
(1722448705.450481) can0 041#01 R
(1722448705.450595) can0 016#23 R
(1722448705.450711) can0 015#01 R
(1722448705.450829) can0 017#01 R
(1722448705.450945) can0 056#01 R
(1722448705.460742) can0 007#01 R
(1722448705.465144) can0 015#01 R
(1722448705.465257) can0 016#23 R
(1722448705.465375) can0 041#01 R
(1722448705.465539) can0 05C#5CE35CE3 R
(1722448705.465654) can0 056#01 R
(1722448705.465787) can0 00E#5CE3 R
(1722448705.465918) can0 00E#5CE3 R
(1722448705.466081) can0 05C#5CE35CE3 R
(1722448705.480344) can0 00D#83E3 R
(1722448705.480457) can0 016#23 R
(1722448705.480593) can0 05B#83E3 R
(1722448705.480709) can0 014#01 R
(1722448705.480826) can0 008#01 R
(1722448705.480941) can0 055#01 R
(1722448705.481059) can0 05D#01 R
(1722448705.511492) can0 00E#84E4 R
(1722448705.511622) can0 00E#84E4 R
(1722448705.511752) can0 00E#84E4 R
(1722448705.511915) can0 05C#84E484E4 R
(1722448705.512032) can0 041#01 R
(1722448705.512146) can0 016#23 R
(1722448705.512263) can0 015#01 R
(1722448705.512380) can0 017#01 R
(1722448705.512497) can0 056#01 R
(1722448705.512613) can0 015#01 R
(1722448705.512727) can0 016#23 R
(1722448705.512853) can0 041#01 R
(1722448705.513013) can0 05C#84E484E4 R
(1722448705.513126) can0 056#01 R
(1722448705.513287) can0 05C#84E484E4 R
(1722448705.513402) can0 016#23 R
(1722448705.517131) can0 007#01 R
(1722448705.542245) can0 00D#0FE5 R
(1722448705.542341) can0 05B#0FE5 R
(1722448705.542453) can0 014#01 R
(1722448705.542568) can0 008#01 R
(1722448705.542684) can0 055#01 R
(1722448705.542802) can0 05D#01 R
(1722448705.567716) can0 007#01 R
(1722448705.572536) can0 015#01 R
(1722448705.572652) can0 016#23 R
(1722448705.572816) can0 05C#04E604E6 R
(1722448705.572933) can0 056#01 R
(1722448705.573069) can0 00E#04E6 R
(1722448705.573205) can0 00E#04E6 R
(1722448705.573373) can0 05C#04E604E6 R
(1722448705.573491) can0 041#01 R
(1722448705.573605) can0 016#23 R
(1722448705.573721) can0 015#01 R
(1722448705.573840) can0 017#01 R
(1722448705.573955) can0 056#01 R
(1722448705.588288) can0 041#01 R
(1722448705.588416) can0 00E#61E6 R
(1722448705.588580) can0 05C#61E661E6 R
(1722448705.588694) can0 016#23 R
(1722448705.603654) can0 00D#92E6 R
(1722448705.603783) can0 05B#92E6 R
(1722448705.603899) can0 014#01 R
(1722448705.604014) can0 008#01 R
(1722448705.604131) can0 055#01 R
(1722448705.604249) can0 05D#01 R
(1722448705.617068) can0 007#01 R
(1722448705.634723) can0 015#01 R
(1722448705.634888) can0 05C#80E780E7 R
(1722448705.635004) can0 056#01 R
(1722448705.635136) can0 00E#80E7 R
(1722448705.635269) can0 00E#80E7 R
(1722448705.635438) can0 05C#80E780E7 R
(1722448705.635555) can0 041#01 R
(1722448705.635674) can0 016#24 R
(1722448705.635789) can0 015#01 R
(1722448705.635910) can0 017#01 R
(1722448705.636025) can0 056#01 R
(1722448705.650223) can0 016#24 R
(1722448705.650341) can0 041#01 R
(1722448705.650482) can0 00E#E1E7 R
(1722448705.650647) can0 05C#E1E7E1E7 R
(1722448705.650764) can0 016#24 R
(1722448705.665897) can0 00D#05E8 R
(1722448705.666030) can0 05B#05E8 R
(1722448705.666147) can0 014#01 R
(1722448705.666262) can0 008#01 R
(1722448705.666379) can0 055#01 R
(1722448705.666496) can0 05D#01 R
(1722448705.666917) can0 007#01 R
(1722448705.695855) can0 05C#EDE8EDE8 R
(1722448705.695970) can0 056#01 R
(1722448705.696100) can0 00E#EDE8 R
(1722448705.696266) can0 05C#EDE8EDE8 R
(1722448705.696384) can0 041#01 R
(1722448705.696502) can0 016#24 R
(1722448705.696618) can0 015#01 R
(1722448705.696746) can0 017#01 R
(1722448705.696853) can0 056#01 R
(1722448705.711778) can0 015#01 R
(1722448705.711896) can0 016#24 R
(1722448705.712013) can0 041#01 R
(1722448705.712146) can0 00E#4BE9 R
(1722448705.712277) can0 00E#4BE9 R
(1722448705.712446) can0 05C#4BE94BE9 R
(1722448705.712565) can0 016#24 R
(1722448705.717255) can0 007#01 R
(1722448705.727489) can0 00D#74E9 R
(1722448705.727619) can0 05B#74E9 R
(1722448705.727733) can0 014#01 R
(1722448705.727850) can0 008#01 R
(1722448705.727965) can0 055#01 R
(1722448705.728084) can0 05D#01 R
(1722448705.758121) can0 015#01 R
(1722448705.758240) can0 016#24 R
(1722448705.758359) can0 041#01 R
(1722448705.758523) can0 05C#55EA55EA R
(1722448705.758636) can0 056#01 R
(1722448705.758768) can0 00E#55EA R
(1722448705.758900) can0 00E#55EA R
(1722448705.759032) can0 00E#55EA R
(1722448705.759197) can0 05C#55EA55EA R
(1722448705.759316) can0 041#01 R
(1722448705.759433) can0 016#24 R
(1722448705.759550) can0 015#01 R
(1722448705.759667) can0 017#01 R
(1722448705.759786) can0 056#01 R
(1722448705.767600) can0 007#01 R
(1722448705.772800) can0 05C#ABEAABEA R
(1722448705.772917) can0 016#24 R
(1722448705.788366) can0 00D#D3EA R
(1722448705.788498) can0 05B#D3EA R
(1722448705.788614) can0 014#01 R
(1722448705.788747) can0 008#01 R
(1722448705.788849) can0 055#01 R
(1722448705.788967) can0 05D#01 R
(1722448705.819005) can0 015#01 R
(1722448705.819124) can0 016#24 R
(1722448705.819290) can0 05C#B3EBB3EB R
(1722448705.819406) can0 056#01 R
(1722448705.819540) can0 00E#B3EB R
(1722448705.819673) can0 00E#B3EB R
(1722448705.819838) can0 05C#B3EBB3EB R
(1722448705.819957) can0 041#01 R
(1722448705.820074) can0 016#24 R
(1722448705.820191) can0 015#01 R
(1722448705.820309) can0 017#01 R
(1722448705.820426) can0 056#01 R
(1722448705.820543) can0 041#01 R
(1722448705.820676) can0 00E#B3EB R
(1722448705.820841) can0 05C#B3EBB3EB R
(1722448705.820960) can0 016#24 R
(1722448705.823438) can0 007#01 R
(1722448705.850579) can0 00D#2DEC R
(1722448705.850709) can0 05B#2DEC R
(1722448705.850824) can0 014#01 R
(1722448705.850941) can0 008#01 R
(1722448705.851056) can0 055#01 R
(1722448705.851174) can0 05D#01 R
(1722448705.873199) can0 007#01 R
(1722448705.881635) can0 05C#07ED07ED R
(1722448705.881767) can0 00E#07ED R
(1722448705.881902) can0 00E#07ED R
(1722448705.882072) can0 05C#07ED07ED R
(1722448705.882190) can0 041#01 R
(1722448705.882304) can0 016#25 R
(1722448705.882420) can0 015#01 R
(1722448705.882538) can0 017#01 R
(1722448705.882657) can0 056#01 R
(1722448705.896863) can0 015#01 R
(1722448705.896978) can0 016#25 R
(1722448705.897095) can0 041#01 R
(1722448705.897211) can0 056#01 R
(1722448705.897343) can0 00E#57ED R
(1722448705.897509) can0 05C#57ED57ED R
(1722448705.897623) can0 016#25 R
(1722448705.913040) can0 00D#82ED R
(1722448705.913173) can0 05B#82ED R
(1722448705.913288) can0 014#01 R
(1722448705.913404) can0 008#01 R
(1722448705.913522) can0 055#01 R
(1722448705.913640) can0 05D#01 R
(1722448705.923637) can0 007#01 R
(1722448705.943240) can0 05C#50EE50EE R
(1722448705.943377) can0 00E#50EE R
(1722448705.943537) can0 05C#50EE50EE R
(1722448705.943656) can0 041#01 R
(1722448705.943771) can0 016#25 R
(1722448705.943887) can0 015#01 R
(1722448705.944005) can0 017#01 R
(1722448705.944121) can0 056#01 R
(1722448705.958100) can0 015#01 R
(1722448705.958213) can0 016#25 R
(1722448705.958332) can0 041#01 R
(1722448705.958449) can0 056#01 R
(1722448705.958579) can0 00E#9EEE R
(1722448705.958710) can0 00E#9EEE R
(1722448705.958871) can0 05C#9EEE9EEE R
(1722448705.973132) can0 007#01 R
(1722448705.973247) can0 016#25 R
(1722448705.973378) can0 00D#BDEE R
(1722448705.973510) can0 05B#BDEE R
(1722448705.973626) can0 014#01 R
(1722448705.973742) can0 008#01 R
(1722448705.973858) can0 055#01 R
(1722448705.973976) can0 05D#01 R
(1722448706.002781) can0 015#01 R
(1722448706.002896) can0 016#25 R
(1722448706.003013) can0 041#01 R
(1722448706.003177) can0 05C#84EF84EF R
(1722448706.003350) can0 00E#84EF R
(1722448706.003479) can0 00E#84EF R
(1722448706.003610) can0 00E#84EF R
(1722448706.003775) can0 05C#84EF84EF R
(1722448706.003896) can0 041#01 R
(1722448706.004010) can0 016#25 R
(1722448706.004126) can0 015#01 R
(1722448706.004244) can0 017#01 R
(1722448706.004360) can0 056#01 R
(1722448706.018861) can0 056#01 R
(1722448706.019034) can0 05C#CFEFCFEF R
(1722448706.019146) can0 016#25 R
(1722448706.023612) can0 007#01 R
(1722448706.034157) can0 00D#F3EF R
(1722448706.034288) can0 05B#F3EF R
(1722448706.034405) can0 014#01 R
(1722448706.034521) can0 008#01 R
(1722448706.034637) can0 055#01 R
(1722448706.034754) can0 05D#01 R
(1722448706.048884) can0 015#01 R
(1722448706.049057) can0 016#25 R
(1722448706.049223) can0 05C#65F064F0 R
(1722448706.049357) can0 00E#65F0 R
(1722448706.065244) can0 041#01 R
(1722448706.065360) can0 056#01 R
(1722448706.065493) can0 00E#B3F0 R
(1722448706.065664) can0 05C#B3F0B3F0 R
(1722448706.065778) can0 016#25 R
(1722448706.065914) can0 00E#B3F0 R
(1722448706.066083) can0 05C#B3F0B3F0 R
(1722448706.066200) can0 041#01 R
(1722448706.066315) can0 016#25 R
(1722448706.066430) can0 015#01 R
(1722448706.066549) can0 017#01 R
(1722448706.066664) can0 056#01 R
(1722448706.073793) can0 007#01 R
(1722448706.096003) can0 00D#23F1 R
(1722448706.096133) can0 05B#23F1 R
(1722448706.096248) can0 014#01 R
(1722448706.096365) can0 008#01 R
(1722448706.096480) can0 055#01 R
(1722448706.096599) can0 05D#01 R
(1722448706.122777) can0 007#01 R
(1722448706.126989) can0 00E#E1F1 R
(1722448706.127121) can0 00E#E1F1 R
(1722448706.127287) can0 05C#E1F1E1F1 R
(1722448706.127405) can0 041#01 R
(1722448706.127519) can0 016#25 R
(1722448706.127635) can0 015#01 R
(1722448706.127753) can0 017#01 R
(1722448706.127869) can0 056#01 R
(1722448706.141994) can0 015#01 R
(1722448706.142106) can0 016#25 R
(1722448706.142226) can0 041#01 R
(1722448706.142395) can0 05C#27F227F2 R
(1722448706.142509) can0 056#01 R
(1722448706.142643) can0 00E#27F2 R
(1722448706.142810) can0 05C#27F227F2 R
(1722448706.142925) can0 016#25 R
(1722448706.157494) can0 00D#43F2 R
(1722448706.157629) can0 05B#43F2 R
(1722448706.157743) can0 014#01 R
(1722448706.157861) can0 008#01 R
(1722448706.157976) can0 055#01 R
(1722448706.158095) can0 05D#01 R
(1722448706.173184) can0 007#01 R
(1722448706.188368) can0 015#01 R
(1722448706.188483) can0 016#25 R
(1722448706.188602) can0 041#01 R
(1722448706.188743) can0 00E#FAF2 R
(1722448706.188900) can0 05C#FAF2FAF2 R
(1722448706.189020) can0 041#01 R
(1722448706.189132) can0 016#25 R
(1722448706.189247) can0 015#01 R
(1722448706.189367) can0 017#01 R
(1722448706.189481) can0 056#01 R
(1722448706.203885) can0 05C#3EF33DF3 R
(1722448706.204003) can0 056#01 R
(1722448706.204134) can0 00E#3EF3 R
(1722448706.204267) can0 00E#3EF3 R
(1722448706.204433) can0 05C#3EF33DF3 R
(1722448706.218750) can0 00D#58F3 R
(1722448706.218866) can0 016#26 R
(1722448706.218995) can0 05B#58F3 R
(1722448706.219112) can0 014#01 R
(1722448706.219228) can0 008#01 R
(1722448706.219345) can0 055#01 R
(1722448706.219462) can0 05D#01 R
(1722448706.224760) can0 007#01 R
(1722448706.249759) can0 015#01 R
(1722448706.249871) can0 016#26 R
(1722448706.250167) can0 00E#09F4 R
(1722448706.250305) can0 00E#09F4 R
(1722448706.250443) can0 00E#09F4 R
(1722448706.250611) can0 05C#09F408F4 R
(1722448706.250729) can0 041#01 R
(1722448706.250845) can0 016#26 R
(1722448706.250961) can0 015#01 R
(1722448706.251080) can0 017#01 R
(1722448706.251195) can0 056#01 R
(1722448706.264973) can0 041#01 R
(1722448706.265144) can0 05C#49F449F4 R
(1722448706.265258) can0 056#01 R
(1722448706.265422) can0 05C#49F449F4 R
(1722448706.265539) can0 016#26 R
(1722448706.274125) can0 007#01 R
(1722448706.279996) can0 00D#67F4 R
(1722448706.280129) can0 05B#67F4 R
(1722448706.280244) can0 014#01 R
(1722448706.280359) can0 008#01 R
(1722448706.280477) can0 055#01 R
(1722448706.280593) can0 05D#01 R
(1722448706.310948) can0 015#01 R
(1722448706.311082) can0 00E#0CF5 R
(1722448706.311215) can0 00E#0CF5 R
(1722448706.311382) can0 05C#0CF50CF5 R
(1722448706.311499) can0 041#01 R
(1722448706.311616) can0 016#26 R
(1722448706.311731) can0 015#01 R
(1722448706.311850) can0 017#01 R
(1722448706.311965) can0 056#01 R
(1722448706.324741) can0 007#01 R
(1722448706.326170) can0 016#26 R
(1722448706.326290) can0 041#01 R
(1722448706.326456) can0 05C#4EF54EF5 R
(1722448706.326572) can0 056#01 R
(1722448706.326704) can0 00E#4EF5 R
(1722448706.326870) can0 05C#4EF54EF5 R
(1722448706.326986) can0 016#26 R
(1722448706.341564) can0 00D#67F5 R
(1722448706.341696) can0 05B#67F5 R
(1722448706.341812) can0 014#01 R
(1722448706.341927) can0 008#01 R
(1722448706.342044) can0 055#01 R
(1722448706.342162) can0 05D#01 R
(1722448706.372138) can0 00E#09F6 R
(1722448706.372274) can0 00E#09F6 R
(1722448706.372444) can0 05C#09F609F6 R
(1722448706.372563) can0 041#01 R
(1722448706.372678) can0 016#26 R
(1722448706.372795) can0 015#01 R
(1722448706.372912) can0 017#01 R
(1722448706.373030) can0 056#01 R
(1722448706.374844) can0 007#01 R
(1722448706.388229) can0 015#01 R
(1722448706.388345) can0 016#26 R
(1722448706.388462) can0 041#01 R
(1722448706.388627) can0 05C#48F648F6 R
(1722448706.388754) can0 056#01 R
(1722448706.388875) can0 00E#48F6 R
(1722448706.389038) can0 05C#48F648F6 R
(1722448706.389155) can0 016#26 R
(1722448706.402659) can0 00D#5CF6 R
(1722448706.402787) can0 05B#5CF6 R
(1722448706.402903) can0 014#01 R
(1722448706.404216) can0 008#01 R
(1722448706.404334) can0 055#01 R
(1722448706.404451) can0 05D#01 R
(1722448706.425588) can0 007#01 R
(1722448706.432507) can0 00E#F2F6 R
(1722448706.432669) can0 05C#F2F6F2F6 R
(1722448706.432787) can0 041#01 R
(1722448706.432902) can0 016#26 R
(1722448706.433019) can0 015#01 R
(1722448706.433136) can0 017#01 R
(1722448706.433253) can0 056#01 R
(1722448706.448649) can0 015#01 R
(1722448706.448766) can0 016#26 R
(1722448706.448885) can0 041#01 R
(1722448706.449052) can0 05C#2FF72FF7 R
(1722448706.449169) can0 056#01 R
(1722448706.449299) can0 00E#2FF7 R
(1722448706.449433) can0 00E#2FF7 R
(1722448706.449600) can0 05C#2FF72FF7 R
(1722448706.463671) can0 00D#45F7 R
(1722448706.463788) can0 016#26 R
(1722448706.463923) can0 05B#45F7 R
(1722448706.464040) can0 014#01 R
(1722448706.464155) can0 008#01 R
(1722448706.464271) can0 055#01 R
(1722448706.464389) can0 05D#01 R
(1722448706.475223) can0 007#01 R
(1722448706.495166) can0 015#01 R
(1722448706.495282) can0 016#26 R
(1722448706.495399) can0 041#01 R
(1722448706.495532) can0 00E#D8F7 R
(1722448706.495662) can0 00E#D8F7 R
(1722448706.495794) can0 00E#D8F7 R
(1722448706.495962) can0 05C#D8F7D8F7 R
(1722448706.496080) can0 041#01 R
(1722448706.496196) can0 016#26 R
(1722448706.496312) can0 015#01 R
(1722448706.496431) can0 017#01 R
(1722448706.496546) can0 056#01 R
(1722448706.510437) can0 05C#12F811F8 R
(1722448706.510554) can0 056#01 R
(1722448706.510726) can0 05C#12F811F8 R
(1722448706.510844) can0 016#26 R
(1722448706.525259) can0 007#01 R
(1722448706.526324) can0 00D#2AF8 R
(1722448706.526460) can0 05B#2AF8 R
(1722448706.526574) can0 014#01 R
(1722448706.526690) can0 008#01 R
(1722448706.526807) can0 055#01 R
(1722448706.526924) can0 05D#01 R
(1722448706.557351) can0 015#01 R
(1722448706.557466) can0 016#26 R
(1722448706.557600) can0 00E#B6F8 R
(1722448706.557734) can0 00E#B6F8 R
(1722448706.557903) can0 05C#B6F8B6F8 R
(1722448706.558023) can0 041#01 R
(1722448706.558137) can0 016#26 R
(1722448706.558253) can0 015#01 R
(1722448706.558372) can0 017#01 R
(1722448706.558486) can0 056#01 R
(1722448706.572762) can0 041#01 R
(1722448706.573151) can0 05C#E9F8E9F8 R
(1722448706.573267) can0 056#01 R
(1722448706.573399) can0 00E#E9F8 R
(1722448706.573567) can0 05C#E9F8E9F8 R
(1722448706.573684) can0 016#26 R
(1722448706.575543) can0 007#01 R
(1722448706.588439) can0 00D#00F9 R
(1722448706.588575) can0 05B#00F9 R
(1722448706.588690) can0 014#01 R
(1722448706.588807) can0 008#01 R
(1722448706.588922) can0 055#01 R
(1722448706.589041) can0 05D#01 R
(1722448706.620371) can0 015#01 R
(1722448706.620506) can0 00E#81F9 R
(1722448706.620640) can0 00E#81F9 R
(1722448706.620812) can0 05C#81F981F9 R
(1722448706.620931) can0 041#01 R
(1722448706.621047) can0 016#26 R
(1722448706.621163) can0 015#01 R
(1722448706.621281) can0 017#01 R
(1722448706.621396) can0 056#01 R
(1722448706.624919) can0 007#01 R
(1722448706.633216) can0 016#27 R
(1722448706.633334) can0 041#01 R
(1722448706.633503) can0 05C#B1F9B1F9 R
(1722448706.633618) can0 056#01 R
(1722448706.633752) can0 00E#B1F9 R
(1722448706.633920) can0 05C#B1F9B1F9 R
(1722448706.634036) can0 016#27 R
(1722448706.649035) can0 00D#C4F9 R
(1722448706.649167) can0 05B#C4F9 R
(1722448706.649285) can0 014#01 R
(1722448706.649400) can0 008#01 R
(1722448706.649517) can0 055#01 R
(1722448706.649634) can0 05D#01 R
(1722448706.674784) can0 007#01 R
(1722448706.678899) can0 05C#3EFA3DFA R
(1722448706.679017) can0 056#01 R
(1722448706.679151) can0 00E#3EFA R
(1722448706.679322) can0 05C#3EFA41FA R
(1722448706.679441) can0 041#01 R
(1722448706.679556) can0 016#27 R
(1722448706.679673) can0 015#01 R
(1722448706.679790) can0 017#01 R
(1722448706.679908) can0 056#01 R
(1722448706.693721) can0 015#01 R
(1722448706.693838) can0 016#27 R
(1722448706.693955) can0 041#01 R
(1722448706.694090) can0 00E#6BFA R
(1722448706.694223) can0 00E#6BFA R
(1722448706.694392) can0 05C#6BFA6BFA R
(1722448706.709197) can0 00D#80FA R
(1722448706.709332) can0 05B#80FA R
(1722448706.709448) can0 014#01 R
(1722448706.709564) can0 008#01 R
(1722448706.709680) can0 016#27 R
(1722448706.709796) can0 055#01 R
(1722448706.709914) can0 05D#01 R
(1722448706.725596) can0 007#01 R
(1722448706.741147) can0 015#01 R
(1722448706.741258) can0 016#27 R
(1722448706.741376) can0 041#01 R
(1722448706.741545) can0 05C#F5FAF5FA R
(1722448706.741661) can0 056#01 R
(1722448706.741794) can0 00E#F5FA R
(1722448706.741928) can0 00E#F5FA R
(1722448706.742062) can0 00E#F5FA R
(1722448706.742230) can0 05C#F5FAF5FA R
(1722448706.742348) can0 041#01 R
(1722448706.742464) can0 016#27 R
(1722448706.742581) can0 015#01 R
(1722448706.742698) can0 017#01 R
(1722448706.742814) can0 056#01 R
(1722448706.756487) can0 05C#22FB22FB R
(1722448706.756604) can0 016#27 R
(1722448706.772055) can0 00D#36FB R
(1722448706.772190) can0 05B#36FB R
(1722448706.772306) can0 014#01 R
(1722448706.772422) can0 008#01 R
(1722448706.772538) can0 055#01 R
(1722448706.772656) can0 05D#01 R
(1722448706.774912) can0 007#01 R
(1722448706.803978) can0 015#01 R
(1722448706.804093) can0 016#27 R
(1722448706.804265) can0 05C#A0FBA0FB R
(1722448706.804381) can0 056#01 R
(1722448706.804517) can0 00E#A0FB R
(1722448706.804653) can0 00E#A0FB R
(1722448706.804826) can0 05C#A0FBA0FB R
(1722448706.804944) can0 041#01 R
(1722448706.805060) can0 016#27 R
(1722448706.805176) can0 015#01 R
(1722448706.805294) can0 017#01 R
(1722448706.805410) can0 056#01 R
(1722448706.816940) can0 041#01 R
(1722448706.817075) can0 00E#C8FB R
(1722448706.817243) can0 05C#C8FBC8FB R
(1722448706.817359) can0 016#27 R
(1722448706.824704) can0 007#01 R
(1722448706.832024) can0 00D#D8FB R
(1722448706.832154) can0 05B#D8FB R
(1722448706.832272) can0 014#01 R
(1722448706.832662) can0 008#01 R
(1722448706.832779) can0 055#01 R
(1722448706.832899) can0 05D#01 R
(1722448706.862189) can0 015#01 R
(1722448706.862359) can0 05C#3AFC3AFC R
(1722448706.862475) can0 056#01 R
(1722448706.862607) can0 00E#3BFC R
(1722448706.862741) can0 00E#3BFC R
(1722448706.862912) can0 05C#3AFC3AFC R
(1722448706.863032) can0 041#01 R
(1722448706.863147) can0 016#27 R
(1722448706.863267) can0 015#01 R
(1722448706.863382) can0 017#01 R
(1722448706.863498) can0 056#01 R
(1722448706.875431) can0 007#01 R
(1722448706.878000) can0 016#27 R
(1722448706.878197) can0 041#01 R
(1722448706.878330) can0 00E#5FFC R
(1722448706.878502) can0 05C#5FFC5FFC R
(1722448706.878618) can0 016#27 R
(1722448706.893922) can0 00D#73FC R
(1722448706.894055) can0 05B#73FC R
(1722448706.894171) can0 014#01 R
(1722448706.894287) can0 008#01 R
(1722448706.894417) can0 055#01 R
(1722448706.894533) can0 05D#01 R
(1722448706.924173) can0 05C#CEFCCEFC R
(1722448706.924353) can0 056#01 R
(1722448706.924485) can0 00E#CEFC R
(1722448706.924651) can0 05C#CEFCCEFC R
(1722448706.924773) can0 041#01 R
(1722448706.924887) can0 007#01 R
(1722448706.925003) can0 016#27 R
(1722448706.925119) can0 015#01 R
(1722448706.925237) can0 017#01 R
(1722448706.925353) can0 056#01 R
(1722448706.941226) can0 015#01 R
(1722448706.941342) can0 016#27 R
(1722448706.941460) can0 041#01 R
(1722448706.941593) can0 00E#F2FC R
(1722448706.941724) can0 00E#F2FC R
(1722448706.941890) can0 05C#F2FCF2FC R
(1722448706.954973) can0 016#27 R
(1722448706.955107) can0 00D#FDFC R
(1722448706.955241) can0 05B#FDFC R
(1722448706.955360) can0 014#01 R
(1722448706.955475) can0 008#01 R
(1722448706.955591) can0 055#01 R
(1722448706.955710) can0 05D#01 R
(1722448706.974739) can0 007#01 R
(1722448706.984439) can0 05C#51FD51FD R
(1722448706.984555) can0 056#01 R
(1722448706.984688) can0 00E#52FD R
(1722448706.984822) can0 00E#52FD R
(1722448706.984953) can0 00E#52FD R
(1722448706.985119) can0 05C#51FD51FD R
(1722448706.985237) can0 041#01 R
(1722448706.985353) can0 016#27 R
(1722448706.985469) can0 015#01 R
(1722448706.985587) can0 017#01 R
(1722448706.985703) can0 056#01 R
(1722448707.000404) can0 015#01 R
(1722448707.000523) can0 016#27 R
(1722448707.000640) can0 041#01 R
(1722448707.000807) can0 05C#73FD72FD R
(1722448707.000922) can0 016#27 R
(1722448707.016399) can0 00D#81FD R
(1722448707.016532) can0 05B#81FD R
(1722448707.016650) can0 014#01 R
(1722448707.016765) can0 008#01 R
(1722448707.016880) can0 055#01 R
(1722448707.016997) can0 05D#01 R
(1722448707.024745) can0 007#01 R
(1722448707.046129) can0 015#01 R
(1722448707.046244) can0 016#27 R
(1722448707.046363) can0 041#01 R
(1722448707.046532) can0 05C#CDFDCDFD R
(1722448707.046647) can0 056#01 R
(1722448707.046782) can0 00E#CDFD R
(1722448707.046915) can0 00E#CDFD R
(1722448707.047083) can0 05C#CDFDCDFD R
(1722448707.047201) can0 041#01 R
(1722448707.047317) can0 016#27 R
(1722448707.047435) can0 015#01 R
(1722448707.047554) can0 017#01 R
(1722448707.047669) can0 056#01 R
(1722448707.061222) can0 00E#E8FD R
(1722448707.061393) can0 05C#E7FDE7FD R
(1722448707.061507) can0 016#27 R
(1722448707.075689) can0 00D#F4FD R
(1722448707.075825) can0 05B#F4FD R
(1722448707.075941) can0 014#01 R
(1722448707.076057) can0 008#01 R
(1722448707.076173) can0 055#01 R
(1722448707.076291) can0 05D#01 R
(1722448707.100743) can0 007#01 R
(1722448707.106430) can0 015#01 R
(1722448707.106544) can0 016#27 R
(1722448707.106715) can0 05C#39FE39FE R
(1722448707.106830) can0 056#01 R
(1722448707.106965) can0 00E#39FE R
(1722448707.107099) can0 00E#39FE R
(1722448707.107268) can0 05C#39FE39FE R
(1722448707.107385) can0 041#01 R
(1722448707.107502) can0 016#27 R
(1722448707.107617) can0 015#01 R
(1722448707.107735) can0 017#01 R
(1722448707.107851) can0 056#01 R
(1722448707.121793) can0 041#01 R
(1722448707.121924) can0 00E#53FE R
(1722448707.122090) can0 05C#53FE52FE R
(1722448707.122206) can0 016#27 R
(1722448707.137859) can0 00D#60FE R
(1722448707.137992) can0 05B#60FE R
(1722448707.138108) can0 014#01 R
(1722448707.138226) can0 008#01 R
(1722448707.138342) can0 055#01 R
(1722448707.138461) can0 05D#01 R
(1722448707.150472) can0 007#01 R
(1722448707.168806) can0 015#01 R
(1722448707.168974) can0 05C#9DFE9DFE R
(1722448707.169090) can0 056#01 R
(1722448707.169224) can0 00E#9DFE R
(1722448707.169392) can0 05C#9DFE9DFE R
(1722448707.169510) can0 041#01 R
(1722448707.169626) can0 016#27 R
(1722448707.169742) can0 015#01 R
(1722448707.169860) can0 017#01 R
(1722448707.169976) can0 056#01 R
(1722448707.184489) can0 016#27 R
(1722448707.184607) can0 041#01 R
(1722448707.184743) can0 00E#B5FE R
(1722448707.184875) can0 00E#B5FE R
(1722448707.185044) can0 05C#B5FEB5FE R
(1722448707.200110) can0 00D#BFFE R
(1722448707.200226) can0 016#27 R
(1722448707.200360) can0 05B#BFFE R
(1722448707.200476) can0 014#01 R
(1722448707.200592) can0 008#01 R
(1722448707.200708) can0 055#01 R
(1722448707.200827) can0 007#01 R
(1722448707.200944) can0 05D#01 R
(1722448707.231570) can0 05C#F6FEF6FE R
(1722448707.231683) can0 056#01 R
(1722448707.231814) can0 00E#F6FE R
(1722448707.231946) can0 00E#F6FE R
(1722448707.232078) can0 00E#F6FE R
(1722448707.232246) can0 05C#F6FEF6FE R
(1722448707.232364) can0 041#01 R
(1722448707.232480) can0 016#27 R
(1722448707.232596) can0 015#01 R
(1722448707.232714) can0 017#01 R
(1722448707.232831) can0 056#01 R
(1722448707.246344) can0 015#01 R
(1722448707.246461) can0 016#27 R
(1722448707.246578) can0 041#01 R
(1722448707.246751) can0 05C#09FF09FF R
(1722448707.246866) can0 016#27 R
(1722448707.250030) can0 007#01 R
(1722448707.261324) can0 00D#10FF R
(1722448707.261459) can0 05B#10FF R
(1722448707.261575) can0 014#01 R
(1722448707.261691) can0 008#01 R
(1722448707.261806) can0 055#01 R
(1722448707.261924) can0 05D#01 R
(1722448707.292335) can0 05C#3FFF3FFF R
(1722448707.292450) can0 056#01 R
(1722448707.292584) can0 00E#3FFF R
(1722448707.292721) can0 00E#3FFF R
(1722448707.292891) can0 05C#3FFF3FFF R
(1722448707.293006) can0 041#01 R
(1722448707.293125) can0 016#27 R
(1722448707.293238) can0 015#01 R
(1722448707.293356) can0 017#01 R
(1722448707.293472) can0 056#01 R
(1722448707.300537) can0 007#01 R
(1722448707.306788) can0 015#01 R
(1722448707.306905) can0 016#27 R
(1722448707.307026) can0 041#01 R
(1722448707.307159) can0 00E#4FFF R
(1722448707.307327) can0 05C#4FFF4EFF R
(1722448707.307443) can0 016#27 R
(1722448707.322010) can0 00D#56FF R
(1722448707.322274) can0 05B#56FF R
(1722448707.322390) can0 014#01 R
(1722448707.322506) can0 008#01 R
(1722448707.322622) can0 055#01 R
(1722448707.322740) can0 05D#01 R
(1722448707.350186) can0 007#01 R
(1722448707.352981) can0 015#01 R
(1722448707.353098) can0 016#27 R
(1722448707.353217) can0 041#01 R
(1722448707.353388) can0 05C#7CFF7CFF R
(1722448707.353503) can0 056#01 R
(1722448707.353638) can0 00E#7CFF R
(1722448707.353772) can0 00E#7CFF R
(1722448707.353942) can0 05C#7CFF7CFF R
(1722448707.354060) can0 041#01 R
(1722448707.354176) can0 016#27 R
(1722448707.354292) can0 015#01 R
(1722448707.354410) can0 017#01 R
(1722448707.354527) can0 056#01 R
(1722448707.367866) can0 00E#8AFF R
(1722448707.368033) can0 05C#8AFF8AFF R
(1722448707.368149) can0 016#27 R
(1722448707.383550) can0 00D#90FF R
(1722448707.383686) can0 05B#90FF R
(1722448707.383802) can0 014#01 R
(1722448707.383918) can0 008#01 R
(1722448707.384034) can0 055#01 R
(1722448707.384153) can0 05D#01 R
(1722448707.398930) can0 05C#A3FFA3FF R
(1722448707.400251) can0 007#01 R
(1722448707.413667) can0 015#01 R
(1722448707.413783) can0 016#27 R
(1722448707.413918) can0 041#01 R
(1722448707.414033) can0 056#01 R
(1722448707.414167) can0 00E#AFFF R
(1722448707.414301) can0 00E#AFFF R
(1722448707.414474) can0 05C#AFFFAFFF R
(1722448707.414608) can0 00E#AFFF R
(1722448707.414781) can0 05C#AFFFAFFF R
(1722448707.414898) can0 041#01 R
(1722448707.415014) can0 016#27 R
(1722448707.415130) can0 015#01 R
(1722448707.415249) can0 017#01 R
(1722448707.415364) can0 056#01 R
(1722448707.415481) can0 016#27 R
(1722448707.445180) can0 00D#BEFF R
(1722448707.445315) can0 05B#BEFF R
(1722448707.445432) can0 014#01 R
(1722448707.445548) can0 008#01 R
(1722448707.445664) can0 055#01 R
(1722448707.445782) can0 05D#01 R
(1722448707.449606) can0 007#01 R
(1722448707.461156) can0 015#01 R
(1722448707.461442) can0 05C#CDFFCDFF R
(1722448707.461559) can0 056#01 R
(1722448707.461693) can0 00E#CDFF R
(1722448707.461825) can0 00E#CDFF R
(1722448707.476513) can0 016#27 R
(1722448707.476632) can0 041#01 R
(1722448707.476804) can0 05C#D5FFD5FF R
(1722448707.476920) can0 016#27 R
(1722448707.477054) can0 00E#D5FF R
(1722448707.477228) can0 05C#D5FFD5FF R
(1722448707.477346) can0 041#01 R
(1722448707.477462) can0 016#27 R
(1722448707.477578) can0 015#01 R
(1722448707.477696) can0 017#01 R
(1722448707.477814) can0 056#01 R
(1722448707.505315) can0 007#01 R
(1722448707.506991) can0 00D#E0FF R
(1722448707.507125) can0 05B#E0FF R
(1722448707.507241) can0 014#01 R
(1722448707.507357) can0 008#01 R
(1722448707.507475) can0 055#01 R
(1722448707.507593) can0 05D#01 R
(1722448707.538322) can0 015#01 R
(1722448707.538439) can0 016#27 R
(1722448707.538556) can0 041#01 R
(1722448707.538731) can0 05C#EFFFEFFF R
(1722448707.538865) can0 00E#EFFF R
(1722448707.538999) can0 00E#EFFF R
(1722448707.539174) can0 05C#EFFFEFFF R
(1722448707.539291) can0 041#01 R
(1722448707.539407) can0 016#27 R
(1722448707.539523) can0 015#01 R
(1722448707.539641) can0 017#01 R
(1722448707.539757) can0 056#01 R
(1722448707.539873) can0 056#01 R
(1722448707.540010) can0 00E#EFFF R
(1722448707.540184) can0 05C#EFFFEFFF R
(1722448707.540300) can0 016#27 R
(1722448707.555636) can0 007#01 R
(1722448707.569866) can0 00D#F5FF R
(1722448707.570000) can0 05B#F5FF R
(1722448707.570113) can0 014#01 R
(1722448707.570229) can0 008#01 R
(1722448707.570345) can0 055#01 R
(1722448707.570463) can0 05D#01 R
(1722448707.585749) can0 015#01 R
(1722448707.585886) can0 00E#FBFF R
(1722448707.599875) can0 016#27 R
(1722448707.599993) can0 041#01 R
(1722448707.600165) can0 05C#FCFFFCFF R
(1722448707.600280) can0 056#01 R
(1722448707.600414) can0 00E#FCFF R
(1722448707.600585) can0 05C#FCFFFCFF R
(1722448707.600703) can0 016#27 R
(1722448707.600837) can0 00E#FCFF R
(1722448707.601007) can0 05C#FCFFFCFF R
(1722448707.601125) can0 041#01 R
(1722448707.601241) can0 016#27 R
(1722448707.601357) can0 015#01 R
(1722448707.601475) can0 017#01 R
(1722448707.601591) can0 056#01 R
(1722448707.606067) can0 007#01 R
(1722448707.630679) can0 00D#FEFF R
(1722448707.630813) can0 05B#FEFF R
(1722448707.630929) can0 014#01 R
(1722448707.631045) can0 008#01 R
(1722448707.631161) can0 055#01 R
(1722448707.631279) can0 05D#01 R
(1722448707.655943) can0 007#01 R
(1722448707.662545) can0 015#01 R
(1722448707.662660) can0 016#27 R
(1722448707.662779) can0 041#01 R
(1722448707.662958) can0 05C#FDFFFDFF R
(1722448707.663075) can0 056#01 R
(1722448707.663211) can0 00E#FEFF R
(1722448707.663347) can0 00E#FEFF R
(1722448707.663525) can0 05C#FDFFFDFF R
(1722448707.663662) can0 00E#FEFF R
(1722448707.663839) can0 05C#FDFFFDFF R
(1722448707.663957) can0 041#01 R
(1722448707.664073) can0 016#27 R
(1722448707.664189) can0 015#01 R
(1722448707.664307) can0 017#01 R
(1722448707.664424) can0 056#01 R
(1722448707.664540) can0 016#27 R
(1722448707.692388) can0 00D#FBFF R
(1722448707.692529) can0 05B#FBFF R
(1722448707.692641) can0 014#01 R
(1722448707.692759) can0 008#01 R
(1722448707.692876) can0 055#01 R
(1722448707.692993) can0 05D#01 R
(1722448707.706260) can0 007#01 R
(1722448707.723988) can0 015#01 R
(1722448707.724156) can0 05C#F2FFF2FF R
(1722448707.724273) can0 056#01 R
(1722448707.724406) can0 00E#F2FF R
(1722448707.724541) can0 00E#F2FF R
(1722448707.724675) can0 00E#F2FF R
(1722448707.724843) can0 05C#F2FFF2FF R
(1722448707.724961) can0 041#01 R
(1722448707.725077) can0 016#27 R
(1722448707.725193) can0 015#01 R
(1722448707.725311) can0 017#01 R
(1722448707.725427) can0 056#01 R
(1722448707.739255) can0 016#27 R
(1722448707.739371) can0 041#01 R
(1722448707.739539) can0 05C#EDFFEDFF R
(1722448707.739656) can0 016#27 R
(1722448707.754430) can0 00D#EBFF R
(1722448707.754565) can0 05B#EBFF R
(1722448707.754681) can0 014#01 R
(1722448707.754797) can0 008#01 R
(1722448707.754913) can0 055#01 R
(1722448707.755031) can0 05D#01 R
(1722448707.756429) can0 007#01 R
(1722448707.785059) can0 05C#DBFFDBFF R
(1722448707.785174) can0 056#01 R
(1722448707.785310) can0 00E#DBFF R
(1722448707.785446) can0 00E#DBFF R
(1722448707.785616) can0 05C#DBFFDBFF R
(1722448707.785735) can0 041#01 R
(1722448707.785852) can0 016#27 R
(1722448707.785969) can0 015#01 R
(1722448707.786089) can0 017#01 R
(1722448707.786205) can0 056#01 R
(1722448707.800185) can0 015#01 R
(1722448707.800304) can0 016#27 R
(1722448707.800422) can0 041#01 R
(1722448707.800556) can0 00E#D3FF R
(1722448707.800728) can0 05C#D3FFD3FF R
(1722448707.800845) can0 016#27 R
(1722448707.806236) can0 007#01 R
(1722448707.815161) can0 00D#D0FF R
(1722448707.815297) can0 05B#D0FF R
(1722448707.815412) can0 014#01 R
(1722448707.815530) can0 008#01 R
(1722448707.815645) can0 055#01 R
(1722448707.815763) can0 05D#01 R
(1722448707.846827) can0 05C#B7FFB7FF R
(1722448707.846943) can0 056#01 R
(1722448707.847076) can0 00E#B7FF R
(1722448707.847210) can0 00E#B7FF R
(1722448707.847383) can0 05C#B7FFB7FF R
(1722448707.847501) can0 041#01 R
(1722448707.847616) can0 016#27 R
(1722448707.847733) can0 015#01 R
(1722448707.847851) can0 017#01 R
(1722448707.847967) can0 056#01 R
(1722448707.856898) can0 007#01 R
(1722448707.862052) can0 015#01 R
(1722448707.862168) can0 016#27 R
(1722448707.862285) can0 041#01 R
(1722448707.862420) can0 00E#ADFF R
(1722448707.862588) can0 05C#ADFFADFF R
(1722448707.862704) can0 016#27 R
(1722448707.876841) can0 00D#A8FF R
(1722448707.876975) can0 05B#A8FF R
(1722448707.877093) can0 014#01 R
(1722448707.877209) can0 008#01 R
(1722448707.877325) can0 055#01 R
(1722448707.877443) can0 05D#01 R
(1722448707.907001) can0 007#01 R
(1722448707.907825) can0 015#01 R
(1722448707.907942) can0 016#27 R
(1722448707.908062) can0 041#01 R
(1722448707.908233) can0 05C#88FF88FF R
(1722448707.908344) can0 056#01 R
(1722448707.908476) can0 00E#88FF R
(1722448707.908644) can0 05C#88FF88FF R
(1722448707.908764) can0 041#01 R
(1722448707.908879) can0 016#27 R
(1722448707.908994) can0 015#01 R
(1722448707.909113) can0 017#01 R
(1722448707.909229) can0 056#01 R
(1722448707.909361) can0 00E#88FF R
(1722448707.909493) can0 00E#88FF R
(1722448707.909659) can0 05C#88FF88FF R
(1722448707.923286) can0 016#27 R
(1722448707.939257) can0 00D#73FF R
(1722448707.939395) can0 05B#73FF R
(1722448707.939508) can0 014#01 R
(1722448707.939882) can0 008#01 R
(1722448707.939999) can0 055#01 R
(1722448707.940117) can0 05D#01 R
(1722448707.957053) can0 007#01 R
(1722448707.969060) can0 015#01 R
(1722448707.969229) can0 05C#4BFF4BFF R
(1722448707.969364) can0 00E#4BFF R
(1722448707.969498) can0 00E#4BFF R
(1722448707.969637) can0 00E#4BFF R
(1722448707.969804) can0 05C#4BFF4BFF R
(1722448707.969922) can0 041#01 R
(1722448707.970038) can0 016#27 R
(1722448707.970156) can0 015#01 R
(1722448707.970277) can0 017#01 R
(1722448707.970395) can0 056#01 R
(1722448707.985488) can0 016#27 R
(1722448707.985606) can0 041#01 R
(1722448707.985721) can0 056#01 R
(1722448707.985887) can0 05C#3AFF3AFF R
(1722448707.986004) can0 016#27 R
(1722448707.999125) can0 00D#34FF R
(1722448707.999632) can0 05B#34FF R
(1722448707.999748) can0 014#01 R
(1722448707.999864) can0 008#01 R
(1722448707.999981) can0 055#01 R
(1722448708.000099) can0 05D#01 R
(1722448708.006043) can0 007#01 R
(1722448708.030000) can0 05C#05FF05FF R
(1722448708.030140) can0 00E#05FF R
(1722448708.030278) can0 00E#05FF R
(1722448708.030450) can0 05C#05FF05FF R
(1722448708.030568) can0 041#01 R
(1722448708.030684) can0 016#27 R
(1722448708.030800) can0 015#01 R
(1722448708.030918) can0 017#01 R
(1722448708.031034) can0 056#01 R
(1722448708.045477) can0 015#01 R
(1722448708.045593) can0 016#27 R
(1722448708.045713) can0 041#01 R
(1722448708.045829) can0 056#01 R
(1722448708.045963) can0 00E#F1FE R
(1722448708.046129) can0 05C#F0FEF0FE R
(1722448708.046245) can0 016#27 R
(1722448708.056490) can0 007#01 R
(1722448708.060706) can0 00D#E7FE R
(1722448708.060843) can0 05B#E7FE R
(1722448708.060960) can0 014#01 R
(1722448708.061076) can0 008#01 R
(1722448708.061192) can0 055#01 R
(1722448708.061310) can0 05D#01 R
(1722448708.090818) can0 05C#B2FEB2FE R
(1722448708.090951) can0 00E#B2FE R
(1722448708.091084) can0 00E#B2FE R
(1722448708.091251) can0 05C#B2FEB2FE R
(1722448708.091370) can0 041#01 R
(1722448708.091486) can0 016#27 R
(1722448708.091602) can0 015#01 R
(1722448708.091720) can0 017#01 R
(1722448708.091836) can0 056#01 R
(1722448708.091952) can0 015#01 R
(1722448708.092068) can0 016#27 R
(1722448708.092186) can0 041#01 R
(1722448708.092302) can0 056#01 R
(1722448708.092434) can0 00E#B2FE R
(1722448708.092603) can0 05C#B2FEB2FE R
(1722448708.092719) can0 016#27 R
(1722448708.105801) can0 007#01 R
(1722448708.120804) can0 00D#91FE R
(1722448708.120938) can0 05B#91FE R
(1722448708.121054) can0 014#01 R
(1722448708.121169) can0 008#01 R
(1722448708.121286) can0 055#01 R
(1722448708.121404) can0 05D#01 R
(1722448708.136119) can0 015#01 R
(1722448708.136235) can0 016#27 R
(1722448708.151192) can0 041#01 R
(1722448708.151359) can0 05C#53FE53FE R
(1722448708.151475) can0 056#01 R
(1722448708.151609) can0 00E#53FE R
(1722448708.151742) can0 00E#53FE R
(1722448708.151909) can0 05C#53FE53FE R
(1722448708.152042) can0 00E#53FE R
(1722448708.152209) can0 05C#53FE53FE R
(1722448708.152328) can0 041#01 R
(1722448708.152444) can0 016#27 R
(1722448708.152560) can0 015#01 R
(1722448708.152678) can0 017#01 R
(1722448708.152794) can0 056#01 R
(1722448708.156144) can0 007#01 R
(1722448708.166841) can0 016#27 R
(1722448708.182301) can0 00D#2DFE R
(1722448708.182517) can0 05B#2DFE R
(1722448708.182632) can0 014#01 R
(1722448708.182747) can0 008#01 R
(1722448708.182863) can0 055#01 R
(1722448708.182982) can0 05D#01 R
(1722448708.205859) can0 007#01 R
(1722448708.212140) can0 00E#E8FD R
(1722448708.212277) can0 00E#E8FD R
(1722448708.212410) can0 00E#E8FD R
(1722448708.212580) can0 05C#E8FDE7FD R
(1722448708.212697) can0 041#01 R
(1722448708.212813) can0 016#27 R
(1722448708.212929) can0 015#01 R
(1722448708.213047) can0 017#01 R
(1722448708.213163) can0 056#01 R
(1722448708.227293) can0 015#01 R
(1722448708.227405) can0 016#27 R
(1722448708.227525) can0 041#01 R
(1722448708.227691) can0 05C#CBFDCBFD R
(1722448708.227807) can0 056#01 R
(1722448708.227973) can0 05C#CBFDCBFD R
(1722448708.228089) can0 016#27 R
(1722448708.242713) can0 00D#C0FD R
(1722448708.242848) can0 05B#C0FD R
(1722448708.242964) can0 014#01 R
(1722448708.243311) can0 008#01 R
(1722448708.243428) can0 055#01 R
(1722448708.243546) can0 05D#01 R
(1722448708.257373) can0 007#01 R
(1722448708.273951) can0 00E#71FD R
(1722448708.274083) can0 00E#71FD R
(1722448708.274249) can0 05C#71FD71FD R
(1722448708.274367) can0 041#01 R
(1722448708.274484) can0 016#27 R
(1722448708.274600) can0 015#01 R
(1722448708.274717) can0 017#01 R
(1722448708.274833) can0 056#01 R
(1722448708.289153) can0 015#01 R
(1722448708.289271) can0 016#27 R
(1722448708.289389) can0 041#01 R
(1722448708.289560) can0 05C#4FFD4FFD R
(1722448708.289676) can0 056#01 R
(1722448708.289811) can0 00E#50FD R
(1722448708.289982) can0 05C#4FFD4FFD R
(1722448708.290099) can0 016#27 R
(1722448708.305010) can0 00D#41FD R
(1722448708.305144) can0 05B#41FD R
(1722448708.305259) can0 014#01 R
(1722448708.305376) can0 008#01 R
(1722448708.305491) can0 055#01 R
(1722448708.305610) can0 05D#01 R
(1722448708.307288) can0 007#01 R
(1722448708.336077) can0 015#01 R
(1722448708.336193) can0 016#27 R
(1722448708.336311) can0 041#01 R
(1722448708.336445) can0 00E#ECFC R
(1722448708.336579) can0 00E#ECFC R
(1722448708.336761) can0 05C#ECFCECFC R
(1722448708.336867) can0 041#01 R
(1722448708.336984) can0 016#27 R
(1722448708.337099) can0 015#01 R
(1722448708.337217) can0 017#01 R
(1722448708.337334) can0 056#01 R
(1722448708.351237) can0 05C#C7FCC7FC R
(1722448708.351352) can0 056#01 R
(1722448708.351487) can0 00E#C7FC R
(1722448708.351655) can0 05C#C7FCC7FC R
(1722448708.351770) can0 016#27 R
(1722448708.357292) can0 007#01 R
(1722448708.366236) can0 00D#BAFC R
(1722448708.366369) can0 05B#BAFC R
(1722448708.366485) can0 014#01 R
(1722448708.366601) can0 008#01 R
(1722448708.366718) can0 055#01 R
(1722448708.366835) can0 05D#01 R
(1722448708.395949) can0 015#01 R
(1722448708.396065) can0 016#27 R
(1722448708.396199) can0 00E#5DFC R
(1722448708.396365) can0 05C#5DFC5DFC R
(1722448708.396485) can0 041#01 R
(1722448708.396601) can0 016#27 R
(1722448708.396717) can0 015#01 R
(1722448708.396835) can0 017#01 R
(1722448708.396951) can0 056#01 R
(1722448708.410743) can0 041#01 R
(1722448708.410930) can0 05C#3BFC3BFC R
(1722448708.411046) can0 056#01 R
(1722448708.411178) can0 00E#3BFC R
(1722448708.411310) can0 00E#3BFC R
(1722448708.411476) can0 05C#3BFC3BFC R
(1722448708.411592) can0 016#27 R
(1722448708.414909) can0 007#01 R
(1722448708.426445) can0 00D#29FC R
(1722448708.426579) can0 05B#29FC R
(1722448708.426695) can0 014#01 R
(1722448708.426811) can0 008#01 R
(1722448708.426927) can0 055#01 R
(1722448708.427045) can0 05D#01 R
(1722448708.456989) can0 05C#C3FBC3FB R
(1722448708.457104) can0 056#01 R
(1722448708.457238) can0 00E#C3FB R
(1722448708.457372) can0 00E#C3FB R
(1722448708.457506) can0 00E#C3FB R
(1722448708.457674) can0 05C#C3FBC3FB R
(1722448708.457793) can0 041#01 R
(1722448708.457909) can0 016#27 R
(1722448708.458025) can0 015#01 R
(1722448708.458143) can0 017#01 R
(1722448708.458259) can0 056#01 R
(1722448708.464842) can0 007#01 R
(1722448708.472200) can0 015#01 R
(1722448708.472316) can0 016#27 R
(1722448708.472434) can0 041#01 R
(1722448708.472604) can0 05C#9BFB9BFB R
(1722448708.472720) can0 016#27 R
(1722448708.487641) can0 00D#88FB R
(1722448708.487773) can0 05B#88FB R
(1722448708.487889) can0 014#01 R
(1722448708.488005) can0 008#01 R
(1722448708.488121) can0 055#01 R
(1722448708.488239) can0 05D#01 R
(1722448708.515300) can0 007#01 R
(1722448708.518546) can0 015#01 R
(1722448708.518662) can0 016#27 R
(1722448708.518780) can0 041#01 R
(1722448708.518948) can0 05C#1DFB1DFB R
(1722448708.519073) can0 056#01 R
(1722448708.519203) can0 00E#1DFB R
(1722448708.519339) can0 00E#1DFB R
(1722448708.519507) can0 05C#1DFB1DFB R
(1722448708.519627) can0 041#01 R
(1722448708.519743) can0 016#27 R
(1722448708.519861) can0 015#01 R
(1722448708.519979) can0 017#01 R
(1722448708.520095) can0 056#01 R
(1722448708.533126) can0 00E#F2FA R
(1722448708.533291) can0 05C#F2FAF2FA R
(1722448708.533408) can0 016#27 R
(1722448708.548788) can0 00D#E1FA R
(1722448708.548923) can0 05B#E1FA R
(1722448708.549038) can0 014#01 R
(1722448708.549154) can0 008#01 R
(1722448708.549271) can0 055#01 R
(1722448708.549389) can0 05D#01 R
(1722448708.565144) can0 007#01 R
(1722448708.579881) can0 015#01 R
(1722448708.580002) can0 016#27 R
(1722448708.580170) can0 05C#6BFA6BFA R
(1722448708.580286) can0 056#01 R
(1722448708.580419) can0 00E#6BFA R
(1722448708.580554) can0 00E#6BFA R
(1722448708.580722) can0 05C#6BFA6BFA R
(1722448708.580841) can0 041#01 R
(1722448708.580956) can0 016#27 R
(1722448708.581072) can0 015#01 R
(1722448708.581190) can0 017#01 R
(1722448708.581306) can0 056#01 R
(1722448708.595368) can0 041#01 R
(1722448708.595501) can0 00E#3BFA R
(1722448708.595668) can0 05C#3BFA3BFA R
(1722448708.595783) can0 016#27 R
(1722448708.610774) can0 00D#28FA R
(1722448708.610963) can0 05B#28FA R
(1722448708.611080) can0 014#01 R
(1722448708.611197) can0 008#01 R
(1722448708.611313) can0 055#01 R
(1722448708.611431) can0 05D#01 R
(1722448708.615095) can0 007#01 R
(1722448708.641220) can0 015#01 R
(1722448708.641446) can0 05C#ABF9ABF9 R
(1722448708.641562) can0 056#01 R
(1722448708.641696) can0 00E#ABF9 R
(1722448708.641862) can0 05C#ABF9ABF9 R
(1722448708.641980) can0 041#01 R
(1722448708.642097) can0 016#27 R
(1722448708.642213) can0 015#01 R
(1722448708.642331) can0 017#01 R
(1722448708.642446) can0 056#01 R
(1722448708.656752) can0 016#26 R
(1722448708.656860) can0 041#01 R
(1722448708.656992) can0 00E#7BF9 R
(1722448708.657123) can0 00E#7BF9 R
(1722448708.657292) can0 05C#7BF97BF9 R
(1722448708.665316) can0 007#01 R
(1722448708.672681) can0 00D#61F9 R
(1722448708.672796) can0 016#26 R
(1722448708.672928) can0 05B#61F9 R
(1722448708.673044) can0 014#01 R
(1722448708.673161) can0 008#01 R
(1722448708.673278) can0 055#01 R
(1722448708.673395) can0 05D#01 R
(1722448708.703632) can0 05C#DFF8DFF8 R
(1722448708.703748) can0 056#01 R
(1722448708.703884) can0 00E#DFF8 R
(1722448708.704020) can0 00E#DFF8 R
(1722448708.704156) can0 00E#DFF8 R
(1722448708.704326) can0 05C#DBF8DBF8 R
(1722448708.704444) can0 041#01 R
(1722448708.704560) can0 016#26 R
(1722448708.704678) can0 015#01 R
(1722448708.704797) can0 017#01 R
(1722448708.704912) can0 056#01 R
(1722448708.714959) can0 007#01 R
(1722448708.718685) can0 015#01 R
(1722448708.718811) can0 016#26 R
(1722448708.718929) can0 041#01 R
(1722448708.719099) can0 05C#ACF8ACF8 R
(1722448708.719216) can0 016#26 R
(1722448708.733635) can0 00D#94F8 R
(1722448708.733765) can0 05B#94F8 R
(1722448708.733880) can0 014#01 R
(1722448708.733996) can0 008#01 R
(1722448708.734112) can0 055#01 R
(1722448708.734230) can0 05D#01 R
(1722448708.763845) can0 015#01 R
(1722448708.763961) can0 016#26 R
(1722448708.764080) can0 041#01 R
(1722448708.764250) can0 05C#0BF80BF8 R
(1722448708.764383) can0 00E#0BF8 R
(1722448708.764520) can0 00E#0BF8 R
(1722448708.764688) can0 05C#0BF80BF8 R
(1722448708.764806) can0 041#01 R
(1722448708.764922) can0 016#26 R
(1722448708.765038) can0 015#01 R
(1722448708.765156) can0 017#01 R
(1722448708.765275) can0 056#01 R
(1722448708.775546) can0 007#01 R
(1722448708.779328) can0 056#01 R
(1722448708.779465) can0 00E#D5F7 R
(1722448708.779633) can0 05C#D5F7D5F7 R
(1722448708.779750) can0 016#26 R
(1722448708.794798) can0 00D#BBF7 R
(1722448708.794930) can0 05B#BBF7 R
(1722448708.795046) can0 014#01 R
(1722448708.795162) can0 008#01 R
(1722448708.795278) can0 055#01 R
(1722448708.795397) can0 05D#01 R
(1722448708.825413) can0 007#01 R
(1722448708.825626) can0 015#01 R
(1722448708.825741) can0 016#26 R
(1722448708.825912) can0 05C#2BF72BF7 R
(1722448708.826043) can0 00E#2BF7 R
(1722448708.826178) can0 00E#2BF7 R
(1722448708.826346) can0 05C#2BF72BF7 R
(1722448708.826464) can0 041#01 R
(1722448708.826582) can0 016#26 R
(1722448708.826698) can0 015#01 R
(1722448708.826816) can0 017#01 R
(1722448708.826932) can0 056#01 R
(1722448708.841543) can0 041#01 R
(1722448708.841659) can0 056#01 R
(1722448708.841791) can0 00E#EFF6 R
(1722448708.841959) can0 05C#EFF6EFF6 R
(1722448708.842075) can0 016#26 R
(1722448708.856160) can0 00D#D8F6 R
(1722448708.856291) can0 05B#D8F6 R
(1722448708.856408) can0 014#01 R
(1722448708.856524) can0 008#01 R
(1722448708.856640) can0 055#01 R
(1722448708.856759) can0 05D#01 R
(1722448708.874999) can0 007#01 R
(1722448708.887554) can0 015#01 R
(1722448708.887715) can0 05C#3CF63CF6 R
(1722448708.888185) can0 00E#3CF6 R
(1722448708.888347) can0 05C#3CF63CF6 R
(1722448708.888465) can0 041#01 R
(1722448708.888582) can0 016#26 R
(1722448708.888698) can0 015#01 R
(1722448708.888816) can0 017#01 R
(1722448708.888931) can0 056#01 R
(1722448708.903237) can0 016#26 R
(1722448708.903355) can0 041#01 R
(1722448708.903471) can0 056#01 R
(1722448708.903605) can0 00E#FDF5 R
(1722448708.903739) can0 00E#FDF5 R
(1722448708.903909) can0 05C#FDF5FDF5 R
(1722448708.919328) can0 00D#E1F5 R
(1722448708.919443) can0 016#26 R
(1722448708.919576) can0 05B#E1F5 R
(1722448708.919691) can0 014#01 R
(1722448708.919808) can0 008#01 R
(1722448708.919924) can0 055#01 R
(1722448708.920042) can0 05D#01 R
(1722448708.925575) can0 007#01 R
(1722448708.949463) can0 05C#42F542F5 R
(1722448708.949595) can0 00E#42F5 R
(1722448708.949725) can0 00E#42F5 R
(1722448708.949857) can0 00E#42F5 R
(1722448708.950019) can0 05C#42F542F5 R
(1722448708.950137) can0 041#01 R
(1722448708.950253) can0 016#26 R
(1722448708.950382) can0 015#01 R
(1722448708.950488) can0 017#01 R
(1722448708.950604) can0 056#01 R
(1722448708.965702) can0 015#01 R
(1722448708.965980) can0 016#26 R
(1722448708.966098) can0 041#01 R
(1722448708.966214) can0 056#01 R
(1722448708.966387) can0 05C#00F500F5 R
(1722448708.966501) can0 016#26 R
(1722448708.975925) can0 007#01 R
(1722448708.980849) can0 00D#E3F4 R
(1722448708.980986) can0 05B#E3F4 R
(1722448708.981101) can0 014#01 R
(1722448708.981219) can0 008#01 R
(1722448708.981335) can0 055#01 R
(1722448708.981454) can0 05D#01 R
(1722448709.011526) can0 05C#3DF43DF4 R
(1722448709.011687) can0 00E#3DF4 R
(1722448709.011821) can0 00E#3DF4 R
(1722448709.011987) can0 05C#3DF43DF4 R
(1722448709.012107) can0 041#01 R
(1722448709.012223) can0 016#26 R
(1722448709.012339) can0 015#01 R
(1722448709.012457) can0 017#01 R
(1722448709.012573) can0 056#01 R
(1722448709.025868) can0 007#01 R
(1722448709.027029) can0 015#01 R
(1722448709.027146) can0 016#26 R
(1722448709.027267) can0 041#01 R
(1722448709.027380) can0 056#01 R
(1722448709.027512) can0 00E#FCF3 R
(1722448709.027679) can0 05C#FCF3FCF3 R
(1722448709.027794) can0 016#26 R
(1722448709.041851) can0 00D#DDF3 R
(1722448709.042005) can0 05B#DDF3 R
(1722448709.042121) can0 014#01 R
(1722448709.042237) can0 008#01 R
(1722448709.042353) can0 055#01 R
(1722448709.042471) can0 05D#01 R
(1722448709.073657) can0 015#01 R
(1722448709.073772) can0 016#25 R
(1722448709.073891) can0 041#01 R
(1722448709.074055) can0 05C#2CF32CF3 R
(1722448709.074186) can0 00E#2CF3 R
(1722448709.074318) can0 00E#2CF3 R
(1722448709.074482) can0 05C#2CF32CF3 R
(1722448709.074601) can0 041#01 R
(1722448709.074719) can0 007#01 R
(1722448709.074833) can0 016#25 R
(1722448709.074949) can0 015#01 R
(1722448709.075067) can0 017#01 R
(1722448709.075183) can0 056#01 R
(1722448709.088960) can0 056#01 R
(1722448709.089092) can0 00E#E4F2 R
(1722448709.089254) can0 05C#E4F2E4F2 R
(1722448709.089368) can0 016#25 R
(1722448709.104196) can0 00D#C8F2 R
(1722448709.104329) can0 05B#C8F2 R
(1722448709.104444) can0 014#01 R
(1722448709.104561) can0 008#01 R
(1722448709.104677) can0 055#01 R
(1722448709.104795) can0 05D#01 R
(1722448709.124996) can0 007#01 R
(1722448709.134466) can0 015#01 R
(1722448709.134598) can0 00E#15F2 R
(1722448709.134766) can0 05C#15F215F2 R
(1722448709.134884) can0 041#01 R
(1722448709.135001) can0 016#25 R
(1722448709.135115) can0 015#01 R
(1722448709.135232) can0 017#01 R
(1722448709.135350) can0 056#01 R
(1722448709.149704) can0 016#25 R
(1722448709.149878) can0 041#01 R
(1722448709.150040) can0 05C#CEF1CEF1 R
(1722448709.150155) can0 056#01 R
(1722448709.150285) can0 00E#CEF1 R
(1722448709.150416) can0 00E#CEF1 R
(1722448709.150578) can0 05C#CEF1CEF1 R
(1722448709.165500) can0 00D#ADF1 R
(1722448709.165632) can0 05B#ADF1 R
(1722448709.165748) can0 014#01 R
(1722448709.165864) can0 008#01 R
(1722448709.165978) can0 016#25 R
(1722448709.166095) can0 055#01 R
(1722448709.166212) can0 05D#01 R
(1722448709.178995) can0 007#01 R
(1722448709.196884) can0 00E#EEF0 R
(1722448709.197013) can0 00E#EEF0 R
(1722448709.197262) can0 00E#EEF0 R
(1722448709.197424) can0 05C#EEF0EEF0 R
(1722448709.197542) can0 041#01 R
(1722448709.197656) can0 016#25 R
(1722448709.197775) can0 015#01 R
(1722448709.197890) can0 017#01 R
(1722448709.198009) can0 056#01 R
(1722448709.212271) can0 015#01 R
(1722448709.212385) can0 016#25 R
(1722448709.212503) can0 041#01 R
(1722448709.212677) can0 05C#A0F0A0F0 R
(1722448709.212793) can0 056#01 R
(1722448709.212967) can0 05C#A0F0A0F0 R
(1722448709.213081) can0 016#25 R
(1722448709.227452) can0 00D#82F0 R
(1722448709.227588) can0 05B#82F0 R
(1722448709.227702) can0 014#01 R
(1722448709.227819) can0 008#01 R
(1722448709.227934) can0 055#01 R
(1722448709.228052) can0 05D#01 R
(1722448709.229004) can0 007#01 R
(1722448709.258557) can0 00E#BCEF R
(1722448709.258686) can0 00E#BCEF R
(1722448709.258852) can0 05C#BCEFBCEF R
(1722448709.258970) can0 041#01 R
(1722448709.259084) can0 016#25 R
(1722448709.259200) can0 015#01 R
(1722448709.259318) can0 017#01 R
(1722448709.259434) can0 056#01 R
(1722448709.273439) can0 015#01 R
(1722448709.273554) can0 016#25 R
(1722448709.273671) can0 041#01 R
(1722448709.273835) can0 05C#70EF70EF R
(1722448709.273951) can0 056#01 R
(1722448709.274081) can0 00E#70EF R
(1722448709.274244) can0 05C#70EF70EF R
(1722448709.274357) can0 016#25 R
(1722448709.278774) can0 007#01 R
(1722448709.288124) can0 00D#52EF R
(1722448709.288254) can0 05B#52EF R
(1722448709.288370) can0 014#01 R
(1722448709.288486) can0 008#01 R
(1722448709.288602) can0 055#01 R
(1722448709.288721) can0 05D#01 R
(1722448709.318694) can0 015#01 R
(1722448709.318808) can0 016#25 R
(1722448709.318928) can0 041#01 R
(1722448709.319059) can0 00E#89EE R
(1722448709.319192) can0 00E#89EE R
(1722448709.319354) can0 05C#89EE89EE R
(1722448709.319472) can0 041#01 R
(1722448709.319586) can0 016#25 R
(1722448709.319704) can0 015#01 R
(1722448709.319822) can0 017#01 R
(1722448709.319938) can0 056#01 R
(1722448709.330873) can0 007#01 R
(1722448709.333972) can0 05C#3BEE3BEE R
(1722448709.334087) can0 056#01 R
(1722448709.334221) can0 00E#3BEE R
(1722448709.334389) can0 05C#3BEE3BEE R
(1722448709.334504) can0 016#25 R
(1722448709.349084) can0 00D#17EE R
(1722448709.349364) can0 05B#17EE R
(1722448709.349480) can0 014#01 R
(1722448709.349596) can0 008#01 R
(1722448709.349712) can0 055#01 R
(1722448709.349831) can0 05D#01 R
(1722448709.379580) can0 015#01 R
(1722448709.379694) can0 016#25 R
(1722448709.379825) can0 00E#48ED R
(1722448709.379987) can0 05C#48ED48ED R
(1722448709.380105) can0 041#01 R
(1722448709.380219) can0 016#25 R
(1722448709.380336) can0 015#01 R
(1722448709.380456) can0 017#01 R
(1722448709.380574) can0 056#01 R
(1722448709.394897) can0 041#01 R
(1722448709.395061) can0 05C#F2ECF1EC R
(1722448709.395177) can0 056#01 R
(1722448709.395309) can0 00E#F2EC R
(1722448709.395441) can0 00E#F2EC R
(1722448709.395605) can0 05C#F2ECF1EC R
(1722448709.400872) can0 007#01 R
(1722448709.410457) can0 00D#D1EC R
(1722448709.410576) can0 016#24 R
(1722448709.410708) can0 05B#D1EC R
(1722448709.410824) can0 014#01 R
(1722448709.410940) can0 008#01 R
(1722448709.411056) can0 055#01 R
(1722448709.411174) can0 05D#01 R
(1722448709.426290) can0 015#01 R
(1722448709.426423) can0 00E#49EC R
(1722448709.426553) can0 00E#49EC R
(1722448709.442126) can0 016#24 R
(1722448709.442246) can0 041#01 R
(1722448709.442409) can0 05C#F1EBF1EB R
(1722448709.442527) can0 056#01 R
(1722448709.442690) can0 05C#F1EBF1EB R
(1722448709.442808) can0 016#24 R
(1722448709.442938) can0 00E#F1EB R
(1722448709.443102) can0 05C#F1EBF1EB R
(1722448709.443220) can0 041#01 R
(1722448709.443341) can0 016#24 R
(1722448709.443456) can0 015#01 R
(1722448709.443575) can0 017#01 R
(1722448709.443691) can0 056#01 R
(1722448709.450495) can0 007#01 R
(1722448709.472326) can0 00D#7CEB R
(1722448709.472458) can0 05B#7CEB R
(1722448709.472574) can0 014#01 R
(1722448709.472689) can0 008#01 R
(1722448709.472806) can0 055#01 R
(1722448709.472924) can0 05D#01 R
(1722448709.500025) can0 007#01 R
(1722448709.503510) can0 00E#9AEA R
(1722448709.503639) can0 00E#9AEA R
(1722448709.503803) can0 05C#9AEA9AEA R
(1722448709.503922) can0 041#01 R
(1722448709.504039) can0 016#24 R
(1722448709.504156) can0 015#01 R
(1722448709.504274) can0 017#01 R
(1722448709.504392) can0 056#01 R
(1722448709.518510) can0 015#01 R
(1722448709.518650) can0 016#24 R
(1722448709.518769) can0 041#01 R
(1722448709.518932) can0 05C#44EA44EA R
(1722448709.519049) can0 056#01 R
(1722448709.519178) can0 00E#44EA R
(1722448709.519343) can0 05C#44EA44EA R
(1722448709.519461) can0 016#24 R
(1722448709.534342) can0 00D#1CEA R
(1722448709.534472) can0 05B#1CEA R
(1722448709.534588) can0 014#01 R
(1722448709.534704) can0 008#01 R
(1722448709.534820) can0 055#01 R
(1722448709.534940) can0 05D#01 R
(1722448709.550530) can0 007#01 R
(1722448709.564762) can0 015#01 R
(1722448709.564879) can0 016#24 R
(1722448709.564996) can0 041#01 R
(1722448709.565127) can0 00E#34E9 R
(1722448709.565257) can0 00E#34E9 R
(1722448709.565421) can0 05C#34E934E9 R
(1722448709.565539) can0 041#01 R
(1722448709.565657) can0 016#24 R
(1722448709.565775) can0 015#01 R
(1722448709.565891) can0 017#01 R
(1722448709.566008) can0 056#01 R
(1722448709.580909) can0 05C#DBE8DBE8 R
(1722448709.581026) can0 056#01 R
(1722448709.581158) can0 00E#DBE8 R
(1722448709.581324) can0 05C#DBE8DBE8 R
(1722448709.581442) can0 016#24 R
(1722448709.596317) can0 00D#B2E8 R
(1722448709.596453) can0 05B#B2E8 R
(1722448709.596569) can0 014#01 R
(1722448709.596685) can0 008#01 R
(1722448709.596801) can0 055#01 R
(1722448709.596920) can0 05D#01 R
(1722448709.600410) can0 007#01 R
(1722448709.626908) can0 015#01 R
(1722448709.627025) can0 016#24 R
(1722448709.627155) can0 00E#C9E7 R
(1722448709.627319) can0 05C#C9E7C9E7 R
(1722448709.627437) can0 041#01 R
(1722448709.627555) can0 016#24 R
(1722448709.627671) can0 015#01 R
(1722448709.627789) can0 017#01 R
(1722448709.627905) can0 056#01 R
(1722448709.643035) can0 041#01 R
(1722448709.643198) can0 05C#68E768E7 R
(1722448709.643312) can0 056#01 R
(1722448709.643442) can0 00E#68E7 R
(1722448709.643573) can0 00E#68E7 R
(1722448709.643736) can0 05C#68E768E7 R
(1722448709.650041) can0 007#01 R
(1722448709.657292) can0 00D#44E7 R
(1722448709.657409) can0 016#24 R
(1722448709.657542) can0 05B#44E7 R
(1722448709.657657) can0 014#01 R
(1722448709.657775) can0 008#01 R
(1722448709.657895) can0 055#01 R
(1722448709.658010) can0 05D#01 R
(1722448709.673252) can0 015#01 R
(1722448709.673385) can0 00E#ABE6 R
(1722448709.673515) can0 00E#ABE6 R
(1722448709.688451) can0 016#23 R
(1722448709.688571) can0 041#01 R
(1722448709.688746) can0 05C#4EE64EE6 R
(1722448709.688853) can0 056#01 R
(1722448709.689020) can0 05C#4EE64EE6 R
(1722448709.689134) can0 016#23 R
(1722448709.689270) can0 00E#4FE6 R
(1722448709.689436) can0 05C#4EE64EE6 R
(1722448709.689554) can0 041#01 R
(1722448709.689670) can0 016#23 R
(1722448709.689786) can0 015#01 R
(1722448709.689921) can0 017#01 R
(1722448709.690046) can0 056#01 R
(1722448709.719275) can0 00D#C6E5 R
(1722448709.719412) can0 05B#C6E5 R
(1722448709.719520) can0 014#01 R
(1722448709.719640) can0 008#01 R
(1722448709.719753) can0 055#01 R
(1722448709.719873) can0 05D#01 R
(1722448709.722758) can0 007#01 R
(1722448709.751369) can0 05C#C4E4C4E4 R
(1722448709.751486) can0 056#01 R
(1722448709.751604) can0 00E#C4E4 R
(1722448709.751733) can0 00E#C4E4 R
(1722448709.751897) can0 05C#C4E4C4E4 R
(1722448709.752013) can0 041#01 R
(1722448709.752126) can0 016#23 R
(1722448709.752247) can0 015#01 R
(1722448709.752360) can0 017#01 R
(1722448709.752480) can0 056#01 R
(1722448709.766243) can0 015#01 R
(1722448709.766353) can0 016#23 R
(1722448709.766472) can0 041#01 R
(1722448709.766604) can0 00E#64E4 R
(1722448709.766773) can0 05C#64E464E4 R
(1722448709.766884) can0 016#23 R
(1722448709.772009) can0 007#01 R
(1722448709.781332) can0 00D#3EE4 R
(1722448709.781466) can0 05B#3EE4 R
(1722448709.781580) can0 014#01 R
(1722448709.781697) can0 008#01 R
(1722448709.781811) can0 055#01 R
(1722448709.781931) can0 05D#01 R
(1722448709.812257) can0 015#01 R
(1722448709.812508) can0 016#23 R
(1722448709.812620) can0 041#01 R
(1722448709.812795) can0 05C#3CE33CE3 R
(1722448709.812904) can0 056#01 R
(1722448709.813039) can0 00E#3CE3 R
(1722448709.813200) can0 00E#3CE3 R
(1722448709.813343) can0 05C#3CE33CE3 R
(1722448709.813454) can0 041#01 R
(1722448709.813571) can0 016#23 R
(1722448709.813686) can0 015#01 R
(1722448709.813807) can0 017#01 R
(1722448709.813924) can0 056#01 R
(1722448709.822073) can0 007#01 R
(1722448709.827872) can0 00E#DAE2 R
(1722448709.828040) can0 05C#DAE2DAE2 R
(1722448709.828147) can0 016#23 R
(1722448709.842343) can0 00D#B3E2 R
(1722448709.842473) can0 05B#B3E2 R
(1722448709.842589) can0 014#01 R
(1722448709.842703) can0 008#01 R
(1722448709.842821) can0 055#01 R
(1722448709.842938) can0 05D#01 R
(1722448709.872694) can0 007#01 R
(1722448709.873596) can0 015#01 R
(1722448709.873708) can0 016#23 R
(1722448709.873881) can0 05C#ABE1AAE1 R
(1722448709.873996) can0 056#01 R
(1722448709.874131) can0 00E#ABE1 R
(1722448709.874304) can0 05C#ABE1AAE1 R
(1722448709.874423) can0 041#01 R
(1722448709.874531) can0 016#23 R
(1722448709.874650) can0 015#01 R
(1722448709.874766) can0 017#01 R
(1722448709.874882) can0 056#01 R
(1722448709.888797) can0 041#01 R
(1722448709.888903) can0 00E#47E1 R
(1722448709.889044) can0 00E#47E1 R
(1722448709.889204) can0 05C#46E146E1 R
(1722448709.903867) can0 00D#18E1 R
(1722448709.903980) can0 016#23 R
(1722448709.904110) can0 05B#18E1 R
(1722448709.904226) can0 014#01 R
(1722448709.904341) can0 008#01 R
(1722448709.904458) can0 055#01 R
(1722448709.904575) can0 05D#01 R
(1722448709.922408) can0 007#01 R
(1722448709.934284) can0 015#01 R
(1722448709.934463) can0 05C#10E010E0 R
(1722448709.934573) can0 056#01 R
(1722448709.934701) can0 00E#10E0 R
(1722448709.934836) can0 00E#10E0 R
(1722448709.934971) can0 00E#10E0 R
(1722448709.935142) can0 05C#10E010E0 R
(1722448709.935258) can0 041#01 R
(1722448709.935372) can0 016#23 R
(1722448709.935488) can0 015#01 R
(1722448709.935606) can0 017#01 R
(1722448709.935722) can0 056#01 R
(1722448709.949898) can0 016#22 R
(1722448709.950011) can0 041#01 R
(1722448709.950185) can0 05C#AADFAADF R
(1722448709.950294) can0 016#22 R
(1722448709.965361) can0 00D#7ADF R
(1722448709.965490) can0 05B#7ADF R
(1722448709.965606) can0 014#01 R
(1722448709.965721) can0 008#01 R
(1722448709.965838) can0 055#01 R
(1722448709.965956) can0 05D#01 R
(1722448709.971896) can0 007#01 R
(1722448709.995896) can0 05C#6DDE6DDE R
(1722448709.996010) can0 056#01 R
(1722448709.996143) can0 00E#6DDE R
(1722448709.996282) can0 00E#6DDE R
(1722448709.996443) can0 05C#6DDE6DDE R
(1722448709.996552) can0 041#01 R
(1722448709.996668) can0 016#22 R
(1722448709.996823) can0 015#01 R
(1722448709.996879) can0 017#01 R
(1722448709.997022) can0 056#01 R
(1722448710.011994) can0 015#01 R
(1722448710.012100) can0 016#22 R
(1722448710.012218) can0 041#01 R
(1722448710.012352) can0 00E#FDDD R
(1722448710.012525) can0 05C#FDDDFDDD R
(1722448710.012631) can0 016#22 R
(1722448710.022447) can0 007#01 R
(1722448710.026691) can0 00D#CCDD R
(1722448710.026843) can0 05B#CCDD R
(1722448710.026959) can0 014#01 R
(1722448710.027077) can0 008#01 R
(1722448710.027192) can0 055#01 R
(1722448710.027311) can0 05D#01 R
(1722448710.057422) can0 015#01 R
(1722448710.057530) can0 016#22 R
(1722448710.057650) can0 041#01 R
(1722448710.057813) can0 05C#B9DCB9DC R
(1722448710.057924) can0 056#01 R
(1722448710.058055) can0 00E#B9DC R
(1722448710.058184) can0 00E#B9DC R
(1722448710.058349) can0 05C#B9DCB9DC R
(1722448710.058463) can0 041#01 R
(1722448710.058574) can0 016#22 R
(1722448710.058694) can0 015#01 R
(1722448710.058810) can0 017#01 R
(1722448710.058928) can0 056#01 R
(1722448710.059057) can0 00E#B9DC R
(1722448710.059223) can0 05C#B9DCB9DC R
(1722448710.059333) can0 016#22 R
(1722448710.072703) can0 007#01 R
(1722448710.088193) can0 00D#1DDC R
(1722448710.088324) can0 05B#1DDC R
(1722448710.088436) can0 014#01 R
(1722448710.088553) can0 008#01 R
(1722448710.088668) can0 055#01 R
(1722448710.088811) can0 05D#01 R
(1722448710.118861) can0 015#01 R
(1722448710.119028) can0 05C#FDDAFDDA R
(1722448710.119196) can0 00E#FDDA R
(1722448710.119341) can0 05C#FDDAFDDA R
(1722448710.119455) can0 041#01 R
(1722448710.119570) can0 016#22 R
(1722448710.119685) can0 015#01 R
(1722448710.119803) can0 017#01 R
(1722448710.119919) can0 056#01 R
(1722448710.121888) can0 007#01 R
(1722448710.134935) can0 016#22 R
(1722448710.135041) can0 041#01 R
(1722448710.135156) can0 056#01 R
(1722448710.135285) can0 00E#90DA R
(1722448710.135416) can0 00E#90DA R
(1722448710.135586) can0 05C#90DA90DA R
(1722448710.150850) can0 00D#5DDA R
(1722448710.150963) can0 016#22 R
(1722448710.151097) can0 05B#5DDA R
(1722448710.151211) can0 014#01 R
(1722448710.151327) can0 008#01 R
(1722448710.151444) can0 055#01 R
(1722448710.151561) can0 05D#01 R
(1722448710.172474) can0 007#01 R
(1722448710.180960) can0 05C#37D937D9 R
(1722448710.181088) can0 00E#38D9 R
(1722448710.181218) can0 00E#38D9 R
(1722448710.181352) can0 00E#38D9 R
(1722448710.181523) can0 05C#37D937D9 R
(1722448710.181632) can0 041#01 R
(1722448710.181748) can0 016#21 R
(1722448710.181863) can0 015#01 R
(1722448710.181982) can0 017#01 R
(1722448710.182097) can0 056#01 R
(1722448710.196189) can0 015#01 R
(1722448710.196303) can0 016#21 R
(1722448710.196419) can0 041#01 R
(1722448710.196534) can0 056#01 R
(1722448710.196710) can0 05C#D0D8D0D8 R
(1722448710.196809) can0 016#21 R
(1722448710.211431) can0 00D#9CD8 R
(1722448710.211559) can0 05B#9CD8 R
(1722448710.211676) can0 014#01 R
(1722448710.211797) can0 008#01 R
(1722448710.211907) can0 055#01 R
(1722448710.212031) can0 05D#01 R
(1722448710.226464) can0 007#01 R
(1722448710.242409) can0 05C#71D771D7 R
(1722448710.242541) can0 00E#71D7 R
(1722448710.242669) can0 00E#71D7 R
(1722448710.242831) can0 05C#71D771D7 R
(1722448710.242950) can0 041#01 R
(1722448710.243064) can0 016#21 R
(1722448710.243179) can0 015#01 R
(1722448710.243299) can0 017#01 R
(1722448710.243412) can0 056#01 R
(1722448710.258159) can0 015#01 R
(1722448710.258647) can0 016#21 R
(1722448710.258765) can0 041#01 R
(1722448710.258879) can0 056#01 R
(1722448710.259014) can0 00E#00D7 R
(1722448710.259185) can0 05C#00D700D7 R
(1722448710.259298) can0 016#21 R
(1722448710.273748) can0 00D#C4D6 R
(1722448710.273881) can0 05B#C4D6 R
(1722448710.273996) can0 014#01 R
(1722448710.274111) can0 008#01 R
(1722448710.274227) can0 055#01 R
(1722448710.274345) can0 05D#01 R
(1722448710.276805) can0 007#01 R
(1722448710.304850) can0 015#01 R
(1722448710.304964) can0 016#21 R
(1722448710.305079) can0 041#01 R
(1722448710.305248) can0 05C#9BD59BD5 R
(1722448710.305373) can0 00E#9BD5 R
(1722448710.305507) can0 00E#9BD5 R
(1722448710.305681) can0 05C#9BD59BD5 R
(1722448710.305786) can0 041#01 R
(1722448710.305907) can0 016#21 R
(1722448710.306017) can0 015#01 R
(1722448710.306141) can0 017#01 R
(1722448710.306251) can0 056#01 R
(1722448710.319850) can0 056#01 R
(1722448710.319979) can0 00E#28D5 R
(1722448710.320145) can0 05C#28D528D5 R
(1722448710.320253) can0 016#21 R
(1722448710.327038) can0 007#01 R
(1722448710.335420) can0 00D#F2D4 R
(1722448710.335550) can0 05B#F2D4 R
(1722448710.335665) can0 014#01 R
(1722448710.335779) can0 008#01 R
(1722448710.335896) can0 055#01 R
(1722448710.336013) can0 05D#01 R
(1722448710.365601) can0 015#01 R
(1722448710.365731) can0 00E#BCD3 R
(1722448710.365963) can0 05C#BCD3BCD3 R
(1722448710.366083) can0 041#01 R
(1722448710.366194) can0 016#21 R
(1722448710.366314) can0 015#01 R
(1722448710.366431) can0 017#01 R
(1722448710.366549) can0 056#01 R
(1722448710.366661) can0 016#21 R
(1722448710.366778) can0 041#01 R
(1722448710.366945) can0 05C#BCD3BCD3 R
(1722448710.367057) can0 056#01 R
(1722448710.367189) can0 00E#BCD3 R
(1722448710.367319) can0 00E#BCD3 R
(1722448710.367481) can0 05C#BCD3BCD3 R
(1722448710.377565) can0 007#01 R
(1722448710.380822) can0 016#21 R
(1722448710.396261) can0 00D#18D3 R
(1722448710.396387) can0 05B#18D3 R
(1722448710.396503) can0 014#01 R
(1722448710.396619) can0 008#01 R
(1722448710.396760) can0 055#01 R
(1722448710.396861) can0 05D#01 R
(1722448710.427211) can0 007#01 R
(1722448710.428520) can0 00E#D6D1 R
(1722448710.428643) can0 00E#D6D1 R
(1722448710.428801) can0 00E#D6D1 R
(1722448710.428937) can0 05C#D5D1D5D1 R
(1722448710.429051) can0 041#01 R
(1722448710.429174) can0 016#20 R
(1722448710.429293) can0 015#01 R
(1722448710.429406) can0 017#01 R
(1722448710.429528) can0 056#01 R
(1722448710.443841) can0 015#01 R
(1722448710.443956) can0 016#20 R
(1722448710.444078) can0 041#01 R
(1722448710.444241) can0 05C#57D156D1 R
(1722448710.444358) can0 056#01 R
(1722448710.444525) can0 05C#57D156D1 R
(1722448710.444648) can0 016#20 R
(1722448710.459202) can0 00D#27D1 R
(1722448710.459332) can0 05B#27D1 R
(1722448710.459445) can0 014#01 R
(1722448710.459561) can0 008#01 R
(1722448710.459677) can0 055#01 R
(1722448710.459797) can0 05D#01 R
(1722448710.477316) can0 007#01 R
(1722448710.490545) can0 015#01 R
(1722448710.490666) can0 016#20 R
(1722448710.490787) can0 041#01 R
(1722448710.490920) can0 00E#E7CF R
(1722448710.491054) can0 00E#E7CF R
(1722448710.491224) can0 05C#E7CFE7CF R
(1722448710.491339) can0 041#01 R
(1722448710.491459) can0 016#20 R
(1722448710.491575) can0 015#01 R
(1722448710.491693) can0 017#01 R
(1722448710.491809) can0 056#01 R
(1722448710.506195) can0 05C#66CF66CF R
(1722448710.506321) can0 056#01 R
(1722448710.506452) can0 00E#66CF R
(1722448710.506621) can0 05C#66CF66CF R
(1722448710.506736) can0 016#20 R
(1722448710.521661) can0 00D#35CF R
(1722448710.521785) can0 05B#35CF R
(1722448710.521906) can0 014#01 R
(1722448710.522017) can0 008#01 R
(1722448710.522134) can0 055#01 R
(1722448710.522251) can0 05D#01 R
(1722448710.528252) can0 007#01 R
(1722448710.552179) can0 015#01 R
(1722448710.552298) can0 016#20 R
(1722448710.552429) can0 00E#F0CD R
(1722448710.552558) can0 00E#F0CD R
(1722448710.552728) can0 05C#F0CDF0CD R
(1722448710.552826) can0 041#01 R
(1722448710.552965) can0 016#20 R
(1722448710.553078) can0 015#01 R
(1722448710.553197) can0 017#01 R
(1722448710.553311) can0 056#01 R
(1722448710.567955) can0 041#01 R
(1722448710.568274) can0 05C#76CD76CD R
(1722448710.568393) can0 056#01 R
(1722448710.568518) can0 00E#76CD R
(1722448710.568688) can0 05C#76CD76CD R
(1722448710.568792) can0 016#20 R
(1722448710.577203) can0 007#01 R
(1722448710.583714) can0 00D#3CCD R
(1722448710.583893) can0 05B#3CCD R
(1722448710.583999) can0 014#01 R
(1722448710.584120) can0 008#01 R
(1722448710.584233) can0 055#01 R
(1722448710.584353) can0 05D#01 R
(1722448710.598620) can0 05C#77CC77CC R
(1722448710.598732) can0 056#01 R
(1722448710.613786) can0 015#01 R
(1722448710.613893) can0 016#1F R
(1722448710.614016) can0 041#01 R
(1722448710.614146) can0 00E#FBCB R
(1722448710.614284) can0 00E#FBCB R
(1722448710.614448) can0 05C#FBCBFBCB R
(1722448710.614578) can0 00E#FBCB R
(1722448710.614747) can0 05C#FBCBFBCB R
(1722448710.614863) can0 041#01 R
(1722448710.614978) can0 016#1F R
(1722448710.615095) can0 015#01 R
(1722448710.615213) can0 017#01 R
(1722448710.615330) can0 056#01 R
(1722448710.627897) can0 007#01 R
(1722448710.628976) can0 016#1F R
(1722448710.644682) can0 00D#3CCB R
(1722448710.644820) can0 05B#3CCB R
(1722448710.644924) can0 014#01 R
(1722448710.645047) can0 008#01 R
(1722448710.645156) can0 055#01 R
(1722448710.645280) can0 05D#01 R
(1722448710.675034) can0 015#01 R
(1722448710.675122) can0 016#1F R
(1722448710.675254) can0 041#01 R
(1722448710.675436) can0 05C#FEC9FEC9 R
(1722448710.675542) can0 056#01 R
(1722448710.675666) can0 00E#FEC9 R
(1722448710.675800) can0 00E#FEC9 R
(1722448710.675932) can0 00E#FEC9 R
(1722448710.676103) can0 05C#FEC9FEC9 R
(1722448710.676213) can0 041#01 R
(1722448710.676330) can0 016#1F R
(1722448710.676446) can0 015#01 R
(1722448710.676565) can0 017#01 R
(1722448710.676682) can0 056#01 R
(1722448710.678243) can0 007#01 R
(1722448710.690335) can0 05C#77C977C9 R
(1722448710.690449) can0 016#1F R
(1722448710.705771) can0 00D#3CC9 R
(1722448710.705908) can0 05B#3CC9 R
(1722448710.706015) can0 014#01 R
(1722448710.706133) can0 008#01 R
(1722448710.706248) can0 055#01 R
(1722448710.706369) can0 05D#01 R
(1722448710.735745) can0 007#01 R
(1722448710.736147) can0 015#01 R
(1722448710.736254) can0 016#1F R
(1722448710.736431) can0 05C#F1C7F1C7 R
(1722448710.736535) can0 056#01 R
(1722448710.736672) can0 00E#F1C7 R
(1722448710.736811) can0 00E#F1C7 R
(1722448710.736970) can0 05C#F1C7F1C7 R
(1722448710.737084) can0 041#01 R
(1722448710.737200) can0 016#1F R
(1722448710.737318) can0 015#01 R
(1722448710.737436) can0 017#01 R
(1722448710.737552) can0 056#01 R
(1722448710.751309) can0 041#01 R
(1722448710.751441) can0 00E#71C7 R
(1722448710.751604) can0 05C#71C771C7 R
(1722448710.751717) can0 016#1F R
(1722448710.766198) can0 00D#3EC7 R
(1722448710.766329) can0 05B#3EC7 R
(1722448710.766444) can0 014#01 R
(1722448710.766562) can0 008#01 R
(1722448710.766675) can0 055#01 R
(1722448710.766798) can0 05D#01 R
(1722448710.785448) can0 007#01 R
(1722448710.797389) can0 015#01 R
(1722448710.797554) can0 05C#E7C5E7C5 R
(1722448710.797667) can0 056#01 R
(1722448710.797801) can0 00E#E7C5 R
(1722448710.797935) can0 00E#E7C5 R
(1722448710.798105) can0 05C#E7C5E7C5 R
(1722448710.798217) can0 041#01 R
(1722448710.798331) can0 016#1E R
(1722448710.798448) can0 015#01 R
(1722448710.798567) can0 017#01 R
(1722448710.798682) can0 056#01 R
(1722448710.813266) can0 016#1E R
(1722448710.813381) can0 041#01 R
(1722448710.813514) can0 00E#65C5 R
(1722448710.813678) can0 05C#5CC55CC5 R
(1722448710.813788) can0 016#1E R
(1722448710.828051) can0 00D#29C5 R
(1722448710.828181) can0 05B#29C5 R
(1722448710.828296) can0 014#01 R
(1722448710.828412) can0 008#01 R
(1722448710.828533) can0 055#01 R
(1722448710.828645) can0 05D#01 R
(1722448710.836442) can0 007#01 R
(1722448710.858855) can0 05C#D5C3D5C3 R
(1722448710.858968) can0 056#01 R
(1722448710.859105) can0 00E#D5C3 R
(1722448710.859268) can0 05C#D5C3D5C3 R
(1722448710.859386) can0 041#01 R
(1722448710.859497) can0 016#1E R
(1722448710.859619) can0 015#01 R
(1722448710.859733) can0 017#01 R
(1722448710.859849) can0 056#01 R
(1722448710.873910) can0 015#01 R
(1722448710.874126) can0 016#1E R
(1722448710.874241) can0 041#01 R
(1722448710.874374) can0 00E#4AC3 R
(1722448710.874510) can0 00E#4AC3 R
(1722448710.874676) can0 05C#49C349C3 R
(1722448710.885309) can0 007#01 R
(1722448710.889877) can0 00D#15C3 R
(1722448710.889987) can0 016#1E R
(1722448710.890122) can0 05B#15C3 R
(1722448710.890236) can0 014#01 R
(1722448710.890352) can0 008#01 R
(1722448710.890468) can0 055#01 R
(1722448710.890587) can0 05D#01 R
(1722448710.920003) can0 05C#B5C1B5C1 R
(1722448710.920117) can0 056#01 R
(1722448710.920252) can0 00E#B5C1 R
(1722448710.920389) can0 00E#B5C1 R
(1722448710.920527) can0 00E#B5C1 R
(1722448710.920690) can0 05C#B5C1B5C1 R
(1722448710.920802) can0 041#01 R
(1722448710.920919) can0 016#1E R
(1722448710.921039) can0 015#01 R
(1722448710.921152) can0 017#01 R
(1722448710.921271) can0 056#01 R
(1722448710.935807) can0 007#01 R
(1722448710.935972) can0 015#01 R
(1722448710.936082) can0 016#1E R
(1722448710.936196) can0 041#01 R
(1722448710.936362) can0 05C#30C130C1 R
(1722448710.936479) can0 016#1E R
(1722448710.951500) can0 00D#F2C0 R
(1722448710.951632) can0 05B#F2C0 R
(1722448710.951745) can0 014#01 R
(1722448710.951862) can0 008#01 R
(1722448710.951978) can0 055#01 R
(1722448710.952097) can0 05D#01 R
(1722448710.981266) can0 015#01 R
(1722448710.981379) can0 016#1D R
(1722448710.981492) can0 041#01 R
(1722448710.981663) can0 05C#97BF97BF R
(1722448710.981773) can0 056#01 R
(1722448710.981906) can0 00E#97BF R
(1722448710.982040) can0 00E#97BF R
(1722448710.982213) can0 05C#97BF97BF R
(1722448710.982324) can0 041#01 R
(1722448710.982438) can0 016#1D R
(1722448710.982570) can0 015#01 R
(1722448710.982674) can0 017#01 R
(1722448710.982787) can0 056#01 R
(1722448710.985390) can0 007#01 R
(1722448710.997029) can0 00E#11BF R
(1722448710.997195) can0 05C#11BF11BF R
(1722448710.997309) can0 016#1D R
(1722448711.012054) can0 00D#D2BE R
(1722448711.012186) can0 05B#D2BE R
(1722448711.012302) can0 014#01 R
(1722448711.012420) can0 008#01 R
(1722448711.012534) can0 055#01 R
(1722448711.012658) can0 05D#01 R
(1722448711.027163) can0 015#01 R
(1722448711.027274) can0 016#1D R
(1722448711.027448) can0 05C#FABDFABD R
(1722448711.027561) can0 056#01 R
(1722448711.027694) can0 00E#FABD R
(1722448711.035323) can0 007#01 R
(1722448711.042538) can0 041#01 R
(1722448711.042673) can0 00E#73BD R
(1722448711.042837) can0 05C#73BD73BD R
(1722448711.042946) can0 016#1D R
(1722448711.043084) can0 00E#73BD R
(1722448711.043246) can0 05C#73BD73BD R
(1722448711.043362) can0 041#01 R
(1722448711.043475) can0 016#1D R
(1722448711.043593) can0 015#01 R
(1722448711.043709) can0 017#01 R
(1722448711.043826) can0 056#01 R
(1722448711.073190) can0 00D#ACBC R
(1722448711.073315) can0 05B#ACBC R
(1722448711.073432) can0 014#01 R
(1722448711.073548) can0 008#01 R
(1722448711.073664) can0 055#01 R
(1722448711.073788) can0 05D#01 R
(1722448711.085492) can0 007#01 R
(1722448711.104542) can0 05C#40BB40BB R
(1722448711.106039) can0 00E#40BB R
(1722448711.106201) can0 05C#40BB40BB R
(1722448711.106322) can0 041#01 R
(1722448711.106436) can0 016#1D R
(1722448711.106551) can0 015#01 R
(1722448711.106671) can0 017#01 R
(1722448711.106785) can0 056#01 R
(1722448711.120074) can0 015#01 R
(1722448711.120185) can0 016#1D R
(1722448711.120305) can0 041#01 R
(1722448711.120420) can0 056#01 R
(1722448711.120553) can0 00E#AEBA R
(1722448711.120685) can0 00E#AEBA R
(1722448711.120854) can0 05C#AEBAAEBA R
(1722448711.135256) can0 007#01 R
(1722448711.135586) can0 016#1D R
(1722448711.135716) can0 00D#77BA R
(1722448711.135851) can0 05B#77BA R
(1722448711.135959) can0 014#01 R
(1722448711.136078) can0 008#01 R
(1722448711.136192) can0 055#01 R
(1722448711.136311) can0 05D#01 R
(1722448711.166026) can0 05C#11B911B9 R
(1722448711.166195) can0 00E#11B9 R
(1722448711.166318) can0 00E#11B9 R
(1722448711.166448) can0 00E#11B9 R
(1722448711.166616) can0 05C#11B911B9 R
(1722448711.166729) can0 041#01 R
(1722448711.166845) can0 016#1C R
(1722448711.166961) can0 015#01 R
(1722448711.167079) can0 017#01 R
(1722448711.167198) can0 056#01 R
(1722448711.181377) can0 015#01 R
(1722448711.181489) can0 016#1C R
(1722448711.181609) can0 041#01 R
(1722448711.181724) can0 056#01 R
(1722448711.181895) can0 05C#7DB87DB8 R
(1722448711.182006) can0 016#1C R
(1722448711.185176) can0 007#01 R
(1722448711.196718) can0 00D#46B8 R
(1722448711.196869) can0 05B#46B8 R
(1722448711.196981) can0 014#01 R
(1722448711.197103) can0 008#01 R
(1722448711.197216) can0 055#01 R
(1722448711.197334) can0 05D#01 R
(1722448711.227675) can0 015#01 R
(1722448711.227994) can0 016#1C R
(1722448711.228108) can0 041#01 R
(1722448711.228275) can0 05C#D3B6D3B6 R
(1722448711.228403) can0 00E#D3B6 R
(1722448711.228539) can0 00E#D3B6 R
(1722448711.228706) can0 05C#D3B6D3B6 R
(1722448711.228799) can0 041#01 R
(1722448711.228932) can0 016#1C R
(1722448711.229049) can0 015#01 R
(1722448711.229170) can0 017#01 R
(1722448711.229282) can0 056#01 R
(1722448711.235557) can0 007#01 R
(1722448711.242848) can0 056#01 R
(1722448711.243277) can0 00E#47B6 R
(1722448711.243440) can0 05C#47B647B6 R
(1722448711.243559) can0 016#1C R
(1722448711.258336) can0 00D#06B6 R
(1722448711.258470) can0 05B#06B6 R
(1722448711.258583) can0 014#01 R
(1722448711.258699) can0 008#01 R
(1722448711.258815) can0 055#01 R
(1722448711.258935) can0 05D#01 R
(1722448711.288560) can0 007#01 R
(1722448711.289295) can0 015#01 R
(1722448711.289429) can0 00E#90B4 R
(1722448711.289563) can0 00E#90B4 R
(1722448711.289728) can0 05C#8FB48FB4 R
(1722448711.289842) can0 041#01 R
(1722448711.289959) can0 016#1C R
(1722448711.290075) can0 015#01 R
(1722448711.290193) can0 017#01 R
(1722448711.290309) can0 056#01 R
(1722448711.305089) can0 016#1C R
(1722448711.305158) can0 041#01 R
(1722448711.305406) can0 05C#03B402B4 R
(1722448711.305528) can0 056#01 R
(1722448711.305653) can0 00E#03B4 R
(1722448711.305821) can0 05C#03B402B4 R
(1722448711.305934) can0 016#1C R
(1722448711.320003) can0 00D#C1B3 R
(1722448711.320135) can0 05B#C1B3 R
(1722448711.320250) can0 014#01 R
(1722448711.320365) can0 008#01 R
(1722448711.320483) can0 055#01 R
(1722448711.320601) can0 05D#01 R
(1722448711.337955) can0 007#01 R
(1722448711.350454) can0 00E#51B2 R
(1722448711.350615) can0 05C#50B250B2 R
(1722448711.350729) can0 041#01 R
(1722448711.350849) can0 016#1B R
(1722448711.350964) can0 015#01 R
(1722448711.351083) can0 017#01 R
(1722448711.351199) can0 056#01 R
(1722448711.365771) can0 015#01 R
(1722448711.365885) can0 016#1B R
(1722448711.366005) can0 041#01 R
(1722448711.366171) can0 05C#B9B1B9B1 R
(1722448711.366286) can0 056#01 R
(1722448711.366417) can0 00E#B9B1 R
(1722448711.366547) can0 00E#B9B1 R
(1722448711.366708) can0 05C#B9B1B9B1 R
(1722448711.381230) can0 016#1B R
(1722448711.381360) can0 00D#80B1 R
(1722448711.381496) can0 05B#80B1 R
(1722448711.381606) can0 014#01 R
(1722448711.381723) can0 008#01 R
(1722448711.381839) can0 055#01 R
(1722448711.381958) can0 05D#01 R
(1722448711.388038) can0 007#01 R
(1722448711.412116) can0 00E#03B0 R
(1722448711.412242) can0 00E#03B0 R
(1722448711.412380) can0 00E#03B0 R
(1722448711.412549) can0 05C#03B003B0 R
(1722448711.412664) can0 041#01 R
(1722448711.412810) can0 016#1B R
(1722448711.412905) can0 015#01 R
(1722448711.413016) can0 017#01 R
(1722448711.413133) can0 056#01 R
(1722448711.427386) can0 015#01 R
(1722448711.427501) can0 016#1B R
(1722448711.427618) can0 041#01 R
(1722448711.427791) can0 05C#74AF74AF R
(1722448711.427898) can0 056#01 R
(1722448711.428068) can0 05C#74AF74AF R
(1722448711.428185) can0 016#1B R
(1722448711.439215) can0 007#01 R
(1722448711.443097) can0 00D#31AF R
(1722448711.443228) can0 05B#31AF R
(1722448711.443345) can0 014#01 R
(1722448711.443461) can0 008#01 R
(1722448711.443577) can0 055#01 R
(1722448711.443698) can0 05D#01 R
(1722448711.458815) can0 015#01 R
(1722448711.458930) can0 016#1B R
(1722448711.459048) can0 041#01 R
(1722448711.459181) can0 00E#4BAE R
(1722448711.474436) can0 05C#B1ADB1AD R
(1722448711.474551) can0 056#01 R
(1722448711.474681) can0 00E#B1AD R
(1722448711.474845) can0 05C#B1ADB1AD R
(1722448711.474960) can0 016#1B R
(1722448711.475092) can0 00E#B1AD R
(1722448711.475255) can0 05C#B1ADB1AD R
(1722448711.475371) can0 041#01 R
(1722448711.475489) can0 016#1B R
(1722448711.475606) can0 015#01 R
(1722448711.475723) can0 017#01 R
(1722448711.475839) can0 056#01 R
(1722448711.489528) can0 007#01 R
(1722448711.504765) can0 00D#DEAC R
(1722448711.504871) can0 05B#DEAC R
(1722448711.504983) can0 014#01 R
(1722448711.505098) can0 008#01 R
(1722448711.505215) can0 055#01 R
(1722448711.505333) can0 05D#01 R
(1722448711.535747) can0 015#01 R
(1722448711.535850) can0 00E#65AB R
(1722448711.535972) can0 00E#65AB R
(1722448711.536112) can0 05C#65AB65AB R
(1722448711.536231) can0 041#01 R
(1722448711.536342) can0 016#1A R
(1722448711.536459) can0 015#01 R
(1722448711.536577) can0 017#01 R
(1722448711.536693) can0 056#01 R
(1722448711.539750) can0 007#01 R
(1722448711.551262) can0 016#1A R
(1722448711.551378) can0 041#01 R
(1722448711.551815) can0 05C#C9AAC9AA R
(1722448711.551932) can0 056#01 R
(1722448711.552060) can0 00E#CAAA R
(1722448711.552220) can0 05C#C9AAC9AA R
(1722448711.552335) can0 016#1A R
(1722448711.566316) can0 00D#8FAA R
(1722448711.566706) can0 05B#8FAA R
(1722448711.566818) can0 014#01 R
(1722448711.566936) can0 008#01 R
(1722448711.567051) can0 055#01 R
(1722448711.567171) can0 05D#01 R
(1722448711.589126) can0 007#01 R
(1722448711.596809) can0 05C#14A914A9 R
(1722448711.596982) can0 056#01 R
(1722448711.597113) can0 00E#14A9 R
(1722448711.597275) can0 05C#14A914A9 R
(1722448711.597393) can0 041#01 R
(1722448711.597509) can0 016#1A R
(1722448711.597623) can0 015#01 R
(1722448711.597743) can0 017#01 R
(1722448711.597857) can0 056#01 R
(1722448711.612913) can0 015#01 R
(1722448711.613024) can0 016#1A R
(1722448711.613141) can0 041#01 R
(1722448711.613267) can0 00E#78A8 R
(1722448711.613402) can0 00E#78A8 R
(1722448711.613560) can0 05C#78A878A8 R
(1722448711.628156) can0 016#1A R
(1722448711.628279) can0 00D#33A8 R
(1722448711.628415) can0 05B#33A8 R
(1722448711.628524) can0 014#01 R
(1722448711.628645) can0 008#01 R
(1722448711.628785) can0 055#01 R
(1722448711.628887) can0 05D#01 R
(1722448711.639770) can0 007#01 R
(1722448711.659658) can0 015#01 R
(1722448711.659766) can0 016#1A R
(1722448711.659887) can0 041#01 R
(1722448711.660053) can0 05C#ACA6ACA6 R
(1722448711.660165) can0 056#01 R
(1722448711.660295) can0 00E#ACA6 R
(1722448711.660423) can0 00E#ACA6 R
(1722448711.660557) can0 00E#ACA6 R
(1722448711.660721) can0 05C#ACA6ACA6 R
(1722448711.660810) can0 041#01 R
(1722448711.660949) can0 016#1A R
(1722448711.661062) can0 015#01 R
(1722448711.661181) can0 017#01 R
(1722448711.661297) can0 056#01 R
(1722448711.675173) can0 05C#0EA60EA6 R
(1722448711.675281) can0 016#19 R
(1722448711.689673) can0 00D#D4A5 R
(1722448711.689803) can0 05B#D4A5 R
(1722448711.689920) can0 014#01 R
(1722448711.690033) can0 008#01 R
(1722448711.690151) can0 055#01 R
(1722448711.690268) can0 05D#01 R
(1722448711.697117) can0 007#01 R
(1722448711.719990) can0 015#01 R
(1722448711.720140) can0 05C#53A453A4 R
(1722448711.720253) can0 056#01 R
(1722448711.720393) can0 00E#53A4 R
(1722448711.720518) can0 00E#53A4 R
(1722448711.720683) can0 05C#53A453A4 R
(1722448711.720824) can0 041#01 R
(1722448711.720920) can0 016#19 R
(1722448711.721026) can0 015#01 R
(1722448711.721147) can0 017#01 R
(1722448711.721264) can0 056#01 R
(1722448711.735589) can0 016#19 R
(1722448711.735711) can0 041#01 R
(1722448711.735829) can0 00E#BFA3 R
(1722448711.735998) can0 05C#BFA3BFA3 R
(1722448711.736108) can0 016#19 R
(1722448711.746734) can0 007#01 R
(1722448711.751264) can0 00D#7AA3 R
(1722448711.751394) can0 05B#7AA3 R
(1722448711.751506) can0 014#01 R
(1722448711.751623) can0 008#01 R
(1722448711.751741) can0 055#01 R
(1722448711.751857) can0 05D#01 R
(1722448711.782201) can0 05C#EDA1EDA1 R
(1722448711.782314) can0 056#01 R
(1722448711.782444) can0 00E#EEA1 R
(1722448711.782579) can0 00E#EEA1 R
(1722448711.782741) can0 05C#EDA1EDA1 R
(1722448711.782855) can0 041#01 R
(1722448711.782970) can0 016#19 R
(1722448711.783086) can0 015#01 R
(1722448711.783204) can0 017#01 R
(1722448711.783320) can0 056#01 R
(1722448711.797380) can0 007#01 R
(1722448711.797891) can0 015#01 R
(1722448711.797997) can0 016#19 R
(1722448711.798117) can0 041#01 R
(1722448711.798246) can0 00E#59A1 R
(1722448711.798415) can0 05C#59A158A1 R
(1722448711.798544) can0 016#19 R
(1722448711.812860) can0 00D#13A1 R
(1722448711.812992) can0 05B#13A1 R
(1722448711.813106) can0 014#01 R
(1722448711.813220) can0 008#01 R
(1722448711.813336) can0 055#01 R
(1722448711.813455) can0 05D#01 R
(1722448711.844802) can0 05C#849F849F R
(1722448711.844871) can0 056#01 R
(1722448711.845030) can0 00E#859F R
(1722448711.845195) can0 05C#849F849F R
(1722448711.845308) can0 041#01 R
(1722448711.845424) can0 016#18 R
(1722448711.845540) can0 015#01 R
(1722448711.845663) can0 017#01 R
(1722448711.845775) can0 056#01 R
(1722448711.848248) can0 007#01 R
(1722448711.859733) can0 015#01 R
(1722448711.859993) can0 016#18 R
(1722448711.860116) can0 041#01 R
(1722448711.860246) can0 00E#EF9E R
(1722448711.860391) can0 00E#EF9E R
(1722448711.860551) can0 05C#EF9EEF9E R
(1722448711.875539) can0 00D#A99E R
(1722448711.875650) can0 016#18 R
(1722448711.875783) can0 05B#A99E R
(1722448711.875897) can0 014#01 R
(1722448711.876014) can0 008#01 R
(1722448711.876129) can0 055#01 R
(1722448711.876250) can0 05D#01 R
(1722448711.897788) can0 007#01 R
(1722448711.906362) can0 015#01 R
(1722448711.906477) can0 016#18 R
(1722448711.906593) can0 041#01 R
(1722448711.906763) can0 05C#189D189D R
(1722448711.906873) can0 056#01 R
(1722448711.907014) can0 00E#189D R
(1722448711.907141) can0 00E#189D R
(1722448711.907277) can0 00E#189D R
(1722448711.907444) can0 05C#189D189D R
(1722448711.907553) can0 041#01 R
(1722448711.907670) can0 016#18 R
(1722448711.907790) can0 015#01 R
(1722448711.907904) can0 017#01 R
(1722448711.908025) can0 056#01 R
(1722448711.922153) can0 05C#829C829C R
(1722448711.922268) can0 016#18 R
(1722448711.937686) can0 00D#3C9C R
(1722448711.937797) can0 05B#3C9C R
(1722448711.937919) can0 014#01 R
(1722448711.938031) can0 008#01 R
(1722448711.938154) can0 055#01 R
(1722448711.938266) can0 05D#01 R
(1722448711.952394) can0 015#01 R
(1722448711.952511) can0 016#18 R
(1722448711.952683) can0 05C#4B9B4A9B R
(1722448711.952813) can0 056#01 R
(1722448711.952920) can0 00E#4B9B R
(1722448711.956382) can0 007#01 R
(1722448711.967724) can0 041#01 R
(1722448711.967913) can0 00E#B49A R
(1722448711.968080) can0 05C#B49AB49A R
(1722448711.968189) can0 016#18 R
(1722448711.968320) can0 00E#B49A R
(1722448711.968491) can0 05C#B49AB49A R
(1722448711.968601) can0 041#01 R
(1722448711.968718) can0 016#18 R
(1722448711.968839) can0 015#01 R
(1722448711.968952) can0 017#01 R
(1722448711.969068) can0 056#01 R
(1722448711.997863) can0 00D#D699 R
(1722448711.997989) can0 05B#D699 R
(1722448711.998106) can0 014#01 R
(1722448711.998221) can0 008#01 R
(1722448711.998338) can0 055#01 R
(1722448711.998455) can0 05D#01 R
(1722448712.021025) can0 007#01 R
(1722448712.028287) can0 00E#4C98 R
(1722448712.028416) can0 00E#4C98 R
(1722448712.028582) can0 05C#4C984C98 R
(1722448712.028696) can0 041#01 R
(1722448712.028821) can0 016#17 R
(1722448712.028926) can0 015#01 R
(1722448712.029044) can0 017#01 R
(1722448712.029161) can0 056#01 R
(1722448712.044316) can0 015#01 R
(1722448712.044418) can0 016#17 R
(1722448712.044531) can0 041#01 R
(1722448712.044696) can0 05C#AA97AA97 R
(1722448712.044830) can0 056#01 R
(1722448712.044943) can0 00E#AA97 R
(1722448712.045110) can0 05C#AA97AA97 R
(1722448712.045217) can0 016#17 R
(1722448712.059636) can0 00D#6497 R
(1722448712.059762) can0 05B#6497 R
(1722448712.059878) can0 014#01 R
(1722448712.059993) can0 008#01 R
(1722448712.060115) can0 055#01 R
(1722448712.060227) can0 05D#01 R
(1722448712.070812) can0 007#01 R
(1722448712.089930) can0 015#01 R
(1722448712.090043) can0 016#17 R
(1722448712.090158) can0 041#01 R
(1722448712.090294) can0 00E#D895 R
(1722448712.090454) can0 05C#D895D895 R
(1722448712.090573) can0 041#01 R
(1722448712.090687) can0 016#17 R
(1722448712.090803) can0 015#01 R
(1722448712.090921) can0 017#01 R
(1722448712.091038) can0 056#01 R
(1722448712.105289) can0 05C#40954095 R
(1722448712.105410) can0 056#01 R
(1722448712.105537) can0 00E#4095 R
(1722448712.105669) can0 00E#4095 R
(1722448712.105839) can0 05C#40954095 R
(1722448712.120882) can0 016#17 R
(1722448712.121016) can0 00D#F994 R
(1722448712.121142) can0 05B#F994 R
(1722448712.121262) can0 014#01 R
(1722448712.121375) can0 007#01 R
(1722448712.121492) can0 008#01 R
(1722448712.121608) can0 055#01 R
(1722448712.121726) can0 05D#01 R
(1722448712.151716) can0 015#01 R
(1722448712.151819) can0 016#17 R
(1722448712.151949) can0 00E#6D93 R
(1722448712.152079) can0 00E#6D93 R
(1722448712.152208) can0 00E#6D93 R
(1722448712.152374) can0 05C#6D936D93 R
(1722448712.152490) can0 041#01 R
(1722448712.152605) can0 016#17 R
(1722448712.152720) can0 015#01 R
(1722448712.152840) can0 017#01 R
(1722448712.152954) can0 056#01 R
(1722448712.166768) can0 041#01 R
(1722448712.166929) can0 05C#D492D492 R
(1722448712.167042) can0 056#01 R
(1722448712.167208) can0 05C#D492D492 R
(1722448712.167318) can0 016#16 R
(1722448712.171281) can0 007#01 R
(1722448712.181606) can0 00D#8D92 R
(1722448712.181737) can0 05B#8D92 R
(1722448712.181854) can0 014#01 R
(1722448712.181968) can0 008#01 R
(1722448712.182084) can0 055#01 R
(1722448712.182203) can0 05D#01 R
(1722448712.212529) can0 015#01 R
(1722448712.212658) can0 00E#FF90 R
(1722448712.212826) can0 00E#FF90 R
(1722448712.212957) can0 05C#FF90FF90 R
(1722448712.213074) can0 041#01 R
(1722448712.213188) can0 016#16 R
(1722448712.213305) can0 015#01 R
(1722448712.213425) can0 017#01 R
(1722448712.213542) can0 056#01 R
(1722448712.221047) can0 007#01 R
(1722448712.227328) can0 016#16 R
(1722448712.227446) can0 041#01 R
(1722448712.227617) can0 05C#66906690 R
(1722448712.227732) can0 056#01 R
(1722448712.227869) can0 00E#6690 R
(1722448712.228037) can0 05C#66906690 R
(1722448712.228148) can0 016#16 R
(1722448712.241925) can0 00D#2990 R
(1722448712.242058) can0 05B#2990 R
(1722448712.242168) can0 014#01 R
(1722448712.242288) can0 008#01 R
(1722448712.242410) can0 055#01 R
(1722448712.242519) can0 05D#01 R
(1722448712.271336) can0 007#01 R
(1722448712.272524) can0 00E#9A8E R
(1722448712.272650) can0 00E#9A8E R
(1722448712.272824) can0 05C#9A8E9A8E R
(1722448712.272931) can0 041#01 R
(1722448712.273042) can0 016#16 R
(1722448712.273159) can0 015#01 R
(1722448712.273283) can0 017#01 R
(1722448712.273393) can0 056#01 R
(1722448712.287701) can0 015#01 R
(1722448712.287811) can0 016#16 R
(1722448712.287930) can0 041#01 R
(1722448712.288103) can0 05C#018E018E R
(1722448712.288216) can0 056#01 R
(1722448712.288345) can0 00E#018E R
(1722448712.288513) can0 05C#018E018E R
(1722448712.288624) can0 016#16 R
(1722448712.303092) can0 00D#B98D R
(1722448712.303222) can0 05B#B98D R
(1722448712.303336) can0 014#01 R
(1722448712.303454) can0 008#01 R
(1722448712.303568) can0 055#01 R
(1722448712.303687) can0 05D#01 R
(1722448712.321615) can0 007#01 R
(1722448712.334031) can0 00E#208C R
(1722448712.334203) can0 05C#208C1F8C R
(1722448712.334317) can0 041#01 R
(1722448712.334434) can0 016#15 R
(1722448712.334551) can0 015#01 R
(1722448712.334669) can0 017#01 R
(1722448712.334785) can0 056#01 R
(1722448712.349184) can0 015#01 R
(1722448712.349299) can0 016#15 R
