(1722448794.840905) can0 00E#492E R
(1722448794.841057) can0 05C#492E492E R
(1722448794.841170) can0 016#07 R
(1722448794.844780) can0 007#00 R
(1722448794.856461) can0 00D#092E R
(1722448794.856702) can0 05B#092E R
(1722448794.856817) can0 014#00 R
(1722448794.856935) can0 008#00 R
(1722448794.857052) can0 055#00 R
(1722448794.857173) can0 05D#00 R
(1722448794.872295) can0 015#00 R
(1722448794.872413) can0 016#07 R
(1722448794.887830) can0 041#00 R
(1722448794.887992) can0 05C#D72CD72C R
(1722448794.888116) can0 056#00 R
(1722448794.888241) can0 00E#D72C R
(1722448794.888371) can0 00E#D72C R
(1722448794.888540) can0 05C#D72CD72C R
(1722448794.888662) can0 041#00 R
(1722448794.888777) can0 016#07 R
(1722448794.888899) can0 015#00 R
(1722448794.889010) can0 017#00 R
(1722448794.889130) can0 056#00 R
(1722448794.893219) can0 007#00 R
(1722448794.906275) can0 00E#4A2C R
(1722448794.906439) can0 05C#4A2C4A2C R
(1722448794.906554) can0 016#06 R
(1722448794.918620) can0 00D#232C R
(1722448794.918750) can0 05B#232C R
(1722448794.918864) can0 014#00 R
(1722448794.918986) can0 008#00 R
(1722448794.919103) can0 055#00 R
(1722448794.919223) can0 05D#00 R
(1722448794.934160) can0 015#00 R
(1722448794.944177) can0 007#00 R
(1722448794.950267) can0 016#06 R
(1722448794.950411) can0 041#00 R
(1722448794.950552) can0 05C#EE2AEE2A R
(1722448794.950670) can0 056#00 R
(1722448794.950805) can0 00E#EE2A R
(1722448794.950965) can0 05C#EE2AEE2A R
(1722448794.951091) can0 041#00 R
(1722448794.951205) can0 016#06 R
(1722448794.951327) can0 015#00 R
(1722448794.951441) can0 017#00 R
(1722448794.951564) can0 056#00 R
(1722448794.966438) can0 00E#732A R
(1722448794.966566) can0 00E#732A R
(1722448794.966730) can0 05C#732A732A R
(1722448794.982588) can0 016#06 R
(1722448794.982704) can0 00D#3D2A R
(1722448794.982838) can0 05B#3D2A R
(1722448794.982950) can0 014#00 R
(1722448794.983070) can0 008#00 R
(1722448794.983187) can0 055#00 R
(1722448794.983308) can0 05D#00 R
(1722448794.996725) can0 007#00 R
(1722448795.013310) can0 015#00 R
(1722448795.013439) can0 016#06 R
(1722448795.013548) can0 041#00 R
(1722448795.013715) can0 05C#0E290E29 R
(1722448795.013832) can0 056#00 R
(1722448795.013973) can0 00E#0E29 R
(1722448795.014108) can0 00E#0E29 R
(1722448795.014267) can0 00E#0E29 R
(1722448795.014412) can0 05C#0E290E29 R
(1722448795.014532) can0 041#00 R
(1722448795.014650) can0 016#06 R
(1722448795.014768) can0 015#00 R
(1722448795.014888) can0 017#00 R
(1722448795.015006) can0 056#00 R
(1722448795.015172) can0 05C#0E290E29 R
(1722448795.015287) can0 016#06 R
(1722448795.043730) can0 015#00 R
(1722448795.043867) can0 00D#6828 R
(1722448795.043975) can0 016#06 R
(1722448795.044097) can0 041#00 R
(1722448795.044229) can0 05B#6828 R
(1722448795.044396) can0 05C#24282428 R
(1722448795.044509) can0 014#00 R
(1722448795.044627) can0 008#00 R
(1722448795.044761) can0 055#00 R
(1722448795.044869) can0 05D#00 R
(1722448795.045676) can0 007#00 R
(1722448795.075233) can0 056#00 R
(1722448795.075366) can0 00E#3D27 R
(1722448795.075491) can0 00E#3D27 R
(1722448795.075662) can0 05C#3D273D27 R
(1722448795.075778) can0 041#00 R
(1722448795.075896) can0 016#06 R
(1722448795.076015) can0 015#00 R
(1722448795.076131) can0 017#00 R
(1722448795.076251) can0 056#00 R
(1722448795.090044) can0 015#00 R
(1722448795.090152) can0 016#06 R
(1722448795.090282) can0 00E#CE26 R
(1722448795.090445) can0 05C#CE26CE26 R
(1722448795.090560) can0 016#06 R
(1722448795.095993) can0 007#00 R
(1722448795.105368) can0 041#00 R
(1722448795.105498) can0 00D#A226 R
(1722448795.105663) can0 05C#60266026 R
(1722448795.105795) can0 05B#A226 R
(1722448795.105909) can0 014#00 R
(1722448795.106032) can0 008#00 R
(1722448795.106147) can0 055#00 R
(1722448795.106270) can0 05D#00 R
(1722448795.119756) can0 056#00 R
(1722448795.119906) can0 00E#F225 R
(1722448795.135424) can0 015#00 R
(1722448795.135559) can0 00E#8425 R
(1722448795.135719) can0 05C#84258425 R
(1722448795.135843) can0 016#05 R
(1722448795.135967) can0 00E#8425 R
(1722448795.136135) can0 05C#84258425 R
(1722448795.136254) can0 041#00 R
(1722448795.136377) can0 016#05 R
(1722448795.136495) can0 015#00 R
(1722448795.136613) can0 017#00 R
(1722448795.136728) can0 056#00 R
(1722448795.136852) can0 016#05 R
(1722448795.136975) can0 041#00 R
(1722448795.137138) can0 05C#84258425 R
(1722448795.146428) can0 007#00 R
(1722448795.167425) can0 00D#DE24 R
(1722448795.167553) can0 05B#DE24 R
(1722448795.167672) can0 014#00 R
(1722448795.167785) can0 008#00 R
(1722448795.167911) can0 055#00 R
(1722448795.168023) can0 05D#00 R
(1722448795.182440) can0 056#00 R
(1722448795.196756) can0 007#00 R
(1722448795.197646) can0 00E#C523 R
(1722448795.197805) can0 05C#C523C523 R
(1722448795.197927) can0 041#00 R
(1722448795.198046) can0 016#05 R
(1722448795.198168) can0 015#00 R
(1722448795.198283) can0 017#00 R
(1722448795.198409) can0 056#00 R
(1722448795.213817) can0 015#00 R
(1722448795.214014) can0 016#05 R
(1722448795.214145) can0 00E#5323 R
(1722448795.214272) can0 00E#5323 R
(1722448795.214436) can0 05C#53235323 R
(1722448795.228759) can0 00D#2223 R
(1722448795.228862) can0 041#00 R
(1722448795.228995) can0 05B#2223 R
(1722448795.229109) can0 014#00 R
(1722448795.229227) can0 008#00 R
(1722448795.229347) can0 055#00 R
(1722448795.229519) can0 05C#E222E222 R
(1722448795.229631) can0 016#05 R
(1722448795.229750) can0 05D#00 R
(1722448795.245752) can0 007#00 R
(1722448795.258951) can0 056#00 R
(1722448795.259083) can0 00E#0F22 R
(1722448795.259217) can0 00E#0F22 R
(1722448795.259351) can0 00E#0F22 R
(1722448795.259526) can0 05C#0F220F22 R
(1722448795.259642) can0 041#00 R
(1722448795.259766) can0 016#05 R
(1722448795.259881) can0 015#00 R
(1722448795.259997) can0 017#00 R
(1722448795.260119) can0 056#00 R
(1722448795.274409) can0 015#00 R
(1722448795.274574) can0 05C#A721A721 R
(1722448795.274691) can0 016#05 R
(1722448795.290368) can0 00D#7621 R
(1722448795.290485) can0 016#05 R
(1722448795.290606) can0 041#00 R
(1722448795.290736) can0 05B#7621 R
(1722448795.290853) can0 014#00 R
(1722448795.290971) can0 008#00 R
(1722448795.291091) can0 055#00 R
(1722448795.291257) can0 05C#38213821 R
(1722448795.291376) can0 05D#00 R
(1722448795.296493) can0 007#00 R
(1722448795.320595) can0 056#00 R
(1722448795.320726) can0 00E#6220 R
(1722448795.320857) can0 00E#6220 R
(1722448795.321031) can0 05C#62206220 R
(1722448795.321147) can0 041#00 R
(1722448795.321270) can0 016#05 R
(1722448795.321385) can0 015#00 R
(1722448795.321501) can0 017#00 R
(1722448795.321621) can0 056#00 R
(1722448795.335952) can0 00E#FC1F R
(1722448795.336141) can0 05C#FC1FFC1F R
(1722448795.336252) can0 016#04 R
(1722448795.336368) can0 015#00 R
(1722448795.336480) can0 016#04 R
(1722448795.336602) can0 041#00 R
(1722448795.336798) can0 05C#FC1FFC1F R
(1722448795.346492) can0 007#00 R
(1722448795.350788) can0 00D#D31F R
(1722448795.350914) can0 05B#D31F R
(1722448795.351034) can0 014#00 R
(1722448795.351166) can0 008#00 R
(1722448795.351290) can0 055#00 R
(1722448795.351403) can0 05D#00 R
(1722448795.382231) can0 056#00 R
(1722448795.382355) can0 00E#C51E R
(1722448795.382486) can0 00E#C51E R
(1722448795.382656) can0 05C#C51EC51E R
(1722448795.382767) can0 041#00 R
(1722448795.382890) can0 016#04 R
(1722448795.383004) can0 015#00 R
(1722448795.383120) can0 017#00 R
(1722448795.383240) can0 056#00 R
(1722448795.396218) can0 007#00 R
(1722448795.398709) can0 015#00 R
(1722448795.398820) can0 016#04 R
(1722448795.398944) can0 041#00 R
(1722448795.399074) can0 00E#5B1E R
(1722448795.399243) can0 05C#5B1E5B1E R
(1722448795.399350) can0 016#04 R
(1722448795.413884) can0 00D#2C1E R
(1722448795.413998) can0 05B#2C1E R
(1722448795.414117) can0 014#00 R
(1722448795.414234) can0 008#00 R
(1722448795.414402) can0 05C#F71DF71D R
(1722448795.414521) can0 055#00 R
(1722448795.414639) can0 05D#00 R
(1722448795.444800) can0 056#00 R
(1722448795.444912) can0 00E#2B1D R
(1722448795.445070) can0 05C#2B1D2B1D R
(1722448795.445190) can0 041#00 R
(1722448795.445309) can0 016#04 R
(1722448795.445429) can0 015#00 R
(1722448795.445547) can0 017#00 R
(1722448795.445664) can0 056#00 R
(1722448795.446551) can0 007#00 R
(1722448795.461343) can0 015#00 R
(1722448795.461457) can0 016#04 R
(1722448795.461589) can0 00E#BC1C R
(1722448795.461722) can0 00E#BC1C R
(1722448795.461893) can0 05C#BC1CBC1C R
(1722448795.475002) can0 041#00 R
(1722448795.475130) can0 00D#9C1C R
(1722448795.475266) can0 05B#9C1C R
(1722448795.475376) can0 014#00 R
(1722448795.475496) can0 008#00 R
(1722448795.475615) can0 055#00 R
(1722448795.475782) can0 05C#611C611C R
(1722448795.475892) can0 016#04 R
(1722448795.476012) can0 05D#00 R
(1722448795.497671) can0 007#00 R
(1722448795.506819) can0 056#00 R
(1722448795.506947) can0 00E#9A1B R
(1722448795.507077) can0 00E#9A1B R
(1722448795.507209) can0 00E#9A1B R
(1722448795.507373) can0 05C#9A1B9A1B R
(1722448795.507492) can0 041#00 R
(1722448795.507610) can0 016#04 R
(1722448795.507730) can0 015#00 R
(1722448795.507846) can0 017#00 R
(1722448795.507966) can0 056#00 R
(1722448795.522297) can0 015#00 R
(1722448795.522404) can0 05C#341B341B R
(1722448795.522531) can0 016#04 R
(1722448795.537714) can0 00D#0E1B R
(1722448795.537813) can0 016#04 R
(1722448795.537928) can0 05B#0E1B R
(1722448795.538006) can0 014#00 R
(1722448795.538141) can0 008#00 R
(1722448795.538261) can0 041#00 R
(1722448795.538380) can0 055#00 R
(1722448795.538544) can0 05C#D51AD51A R
(1722448795.538661) can0 05D#00 R
(1722448795.547322) can0 007#00 R
(1722448795.567174) can0 056#00 R
(1722448795.567302) can0 00E#191A R
(1722448795.567430) can0 00E#191A R
(1722448795.567593) can0 05C#191A191A R
(1722448795.567715) can0 041#00 R
(1722448795.567832) can0 016#04 R
(1722448795.567952) can0 015#00 R
(1722448795.568068) can0 017#00 R
(1722448795.568188) can0 056#00 R
(1722448795.582772) can0 00E#B619 R
(1722448795.582928) can0 05C#B619B619 R
(1722448795.583045) can0 016#04 R
(1722448795.596931) can0 007#00 R
(1722448795.598306) can0 015#00 R
(1722448795.598437) can0 00D#9119 R
(1722448795.598551) can0 016#03 R
(1722448795.598675) can0 041#00 R
(1722448795.598805) can0 05B#9119 R
(1722448795.598922) can0 014#00 R
(1722448795.599044) can0 008#00 R
(1722448795.599160) can0 055#00 R
(1722448795.599319) can0 05C#5A195A19 R
(1722448795.599438) can0 05D#00 R
(1722448795.629744) can0 056#00 R
(1722448795.629851) can0 00E#9C18 R
(1722448795.629991) can0 00E#9C18 R
(1722448795.630153) can0 05C#9C189C18 R
(1722448795.630278) can0 041#00 R
(1722448795.630413) can0 016#03 R
(1722448795.630509) can0 015#00 R
(1722448795.630625) can0 017#00 R
(1722448795.630745) can0 056#00 R
(1722448795.645055) can0 015#00 R
(1722448795.645171) can0 016#03 R
(1722448795.645291) can0 041#00 R
(1722448795.645423) can0 00E#3B18 R
(1722448795.645588) can0 05C#3B183B18 R
(1722448795.645701) can0 016#03 R
(1722448795.647402) can0 007#00 R
(1722448795.660811) can0 00D#1118 R
(1722448795.660877) can0 05B#1118 R
(1722448795.661023) can0 014#00 R
(1722448795.661134) can0 008#00 R
(1722448795.661257) can0 055#00 R
(1722448795.661430) can0 05C#DB17DB17 R
(1722448795.661540) can0 05D#00 R
(1722448795.690654) can0 056#00 R
(1722448795.690783) can0 00E#2917 R
(1722448795.690948) can0 05C#29172917 R
(1722448795.691068) can0 041#00 R
(1722448795.691184) can0 016#03 R
(1722448795.691304) can0 015#00 R
(1722448795.691422) can0 017#00 R
(1722448795.691540) can0 056#00 R
(1722448795.701881) can0 007#00 R
(1722448795.706416) can0 015#00 R
(1722448795.706523) can0 016#03 R
(1722448795.706662) can0 00E#D116 R
(1722448795.706786) can0 00E#D116 R
(1722448795.706949) can0 05C#D116D116 R
(1722448795.722670) can0 041#00 R
(1722448795.722799) can0 00D#A816 R
(1722448795.722935) can0 05B#A816 R
(1722448795.723046) can0 014#00 R
(1722448795.723214) can0 05C#73167316 R
(1722448795.723328) can0 008#00 R
(1722448795.723445) can0 016#03 R
(1722448795.723564) can0 055#00 R
(1722448795.723683) can0 05D#00 R
(1722448795.737682) can0 056#00 R
(1722448795.752030) can0 007#00 R
(1722448795.752923) can0 00E#C015 R
(1722448795.753054) can0 00E#C015 R
(1722448795.753199) can0 00E#C015 R
(1722448795.753356) can0 05C#C015C015 R
(1722448795.753471) can0 041#00 R
(1722448795.753589) can0 016#03 R
(1722448795.753708) can0 015#00 R
(1722448795.753825) can0 017#00 R
(1722448795.753944) can0 056#00 R
(1722448795.767777) can0 015#00 R
(1722448795.767930) can0 05C#6A156A15 R
(1722448795.768046) can0 016#03 R
(1722448795.783479) can0 016#03 R
(1722448795.783600) can0 041#00 R
(1722448795.783732) can0 00D#4815 R
(1722448795.783866) can0 05B#4815 R
(1722448795.783977) can0 014#00 R
(1722448795.784098) can0 008#00 R
(1722448795.784217) can0 055#00 R
(1722448795.784383) can0 05C#15151515 R
(1722448795.784499) can0 05D#00 R
(1722448795.802555) can0 007#00 R
(1722448795.813913) can0 056#00 R
(1722448795.814037) can0 00E#6714 R
(1722448795.814170) can0 00E#6714 R
(1722448795.814335) can0 05C#67146714 R
(1722448795.814485) can0 041#00 R
(1722448795.814596) can0 016#03 R
(1722448795.814719) can0 015#00 R
(1722448795.814833) can0 017#00 R
(1722448795.814954) can0 056#00 R
(1722448795.829561) can0 00E#1314 R
(1722448795.829730) can0 05C#13141314 R
(1722448795.829841) can0 016#03 R
(1722448795.844516) can0 00D#ED13 R
(1722448795.844622) can0 015#00 R
(1722448795.844766) can0 016#03 R
(1722448795.844864) can0 041#00 R
(1722448795.844997) can0 05B#ED13 R
(1722448795.845109) can0 014#00 R
(1722448795.845279) can0 05C#C113C113 R
(1722448795.845395) can0 008#00 R
(1722448795.845517) can0 055#00 R
(1722448795.845636) can0 05D#00 R
(1722448795.852784) can0 007#00 R
(1722448795.875157) can0 056#00 R
(1722448795.875281) can0 00E#1813 R
(1722448795.875417) can0 00E#1813 R
(1722448795.875591) can0 05C#18131813 R
(1722448795.875711) can0 041#00 R
(1722448795.875824) can0 016#02 R
(1722448795.875945) can0 015#00 R
(1722448795.876060) can0 017#00 R
(1722448795.876180) can0 056#00 R
(1722448795.890158) can0 00E#C712 R
(1722448795.890319) can0 05C#C712C712 R
(1722448795.890427) can0 016#02 R
(1722448795.906364) can0 00D#A112 R
(1722448795.906482) can0 015#00 R
(1722448795.906597) can0 016#02 R
(1722448795.906721) can0 041#00 R
(1722448795.906852) can0 05B#A112 R
(1722448795.906968) can0 014#00 R
(1722448795.907086) can0 008#00 R
(1722448795.907206) can0 055#00 R
(1722448795.907324) can0 05D#00 R
(1722448795.909647) can0 007#00 R
(1722448795.921447) can0 05C#22122212 R
(1722448795.936667) can0 056#00 R
(1722448795.936816) can0 00E#CE11 R
(1722448795.936966) can0 05C#CE11CE11 R
(1722448795.937080) can0 041#00 R
(1722448795.937199) can0 016#02 R
(1722448795.937317) can0 015#00 R
(1722448795.937435) can0 017#00 R
(1722448795.937553) can0 056#00 R
(1722448795.952462) can0 00E#7F11 R
(1722448795.952585) can0 00E#7F11 R
(1722448795.952760) can0 05C#7F117F11 R
(1722448795.959374) can0 007#00 R
(1722448795.967521) can0 00D#5B11 R
(1722448795.967640) can0 015#00 R
(1722448795.967755) can0 016#02 R
(1722448795.967872) can0 016#02 R
(1722448795.968002) can0 05B#5B11 R
(1722448795.968118) can0 014#00 R
(1722448795.968235) can0 008#00 R
(1722448795.968356) can0 055#00 R
(1722448795.968474) can0 05D#00 R
(1722448795.982633) can0 041#00 R
(1722448795.982846) can0 05C#E010E010 R
(1722448795.997858) can0 056#00 R
(1722448795.997987) can0 00E#9310 R
(1722448795.998116) can0 00E#9310 R
(1722448795.998268) can0 00E#9310 R
(1722448795.998412) can0 05C#93109310 R
(1722448795.998531) can0 041#00 R
(1722448795.998649) can0 016#02 R
(1722448795.998767) can0 015#00 R
(1722448795.998884) can0 017#00 R
(1722448795.999004) can0 056#00 R
(1722448795.999177) can0 05C#93109310 R
(1722448795.999287) can0 016#02 R
(1722448796.009659) can0 007#00 R
(1722448796.012998) can0 015#00 R
(1722448796.027750) can0 00D#2A10 R
(1722448796.027868) can0 016#02 R
(1722448796.027984) can0 041#00 R
(1722448796.028120) can0 05B#2A10 R
(1722448796.028234) can0 014#00 R
(1722448796.028352) can0 008#00 R
(1722448796.028472) can0 055#00 R
(1722448796.028646) can0 05C#FD0FFD0F R
(1722448796.028781) can0 05D#00 R
(1722448796.058316) can0 056#00 R
(1722448796.058444) can0 00E#680F R
(1722448796.058571) can0 00E#680F R
(1722448796.058741) can0 05C#680F680F R
(1722448796.058857) can0 041#00 R
(1722448796.058974) can0 016#02 R
(1722448796.059094) can0 015#00 R
(1722448796.059209) can0 017#00 R
(1722448796.059330) can0 056#00 R
(1722448796.060204) can0 007#00 R
(1722448796.073281) can0 00E#1F0F R
(1722448796.073455) can0 05C#1F0F1F0F R
(1722448796.073568) can0 016#02 R
(1722448796.088583) can0 00D#020F R
(1722448796.088719) can0 05B#020F R
(1722448796.088819) can0 014#00 R
(1722448796.088953) can0 008#00 R
(1722448796.089070) can0 015#00 R
(1722448796.089187) can0 016#02 R
(1722448796.089308) can0 041#00 R
(1722448796.089431) can0 055#00 R
(1722448796.089593) can0 05C#D70ED70E R
(1722448796.089710) can0 05D#00 R
(1722448796.110046) can0 007#00 R
(1722448796.119222) can0 056#00 R
(1722448796.119353) can0 00E#430E R
(1722448796.119496) can0 00E#430E R
(1722448796.119644) can0 05C#430E430E R
(1722448796.119769) can0 041#00 R
(1722448796.119884) can0 016#02 R
(1722448796.120005) can0 015#00 R
(1722448796.120122) can0 017#00 R
(1722448796.120242) can0 056#00 R
(1722448796.135283) can0 00E#F80D R
(1722448796.135453) can0 05C#F80DF80D R
(1722448796.135565) can0 016#02 R
(1722448796.150190) can0 00D#DC0D R
(1722448796.150323) can0 015#00 R
(1722448796.150423) can0 016#02 R
(1722448796.150547) can0 041#00 R
(1722448796.150678) can0 05B#DC0D R
(1722448796.150796) can0 014#00 R
(1722448796.150918) can0 008#00 R
(1722448796.151032) can0 055#00 R
(1722448796.151156) can0 05D#00 R
(1722448796.160450) can0 007#00 R
(1722448796.165540) can0 05C#6D0D6D0D R
(1722448796.165656) can0 056#00 R
(1722448796.180493) can0 00E#280D R
(1722448796.180662) can0 05C#280D280D R
(1722448796.180806) can0 041#00 R
(1722448796.180901) can0 016#02 R
(1722448796.181018) can0 015#00 R
(1722448796.181135) can0 017#00 R
(1722448796.181253) can0 056#00 R
(1722448796.196309) can0 00E#E00C R
(1722448796.196437) can0 00E#E00C R
(1722448796.196607) can0 05C#E00CE00C R
(1722448796.210239) can0 007#00 R
(1722448796.212432) can0 00D#C00C R
(1722448796.212551) can0 015#00 R
(1722448796.212666) can0 016#01 R
(1722448796.212800) can0 016#01 R
(1722448796.212917) can0 05B#C00C R
(1722448796.213033) can0 014#00 R
(1722448796.213151) can0 008#00 R
(1722448796.213270) can0 055#00 R
(1722448796.213389) can0 05D#00 R
(1722448796.227324) can0 041#00 R
(1722448796.227491) can0 05C#560C560C R
(1722448796.242534) can0 056#00 R
(1722448796.242664) can0 00E#140C R
(1722448796.242798) can0 00E#140C R
(1722448796.242929) can0 00E#140C R
(1722448796.243100) can0 05C#140C140C R
(1722448796.243220) can0 041#00 R
(1722448796.243336) can0 016#01 R
(1722448796.243456) can0 015#00 R
(1722448796.243572) can0 017#00 R
(1722448796.243693) can0 056#00 R
(1722448796.258066) can0 05C#CE0BCE0B R
(1722448796.258179) can0 016#01 R
(1722448796.260100) can0 007#00 R
(1722448796.273149) can0 00D#B50B R
(1722448796.273252) can0 015#00 R
(1722448796.273389) can0 05B#B50B R
(1722448796.273504) can0 014#00 R
(1722448796.273622) can0 008#00 R
(1722448796.273743) can0 055#00 R
(1722448796.273859) can0 05D#00 R
(1722448796.288950) can0 016#01 R
(1722448796.289068) can0 041#00 R
(1722448796.289238) can0 05C#4A0B4A0B R
(1722448796.304332) can0 056#00 R
(1722448796.304469) can0 00E#0B0B R
(1722448796.304601) can0 00E#0B0B R
(1722448796.304799) can0 05C#0B0B0B0B R
(1722448796.304869) can0 041#00 R
(1722448796.305007) can0 016#01 R
(1722448796.305125) can0 015#00 R
(1722448796.305242) can0 017#00 R
(1722448796.305366) can0 056#00 R
(1722448796.309467) can0 007#00 R
(1722448796.319817) can0 00E#C80A R
(1722448796.319984) can0 05C#C80AC80A R
(1722448796.320096) can0 016#01 R
(1722448796.335270) can0 00D#B00A R
(1722448796.335397) can0 05B#B00A R
(1722448796.335518) can0 014#00 R
(1722448796.335630) can0 008#00 R
(1722448796.335751) can0 055#00 R
(1722448796.335868) can0 05D#00 R
(1722448796.351297) can0 015#00 R
(1722448796.351406) can0 016#01 R
(1722448796.351534) can0 041#00 R
(1722448796.351701) can0 05C#4A0A4A0A R
(1722448796.359615) can0 007#00 R
(1722448796.367117) can0 056#00 R
(1722448796.367243) can0 00E#090A R
(1722448796.367377) can0 00E#090A R
(1722448796.367543) can0 05C#090A090A R
(1722448796.367668) can0 041#00 R
(1722448796.367778) can0 016#01 R
(1722448796.367903) can0 015#00 R
(1722448796.368014) can0 017#00 R
(1722448796.368139) can0 056#00 R
(1722448796.383125) can0 00E#CA09 R
(1722448796.383280) can0 05C#CA09CA09 R
(1722448796.383394) can0 016#01 R
(1722448796.397891) can0 00D#B209 R
(1722448796.398015) can0 05B#B209 R
(1722448796.398131) can0 014#00 R
(1722448796.398248) can0 008#00 R
(1722448796.398368) can0 055#00 R
(1722448796.398493) can0 05D#00 R
(1722448796.411038) can0 007#00 R
(1722448796.412893) can0 015#00 R
(1722448796.413005) can0 016#01 R
(1722448796.413132) can0 041#00 R
(1722448796.428153) can0 05C#1B091B09 R
(1722448796.428266) can0 056#00 R
(1722448796.428403) can0 00E#1B09 R
(1722448796.428563) can0 05C#1B091B09 R
(1722448796.428681) can0 041#00 R
(1722448796.428811) can0 016#01 R
(1722448796.428921) can0 015#00 R
(1722448796.429035) can0 017#00 R
(1722448796.429160) can0 056#00 R
(1722448796.443602) can0 00E#E208 R
(1722448796.443735) can0 00E#E208 R
(1722448796.443902) can0 05C#E208E208 R
(1722448796.459344) can0 00D#C808 R
(1722448796.459457) can0 016#01 R
(1722448796.459591) can0 05B#C808 R
(1722448796.459706) can0 014#00 R
(1722448796.459823) can0 008#00 R
(1722448796.459946) can0 055#00 R
(1722448796.460064) can0 05D#00 R
(1722448796.461548) can0 007#00 R
(1722448796.474875) can0 015#00 R
(1722448796.474993) can0 016#01 R
(1722448796.475109) can0 056#00 R
(1722448796.489977) can0 041#00 R
(1722448796.490140) can0 05C#38083808 R
(1722448796.490266) can0 00E#3808 R
(1722448796.490406) can0 00E#3808 R
(1722448796.490535) can0 00E#3808 R
(1722448796.490705) can0 05C#38083808 R
(1722448796.490825) can0 041#00 R
(1722448796.490940) can0 016#01 R
(1722448796.491060) can0 015#00 R
(1722448796.491176) can0 017#00 R
(1722448796.491297) can0 056#00 R
(1722448796.505438) can0 05C#FE07FE07 R
(1722448796.505554) can0 016#01 R
(1722448796.511209) can0 007#00 R
(1722448796.520361) can0 00D#E507 R
(1722448796.520494) can0 05B#E507 R
(1722448796.520610) can0 014#00 R
(1722448796.520727) can0 008#00 R
(1722448796.520854) can0 055#00 R
(1722448796.520964) can0 05D#00 R
(1722448796.536415) can0 015#00 R
(1722448796.551481) can0 016#01 R
(1722448796.551597) can0 041#00 R
(1722448796.551772) can0 05C#5D075D07 R
(1722448796.551886) can0 056#00 R
(1722448796.552022) can0 00E#5D07 R
(1722448796.552155) can0 00E#5D07 R
(1722448796.552324) can0 05C#5D075D07 R
(1722448796.552445) can0 041#00 R
(1722448796.552559) can0 016#01 R
(1722448796.552682) can0 015#00 R
(1722448796.552813) can0 017#00 R
(1722448796.552916) can0 056#00 R
(1722448796.566375) can0 00E#2A07 R
(1722448796.566543) can0 05C#2A072A07 R
(1722448796.566655) can0 016#01 R
(1722448796.568221) can0 007#00 R
(1722448796.582610) can0 00D#0E07 R
(1722448796.582743) can0 05B#0E07 R
(1722448796.582858) can0 014#00 R
(1722448796.582976) can0 008#00 R
(1722448796.583097) can0 055#00 R
(1722448796.583216) can0 05D#00 R
(1722448796.613615) can0 015#00 R
(1722448796.613728) can0 016#01 R
(1722448796.613851) can0 041#00 R
(1722448796.614025) can0 05C#8A068A06 R
(1722448796.614135) can0 056#00 R
(1722448796.614268) can0 00E#8A06 R
(1722448796.614414) can0 00E#8A06 R
(1722448796.614574) can0 05C#8A068A06 R
(1722448796.614690) can0 041#00 R
(1722448796.614806) can0 016#01 R
(1722448796.614926) can0 015#00 R
(1722448796.615043) can0 017#00 R
(1722448796.615162) can0 056#00 R
(1722448796.617971) can0 007#00 R
(1722448796.629287) can0 00E#5A06 R
(1722448796.629452) can0 05C#5A065A06 R
(1722448796.629568) can0 016#00 R
(1722448796.644900) can0 00D#4306 R
(1722448796.645035) can0 05B#4306 R
(1722448796.645144) can0 014#00 R
(1722448796.645268) can0 008#00 R
(1722448796.645383) can0 055#00 R
(1722448796.645500) can0 05D#00 R
(1722448796.668305) can0 007#00 R
(1722448796.676552) can0 015#00 R
(1722448796.676670) can0 016#00 R
(1722448796.676811) can0 041#00 R
(1722448796.676911) can0 056#00 R
(1722448796.677043) can0 00E#C705 R
(1722448796.677214) can0 05C#C705C705 R
(1722448796.677332) can0 041#00 R
(1722448796.677447) can0 016#00 R
(1722448796.677569) can0 015#00 R
(1722448796.677684) can0 017#00 R
(1722448796.677805) can0 056#00 R
(1722448796.691316) can0 05C#99059905 R
(1722448796.691446) can0 00E#9905 R
(1722448796.691579) can0 00E#9905 R
(1722448796.691746) can0 05C#99059905 R
(1722448796.706194) can0 00D#8705 R
(1722448796.706318) can0 05B#8705 R
(1722448796.706435) can0 014#00 R
(1722448796.706551) can0 008#00 R
(1722448796.706671) can0 016#00 R
(1722448796.706794) can0 055#00 R
(1722448796.706907) can0 05D#00 R
(1722448796.718809) can0 007#00 R
(1722448796.735414) can0 056#00 R
(1722448796.735541) can0 00E#1805 R
(1722448796.735675) can0 00E#1805 R
(1722448796.735812) can0 00E#1805 R
(1722448796.735979) can0 05C#18051805 R
(1722448796.736098) can0 041#00 R
(1722448796.736213) can0 016#00 R
(1722448796.736335) can0 015#00 R
(1722448796.736449) can0 017#00 R
(1722448796.736571) can0 056#00 R
(1722448796.751322) can0 015#00 R
(1722448796.751493) can0 05C#EA04EA04 R
(1722448796.751989) can0 016#00 R
(1722448796.765919) can0 00D#D904 R
(1722448796.766055) can0 05B#D904 R
(1722448796.766173) can0 014#00 R
(1722448796.766288) can0 008#00 R
(1722448796.766410) can0 016#00 R
(1722448796.766526) can0 041#00 R
(1722448796.766646) can0 055#00 R
(1722448796.766818) can0 05C#C304C304 R
(1722448796.766929) can0 05D#00 R
(1722448796.769246) can0 007#00 R
(1722448796.780555) can0 056#00 R
(1722448796.795946) can0 00E#6E04 R
(1722448796.796079) can0 00E#6E04 R
(1722448796.796247) can0 05C#6E046E04 R
(1722448796.796365) can0 041#00 R
(1722448796.796482) can0 016#00 R
(1722448796.796601) can0 015#00 R
(1722448796.796718) can0 017#00 R
(1722448796.796839) can0 056#00 R
(1722448796.811048) can0 00E#4604 R
(1722448796.811201) can0 05C#46044604 R
(1722448796.811316) can0 016#00 R
(1722448796.817379) can0 007#00 R
(1722448796.825946) can0 00D#3604 R
(1722448796.826063) can0 015#00 R
(1722448796.826180) can0 016#00 R
(1722448796.826302) can0 041#00 R
(1722448796.826439) can0 05B#3604 R
(1722448796.826553) can0 014#00 R
(1722448796.826672) can0 008#00 R
(1722448796.826794) can0 055#00 R
(1722448796.826969) can0 05C#1F041F04 R
(1722448796.827083) can0 05D#00 R
(1722448796.855785) can0 056#00 R
(1722448796.855918) can0 00E#D203 R
(1722448796.856052) can0 00E#D203 R
(1722448796.856220) can0 05C#D203D203 R
(1722448796.856337) can0 041#00 R
(1722448796.856454) can0 016#00 R
(1722448796.856583) can0 015#00 R
(1722448796.856692) can0 017#00 R
(1722448796.856824) can0 056#00 R
(1722448796.871084) can0 00E#AD03 R
(1722448796.871252) can0 05C#AD03AD03 R
(1722448796.871363) can0 016#00 R
(1722448796.886618) can0 015#00 R
(1722448796.886746) can0 00D#9C03 R
(1722448796.886860) can0 016#00 R
(1722448796.886982) can0 041#00 R
(1722448796.887121) can0 05B#9C03 R
(1722448796.887230) can0 014#00 R
(1722448796.887350) can0 008#00 R
(1722448796.887470) can0 055#00 R
(1722448796.887589) can0 05D#00 R
(1722448796.888180) can0 007#00 R
(1722448796.901743) can0 05C#63036303 R
(1722448796.917299) can0 056#00 R
(1722448796.917417) can0 00E#4003 R
(1722448796.917587) can0 05C#40034003 R
(1722448796.917710) can0 041#00 R
(1722448796.917826) can0 016#00 R
(1722448796.917945) can0 015#00 R
(1722448796.918062) can0 017#00 R
(1722448796.918182) can0 056#00 R
(1722448796.932546) can0 00E#1E03 R
(1722448796.932672) can0 00E#1E03 R
(1722448796.932850) can0 05C#1E031E03 R
(1722448796.936720) can0 007#00 R
(1722448796.947842) can0 00D#0E03 R
(1722448796.947959) can0 015#00 R
(1722448796.948077) can0 016#00 R
(1722448796.948191) can0 016#00 R
(1722448796.948329) can0 05B#0E03 R
(1722448796.948443) can0 014#00 R
(1722448796.948562) can0 008#00 R
(1722448796.948682) can0 055#00 R
(1722448796.948808) can0 05D#00 R
(1722448796.962937) can0 041#00 R
(1722448796.963104) can0 05C#D902D902 R
(1722448796.978035) can0 056#00 R
(1722448796.978474) can0 00E#B902 R
(1722448796.978605) can0 00E#B902 R
(1722448796.978743) can0 00E#B902 R
(1722448796.978902) can0 05C#B902B902 R
(1722448796.979028) can0 041#00 R
(1722448796.979138) can0 016#00 R
(1722448796.979266) can0 015#00 R
(1722448796.979376) can0 017#00 R
(1722448796.979497) can0 056#00 R
(1722448796.986856) can0 007#00 R
(1722448796.994050) can0 05C#98029802 R
(1722448796.994166) can0 016#00 R
(1722448797.009353) can0 00D#8B02 R
(1722448797.009469) can0 015#00 R
(1722448797.009605) can0 05B#8B02 R
(1722448797.009718) can0 014#00 R
(1722448797.009839) can0 008#00 R
(1722448797.009958) can0 055#00 R
(1722448797.010076) can0 05D#00 R
(1722448797.024024) can0 016#00 R
(1722448797.024132) can0 041#00 R
(1722448797.024297) can0 05C#5B025B02 R
(1722448797.037145) can0 007#00 R
(1722448797.039782) can0 056#00 R
(1722448797.039921) can0 00E#3E02 R
(1722448797.040055) can0 00E#3E02 R
(1722448797.040227) can0 05C#3E023E02 R
(1722448797.040346) can0 041#00 R
(1722448797.040462) can0 016#00 R
(1722448797.040582) can0 015#00 R
(1722448797.040697) can0 017#00 R
(1722448797.040823) can0 056#00 R
(1722448797.055033) can0 00E#2202 R
(1722448797.055196) can0 05C#22022202 R
(1722448797.055307) can0 016#00 R
(1722448797.070459) can0 00D#1302 R
(1722448797.070592) can0 05B#1302 R
(1722448797.070709) can0 014#00 R
(1722448797.070825) can0 008#00 R
(1722448797.070946) can0 055#00 R
(1722448797.071063) can0 05D#00 R
(1722448797.086624) can0 015#00 R
(1722448797.086743) can0 016#00 R
(1722448797.086918) can0 041#00 R
(1722448797.087083) can0 05C#E701E701 R
(1722448797.087201) can0 056#00 R
(1722448797.087461) can0 007#00 R
(1722448797.101973) can0 00E#CC01 R
(1722448797.102112) can0 00E#CC01 R
(1722448797.102271) can0 05C#CC01CC01 R
(1722448797.102403) can0 041#00 R
(1722448797.102512) can0 016#00 R
(1722448797.102632) can0 015#00 R
(1722448797.102748) can0 017#00 R
(1722448797.102868) can0 056#00 R
(1722448797.117757) can0 00E#B201 R
(1722448797.117925) can0 05C#B201B201 R
(1722448797.118035) can0 016#00 R
(1722448797.133515) can0 00D#A701 R
(1722448797.133619) can0 015#00 R
(1722448797.133737) can0 016#00 R
(1722448797.133858) can0 041#00 R
(1722448797.133993) can0 05B#A701 R
(1722448797.134108) can0 014#00 R
(1722448797.134226) can0 008#00 R
(1722448797.134346) can0 055#00 R
(1722448797.134465) can0 05D#00 R
(1722448797.137625) can0 007#00 R
(1722448797.150065) can0 05C#80018001 R
(1722448797.150184) can0 056#00 R
(1722448797.163376) can0 00E#6901 R
(1722448797.163507) can0 00E#6901 R
(1722448797.163676) can0 05C#69016901 R
(1722448797.163807) can0 00E#6901 R
(1722448797.163975) can0 05C#69016901 R
(1722448797.164094) can0 041#00 R
(1722448797.164210) can0 016#00 R
(1722448797.164330) can0 015#00 R
(1722448797.164446) can0 017#00 R
(1722448797.164566) can0 056#00 R
(1722448797.179493) can0 015#00 R
(1722448797.179600) can0 016#00 R
(1722448797.179718) can0 016#00 R
(1722448797.186801) can0 007#00 R
(1722448797.195421) can0 041#00 R
(1722448797.195552) can0 00D#4601 R
(1722448797.195687) can0 05B#4601 R
(1722448797.195797) can0 014#00 R
(1722448797.195917) can0 008#00 R
(1722448797.196036) can0 055#00 R
(1722448797.196205) can0 05C#3A013A01 R
(1722448797.196320) can0 05D#00 R
(1722448797.225837) can0 056#00 R
(1722448797.225973) can0 00E#0F01 R
(1722448797.226115) can0 00E#0F01 R
(1722448797.226248) can0 00E#0F01 R
(1722448797.226426) can0 05C#0F010F01 R
(1722448797.226542) can0 041#00 R
(1722448797.226658) can0 016#00 R
(1722448797.226778) can0 015#00 R
(1722448797.226894) can0 017#00 R
(1722448797.227014) can0 056#00 R
(1722448797.239112) can0 007#00 R
(1722448797.241314) can0 015#00 R
(1722448797.241493) can0 05C#FC00FC00 R
(1722448797.241601) can0 016#00 R
(1722448797.256908) can0 00D#F300 R
(1722448797.257041) can0 05B#F300 R
(1722448797.257155) can0 014#00 R
(1722448797.257274) can0 008#00 R
(1722448797.257389) can0 016#00 R
(1722448797.257512) can0 041#00 R
(1722448797.257631) can0 055#00 R
(1722448797.257806) can0 05C#E800E800 R
(1722448797.257921) can0 05D#00 R
(1722448797.288128) can0 056#00 R
(1722448797.288239) can0 007#00 R
(1722448797.288373) can0 00E#C300 R
(1722448797.288507) can0 00E#C300 R
(1722448797.288674) can0 05C#C300C300 R
(1722448797.288810) can0 041#00 R
(1722448797.288915) can0 016#00 R
(1722448797.289030) can0 015#00 R
(1722448797.289152) can0 017#00 R
(1722448797.289266) can0 056#00 R
(1722448797.303064) can0 00E#B300 R
(1722448797.303230) can0 05C#B300B300 R
(1722448797.303342) can0 016#00 R
(1722448797.318353) can0 015#00 R
(1722448797.318487) can0 00D#AC00 R
(1722448797.318603) can0 016#00 R
(1722448797.318723) can0 041#00 R
(1722448797.318862) can0 05B#AC00 R
(1722448797.318974) can0 014#00 R
(1722448797.319094) can0 008#00 R
(1722448797.319214) can0 055#00 R
(1722448797.319383) can0 05C#A300A300 R
(1722448797.319497) can0 05D#00 R
(1722448797.337559) can0 007#00 R
(1722448797.348636) can0 056#00 R
(1722448797.348801) can0 00E#8500 R
(1722448797.348908) can0 00E#8500 R
(1722448797.349082) can0 05C#85008500 R
(1722448797.349200) can0 041#00 R
(1722448797.349315) can0 016#00 R
(1722448797.349436) can0 015#00 R
(1722448797.349552) can0 017#00 R
(1722448797.349672) can0 056#00 R
(1722448797.364984) can0 015#00 R
(1722448797.365098) can0 016#00 R
(1722448797.365214) can0 041#00 R
(1722448797.365347) can0 00E#7700 R
(1722448797.365522) can0 05C#76007600 R
(1722448797.365633) can0 016#00 R
(1722448797.380596) can0 05C#69006900 R
(1722448797.380724) can0 00D#7100 R
(1722448797.380866) can0 05B#7100 R
(1722448797.380976) can0 014#00 R
(1722448797.381095) can0 008#00 R
(1722448797.381212) can0 055#00 R
(1722448797.381331) can0 05D#00 R
(1722448797.387891) can0 007#00 R
(1722448797.412513) can0 056#00 R
(1722448797.412652) can0 00E#5100 R
(1722448797.412812) can0 05C#51005100 R
(1722448797.412933) can0 041#00 R
(1722448797.413050) can0 016#00 R
(1722448797.413171) can0 015#00 R
(1722448797.413287) can0 017#00 R
(1722448797.413412) can0 056#00 R
(1722448797.428076) can0 015#00 R
(1722448797.428189) can0 016#00 R
(1722448797.428324) can0 00E#4500 R
(1722448797.428456) can0 00E#4500 R
(1722448797.428627) can0 05C#45004500 R
(1722448797.441554) can0 007#00 R
(1722448797.442807) can0 00D#4100 R
(1722448797.442927) can0 041#00 R
(1722448797.443068) can0 05B#4100 R
(1722448797.443176) can0 014#00 R
(1722448797.443297) can0 008#00 R
(1722448797.443419) can0 055#00 R
(1722448797.443588) can0 05C#3C003C00 R
(1722448797.443701) can0 016#00 R
(1722448797.443822) can0 05D#00 R
(1722448797.458206) can0 056#00 R
(1722448797.473347) can0 00E#2A00 R
(1722448797.473482) can0 00E#2A00 R
(1722448797.473623) can0 00E#2A00 R
(1722448797.473786) can0 05C#2A002A00 R
(1722448797.473905) can0 041#00 R
(1722448797.474022) can0 016#00 R
(1722448797.474142) can0 015#00 R
(1722448797.474260) can0 017#00 R
(1722448797.474378) can0 056#00 R
(1722448797.487701) can0 015#00 R
(1722448797.487871) can0 05C#23002300 R
(1722448797.487986) can0 016#00 R
(1722448797.490970) can0 007#00 R
(1722448797.503583) can0 00D#2000 R
(1722448797.503720) can0 05B#2000 R
(1722448797.503834) can0 014#00 R
(1722448797.503951) can0 008#00 R
(1722448797.504072) can0 055#00 R
(1722448797.504193) can0 05D#00 R
(1722448797.504308) can0 016#00 R
(1722448797.504431) can0 041#00 R
(1722448797.504604) can0 05C#1C001C00 R
(1722448797.534071) can0 056#00 R
(1722448797.534205) can0 00E#1000 R
(1722448797.534342) can0 00E#1000 R
(1722448797.534518) can0 05C#10001000 R
(1722448797.534637) can0 041#00 R
(1722448797.534754) can0 016#00 R
(1722448797.534874) can0 015#00 R
(1722448797.534990) can0 017#00 R
(1722448797.535110) can0 056#00 R
(1722448797.549082) can0 00E#0C00 R
(1722448797.549245) can0 05C#0C000C00 R
(1722448797.549355) can0 016#00 R
(1722448797.557020) can0 007#00 R
(1722448797.564894) can0 015#00 R
(1722448797.565032) can0 00D#0A00 R
(1722448797.565142) can0 016#00 R
(1722448797.565271) can0 041#00 R
(1722448797.565403) can0 05B#0A00 R
(1722448797.565519) can0 014#00 R
(1722448797.565632) can0 008#00 R
(1722448797.565753) can0 055#00 R
(1722448797.565929) can0 05C#08000800 R
(1722448797.566045) can0 05D#00 R
(1722448797.580205) can0 056#00 R
(1722448797.580338) can0 00E#0500 R
(1722448797.595515) can0 00E#0200 R
(1722448797.595690) can0 05C#02000200 R
(1722448797.595804) can0 016#00 R
(1722448797.595942) can0 00E#0200 R
(1722448797.596119) can0 05C#02000200 R
(1722448797.596239) can0 041#00 R
(1722448797.596354) can0 016#00 R
(1722448797.596474) can0 015#00 R
(1722448797.596591) can0 017#00 R
(1722448797.596710) can0 056#00 R
(1722448797.605901) can0 007#00 R
(1722448797.611036) can0 015#00 R
(1722448797.611154) can0 016#00 R
(1722448797.611271) can0 041#00 R
(1722448797.611451) can0 05C#01000100 R
(1722448797.626448) can0 00D#0000 R
(1722448797.626582) can0 05B#0000 R
(1722448797.626696) can0 014#00 R
(1722448797.626814) can0 008#00 R
(1722448797.626935) can0 055#00 R
(1722448797.627053) can0 05D#00 R
(1722448797.656339) can0 007#00 R
(1722448797.657357) can0 056#00 R
(1722448797.657497) can0 00E#0000 R
(1722448797.657670) can0 05C#00000000 R
(1722448797.657795) can0 041#00 R
(1722448797.657905) can0 016#00 R
(1722448797.658031) can0 015#00 R
(1722448797.658141) can0 017#00 R
(1722448797.658270) can0 056#00 R
(1722448797.672608) can0 015#00 R
(1722448797.672722) can0 016#00 R
(1722448797.672844) can0 041#00 R
(1722448797.673019) can0 05C#02000200 R
(1722448797.673162) can0 00E#0200 R
(1722448797.673292) can0 00E#0200 R
(1722448797.673468) can0 05C#02000200 R
(1722448797.688784) can0 00D#0200 R
(1722448797.688851) can0 016#00 R
(1722448797.689008) can0 05B#0200 R
(1722448797.689121) can0 014#00 R
(1722448797.689244) can0 008#00 R
(1722448797.689362) can0 055#00 R
(1722448797.689481) can0 05D#00 R
(1722448797.705996) can0 007#00 R
(1722448797.718483) can0 056#00 R
(1722448797.718675) can0 00E#0A00 R
(1722448797.718807) can0 00E#0A00 R
(1722448797.718942) can0 00E#0A00 R
(1722448797.719114) can0 05C#0A000A00 R
(1722448797.719234) can0 041#00 R
(1722448797.719350) can0 016#00 R
(1722448797.719470) can0 015#00 R
(1722448797.719588) can0 017#00 R
(1722448797.719709) can0 056#00 R
(1722448797.734963) can0 015#00 R
(1722448797.735073) can0 016#00 R
(1722448797.735198) can0 041#00 R
(1722448797.735372) can0 05C#0F000F00 R
(1722448797.735542) can0 05C#0F000F00 R
(1722448797.735654) can0 016#00 R
(1722448797.750125) can0 00D#1100 R
(1722448797.750258) can0 05B#1100 R
(1722448797.750372) can0 014#00 R
(1722448797.750494) can0 008#00 R
(1722448797.750611) can0 055#00 R
(1722448797.750729) can0 05D#00 R
(1722448797.755794) can0 007#00 R
(1722448797.780789) can0 056#00 R
(1722448797.780856) can0 00E#2100 R
(1722448797.781019) can0 00E#2100 R
(1722448797.781186) can0 05C#21002100 R
(1722448797.781307) can0 041#00 R
(1722448797.781422) can0 016#00 R
(1722448797.781543) can0 015#00 R
(1722448797.781658) can0 017#00 R
(1722448797.781779) can0 056#00 R
(1722448797.796533) can0 015#00 R
(1722448797.796646) can0 016#00 R
(1722448797.796790) can0 041#00 R
(1722448797.796949) can0 05C#29002900 R
(1722448797.797071) can0 00E#2900 R
(1722448797.797242) can0 05C#29002900 R
(1722448797.797355) can0 016#00 R
(1722448797.807250) can0 007#00 R
(1722448797.812030) can0 00D#2D00 R
(1722448797.812175) can0 05B#2D00 R
(1722448797.812278) can0 014#00 R
(1722448797.812402) can0 008#00 R
(1722448797.812517) can0 055#00 R
(1722448797.812640) can0 05D#00 R
(1722448797.842531) can0 056#00 R
(1722448797.842659) can0 00E#4400 R
(1722448797.842807) can0 00E#4400 R
(1722448797.842973) can0 05C#44004400 R
(1722448797.843086) can0 041#00 R
(1722448797.843204) can0 016#00 R
(1722448797.843324) can0 015#00 R
(1722448797.843441) can0 017#00 R
(1722448797.843562) can0 056#00 R
(1722448797.857754) can0 015#00 R
(1722448797.857865) can0 016#00 R
(1722448797.857992) can0 041#00 R
(1722448797.858124) can0 00E#4F00 R
(1722448797.858290) can0 05C#4F004F00 R
(1722448797.858402) can0 016#00 R
(1722448797.873283) can0 00D#5300 R
(1722448797.873422) can0 05B#5300 R
(1722448797.873529) can0 014#00 R
(1722448797.873649) can0 007#00 R
(1722448797.873767) can0 008#00 R
(1722448797.873887) can0 055#00 R
(1722448797.874061) can0 05C#5A005A00 R
(1722448797.874178) can0 05D#00 R
(1722448797.888624) can0 056#00 R
(1722448797.903532) can0 00E#7400 R
(1722448797.903703) can0 05C#74007400 R
(1722448797.903823) can0 041#00 R
(1722448797.903937) can0 016#00 R
(1722448797.904059) can0 015#00 R
(1722448797.904174) can0 017#00 R
(1722448797.904297) can0 056#00 R
(1722448797.918999) can0 015#00 R
(1722448797.919113) can0 016#00 R
(1722448797.919250) can0 00E#8100 R
(1722448797.919388) can0 00E#8100 R
(1722448797.919554) can0 05C#81008100 R
(1722448797.922711) can0 007#00 R
(1722448797.934263) can0 00D#8600 R
(1722448797.934331) can0 041#00 R
(1722448797.934493) can0 05B#8600 R
(1722448797.934606) can0 014#00 R
(1722448797.934726) can0 008#00 R
(1722448797.934845) can0 055#00 R
(1722448797.935018) can0 05C#8F008F00 R
(1722448797.935125) can0 016#00 R
(1722448797.935245) can0 05D#00 R
(1722448797.964894) can0 056#00 R
(1722448797.965016) can0 00E#AE00 R
(1722448797.965159) can0 00E#AE00 R
(1722448797.965281) can0 00E#AE00 R
(1722448797.965451) can0 05C#AE00AE00 R
(1722448797.965572) can0 041#00 R
(1722448797.965685) can0 016#00 R
(1722448797.965808) can0 015#00 R
(1722448797.965924) can0 017#00 R
(1722448797.966046) can0 056#00 R
(1722448797.966169) can0 015#00 R
(1722448797.966336) can0 05C#AE00AE00 R
(1722448797.966448) can0 016#00 R
(1722448797.973476) can0 007#00 R
(1722448797.979672) can0 016#00 R
(1722448797.979790) can0 041#00 R
(1722448797.979964) can0 05C#BF00BF00 R
(1722448797.995283) can0 00D#C500 R
(1722448797.995407) can0 05B#C500 R
(1722448797.995520) can0 014#00 R
(1722448797.995632) can0 008#00 R
(1722448797.995753) can0 055#00 R
(1722448797.995871) can0 05D#00 R
(1722448798.010580) can0 056#00 R
(1722448798.024339) can0 007#00 R
(1722448798.026291) can0 00E#F500 R
(1722448798.026419) can0 00E#F500 R
(1722448798.026586) can0 05C#F500F500 R
(1722448798.026707) can0 041#00 R
(1722448798.026822) can0 016#00 R
(1722448798.026943) can0 015#00 R
(1722448798.027058) can0 017#00 R
(1722448798.027179) can0 056#00 R
(1722448798.041693) can0 00E#0A01 R
(1722448798.041864) can0 05C#0A010A01 R
(1722448798.041974) can0 016#00 R
(1722448798.058219) can0 00D#1301 R
(1722448798.058350) can0 05B#1301 R
(1722448798.058467) can0 014#00 R
(1722448798.058583) can0 008#00 R
(1722448798.058704) can0 015#00 R
(1722448798.058819) can0 016#00 R
(1722448798.058943) can0 041#00 R
(1722448798.059061) can0 055#00 R
(1722448798.059183) can0 05D#00 R
(1722448798.073242) can0 05C#34013401 R
(1722448798.074093) can0 007#00 R
(1722448798.087759) can0 056#00 R
(1722448798.087896) can0 00E#4901 R
(1722448798.088025) can0 00E#4901 R
(1722448798.088192) can0 05C#49014901 R
(1722448798.088313) can0 041#00 R
(1722448798.088428) can0 016#00 R
(1722448798.088548) can0 015#00 R
(1722448798.088670) can0 017#00 R
(1722448798.088818) can0 056#00 R
(1722448798.103830) can0 00E#5F01 R
(1722448798.103992) can0 05C#5F015F01 R
(1722448798.104100) can0 016#00 R
(1722448798.118842) can0 015#00 R
(1722448798.118997) can0 00D#6A01 R
(1722448798.119340) can0 016#00 R
(1722448798.119476) can0 05B#6A01 R
(1722448798.119586) can0 014#00 R
(1722448798.119707) can0 008#00 R
(1722448798.119826) can0 055#00 R
(1722448798.119944) can0 05D#00 R
(1722448798.123990) can0 007#00 R
(1722448798.133762) can0 041#00 R
(1722448798.133932) can0 05C#90019001 R
(1722448798.149502) can0 056#00 R
(1722448798.149637) can0 00E#A801 R
(1722448798.149808) can0 05C#A801A801 R
(1722448798.149928) can0 041#00 R
(1722448798.150046) can0 016#00 R
(1722448798.150163) can0 015#00 R
(1722448798.150306) can0 017#00 R
(1722448798.150401) can0 056#00 R
(1722448798.164624) can0 00E#C101 R
(1722448798.164780) can0 00E#C101 R
(1722448798.164925) can0 05C#C101C101 R
(1722448798.174499) can0 007#00 R
(1722448798.179872) can0 00D#CD01 R
(1722448798.179993) can0 015#00 R
(1722448798.180106) can0 016#00 R
(1722448798.180243) can0 05B#CD01 R
(1722448798.180353) can0 014#00 R
(1722448798.180472) can0 008#00 R
(1722448798.180592) can0 055#00 R
(1722448798.180711) can0 05D#00 R
(1722448798.195259) can0 016#00 R
(1722448798.195380) can0 041#00 R
(1722448798.195550) can0 05C#F701F701 R
(1722448798.195667) can0 056#00 R
(1722448798.195800) can0 00E#F701 R
(1722448798.195934) can0 00E#F701 R
(1722448798.211102) can0 05C#15021502 R
(1722448798.211204) can0 016#00 R
(1722448798.211342) can0 00E#1502 R
(1722448798.211521) can0 05C#15021502 R
(1722448798.211634) can0 041#00 R
(1722448798.211746) can0 016#00 R
(1722448798.211867) can0 015#00 R
(1722448798.211982) can0 017#00 R
(1722448798.212103) can0 056#00 R
(1722448798.224396) can0 007#00 R
(1722448798.241542) can0 00D#3E02 R
(1722448798.241656) can0 015#00 R
(1722448798.241774) can0 016#00 R
(1722448798.241896) can0 041#00 R
(1722448798.242032) can0 05B#3E02 R
(1722448798.242145) can0 014#00 R
(1722448798.242265) can0 008#00 R
(1722448798.242385) can0 055#00 R
(1722448798.242554) can0 05C#4F024F02 R
(1722448798.242672) can0 05D#00 R
(1722448798.271669) can0 056#00 R
(1722448798.271800) can0 00E#8B02 R
(1722448798.271934) can0 00E#8B02 R
(1722448798.272102) can0 05C#8B028B02 R
(1722448798.272222) can0 041#00 R
(1722448798.272337) can0 016#00 R
(1722448798.272458) can0 015#00 R
(1722448798.272573) can0 017#00 R
(1722448798.272694) can0 056#00 R
(1722448798.274412) can0 007#00 R
(1722448798.287176) can0 00E#AA02 R
(1722448798.287344) can0 05C#AA02AA02 R
(1722448798.287455) can0 016#00 R
(1722448798.303210) can0 00D#B902 R
(1722448798.303344) can0 05B#B902 R
(1722448798.303459) can0 014#00 R
(1722448798.303576) can0 008#00 R
(1722448798.303696) can0 015#00 R
(1722448798.303812) can0 016#00 R
(1722448798.303934) can0 041#00 R
(1722448798.304054) can0 055#00 R
(1722448798.304172) can0 05D#00 R
(1722448798.318395) can0 05C#ED02ED02 R
(1722448798.324815) can0 007#00 R
(1722448798.333082) can0 056#00 R
(1722448798.333237) can0 00E#0E03 R
(1722448798.333373) can0 00E#0E03 R
(1722448798.333543) can0 05C#0E030E03 R
(1722448798.333668) can0 041#00 R
(1722448798.333778) can0 016#00 R
(1722448798.333904) can0 015#00 R
(1722448798.334014) can0 017#00 R
(1722448798.334140) can0 056#00 R
(1722448798.349118) can0 00E#3003 R
(1722448798.349288) can0 05C#30033003 R
(1722448798.349399) can0 016#00 R
(1722448798.363672) can0 00D#4003 R
(1722448798.363787) can0 015#00 R
(1722448798.363908) can0 016#00 R
(1722448798.364036) can0 05B#4003 R
(1722448798.364157) can0 014#00 R
(1722448798.364273) can0 008#00 R
(1722448798.364396) can0 055#00 R
(1722448798.364510) can0 05D#00 R
(1722448798.374991) can0 007#00 R
(1722448798.379207) can0 041#00 R
(1722448798.379374) can0 05C#78037803 R
(1722448798.393773) can0 056#00 R
(1722448798.393910) can0 00E#9C03 R
(1722448798.394072) can0 05C#9C039C03 R
(1722448798.394192) can0 041#00 R
(1722448798.394309) can0 016#00 R
(1722448798.394428) can0 015#00 R
(1722448798.394547) can0 017#00 R
(1722448798.394670) can0 056#00 R
(1722448798.394799) can0 00E#9C03 R
(1722448798.394933) can0 00E#9C03 R
(1722448798.395101) can0 05C#9C039C03 R
(1722448798.409171) can0 015#00 R
(1722448798.409279) can0 016#00 R
(1722448798.424130) can0 016#00 R
(1722448798.424264) can0 00D#D003 R
(1722448798.424372) can0 041#00 R
(1722448798.424518) can0 05B#D003 R
(1722448798.424626) can0 014#00 R
(1722448798.424765) can0 008#00 R
(1722448798.424861) can0 007#00 R
(1722448798.424981) can0 055#00 R
(1722448798.425149) can0 05C#E603E603 R
(1722448798.425271) can0 05D#00 R
(1722448798.455826) can0 056#00 R
(1722448798.455953) can0 00E#3604 R
(1722448798.456086) can0 00E#3604 R
(1722448798.456218) can0 00E#3604 R
(1722448798.456387) can0 05C#36043604 R
(1722448798.456507) can0 041#00 R
(1722448798.456622) can0 016#00 R
(1722448798.456761) can0 015#00 R
(1722448798.456857) can0 017#00 R
(1722448798.456981) can0 056#00 R
(1722448798.471095) can0 05C#60046004 R
(1722448798.471207) can0 016#00 R
(1722448798.474707) can0 007#00 R
(1722448798.486453) can0 015#00 R
(1722448798.486566) can0 016#00 R
(1722448798.486701) can0 00D#7004 R
(1722448798.486823) can0 041#00 R
(1722448798.486957) can0 05B#7004 R
(1722448798.487069) can0 014#00 R
(1722448798.487243) can0 05C#89048904 R
(1722448798.487353) can0 008#00 R
(1722448798.487475) can0 055#00 R
(1722448798.487592) can0 05D#00 R
(1722448798.517429) can0 056#00 R
(1722448798.517560) can0 00E#E104 R
(1722448798.517697) can0 00E#E104 R
(1722448798.517861) can0 05C#E104E104 R
(1722448798.517980) can0 041#00 R
(1722448798.518096) can0 016#00 R
(1722448798.518216) can0 015#00 R
(1722448798.518333) can0 017#00 R
(1722448798.518452) can0 056#00 R
(1722448798.533473) can0 00E#0C05 R
(1722448798.533630) can0 05C#0C050C05 R
(1722448798.533741) can0 016#00 R
(1722448798.541483) can0 007#00 R
(1722448798.548724) can0 015#00 R
(1722448798.548856) can0 00D#2005 R
(1722448798.548973) can0 016#00 R
(1722448798.549095) can0 041#00 R
(1722448798.549233) can0 05B#2005 R
(1722448798.549346) can0 014#00 R
(1722448798.549465) can0 008#00 R
(1722448798.549585) can0 055#00 R
(1722448798.549702) can0 05D#00 R
(1722448798.563516) can0 05C#66056605 R
(1722448798.563633) can0 056#00 R
(1722448798.579420) can0 00E#9305 R
(1722448798.579549) can0 00E#9305 R
(1722448798.579716) can0 05C#93059305 R
(1722448798.579837) can0 041#00 R
(1722448798.579952) can0 016#00 R
(1722448798.580073) can0 015#00 R
(1722448798.580188) can0 017#00 R
(1722448798.580309) can0 056#00 R
(1722448798.580441) can0 00E#9305 R
(1722448798.580609) can0 05C#93059305 R
(1722448798.580721) can0 016#00 R
(1722448798.590998) can0 007#00 R
(1722448798.594611) can0 015#00 R
(1722448798.594725) can0 016#00 R
(1722448798.609761) can0 00D#D605 R
(1722448798.609881) can0 041#00 R
(1722448798.610013) can0 05B#D605 R
(1722448798.610129) can0 014#00 R
(1722448798.610246) can0 008#00 R
(1722448798.610367) can0 055#00 R
(1722448798.610537) can0 05C#F105F105 R
(1722448798.610652) can0 05D#00 R
(1722448798.641389) can0 007#00 R
(1722448798.641574) can0 056#00 R
(1722448798.641705) can0 00E#5306 R
(1722448798.641872) can0 05C#53065306 R
(1722448798.641993) can0 041#00 R
(1722448798.642107) can0 016#00 R
(1722448798.642229) can0 015#00 R
(1722448798.642350) can0 017#00 R
(1722448798.642464) can0 056#00 R
(1722448798.657225) can0 015#00 R
(1722448798.657356) can0 00E#8706 R
(1722448798.657494) can0 00E#8706 R
(1722448798.657660) can0 05C#87068706 R
(1722448798.673298) can0 016#01 R
(1722448798.673419) can0 041#00 R
(1722448798.673552) can0 00D#9D06 R
(1722448798.673686) can0 05B#9D06 R
(1722448798.673799) can0 014#00 R
(1722448798.673920) can0 008#00 R
(1722448798.674044) can0 055#00 R
(1722448798.674211) can0 05C#BB06BB06 R
(1722448798.674321) can0 016#01 R
(1722448798.674441) can0 05D#00 R
(1722448798.689301) can0 056#00 R
(1722448798.691743) can0 007#00 R
(1722448798.704517) can0 00E#2607 R
(1722448798.704653) can0 00E#2607 R
(1722448798.704802) can0 00E#2607 R
(1722448798.704953) can0 05C#26072607 R
(1722448798.705069) can0 041#00 R
(1722448798.705184) can0 016#01 R
(1722448798.705306) can0 015#00 R
(1722448798.705421) can0 017#00 R
(1722448798.705541) can0 056#00 R
(1722448798.720586) can0 05C#59075907 R
(1722448798.720699) can0 016#01 R
(1722448798.735430) can0 00D#6E07 R
(1722448798.735563) can0 05B#6E07 R
(1722448798.735677) can0 014#00 R
(1722448798.735798) can0 008#00 R
(1722448798.735919) can0 055#00 R
(1722448798.736654) can0 015#00 R
(1722448798.736789) can0 016#01 R
(1722448798.736895) can0 041#00 R
(1722448798.737064) can0 05C#8D078D07 R
(1722448798.737179) can0 05D#00 R
(1722448798.741173) can0 007#00 R
(1722448798.765827) can0 056#00 R
(1722448798.765962) can0 00E#FB07 R
(1722448798.766111) can0 00E#FB07 R
(1722448798.766295) can0 05C#FB07FB07 R
(1722448798.766400) can0 041#00 R
(1722448798.766507) can0 016#01 R
(1722448798.766629) can0 015#00 R
(1722448798.766744) can0 017#00 R
(1722448798.766865) can0 056#00 R
(1722448798.781413) can0 00E#3108 R
(1722448798.781582) can0 05C#31083108 R
(1722448798.781689) can0 016#01 R
(1722448798.794439) can0 007#00 R
(1722448798.796118) can0 00D#4608 R
(1722448798.796234) can0 015#00 R
(1722448798.796351) can0 016#01 R
(1722448798.796485) can0 05B#4608 R
(1722448798.796600) can0 014#00 R
(1722448798.796719) can0 008#00 R
(1722448798.796839) can0 041#00 R
(1722448798.796960) can0 055#00 R
(1722448798.797079) can0 05D#00 R
(1722448798.812188) can0 05C#A208A208 R
(1722448798.827536) can0 056#00 R
(1722448798.827668) can0 00E#DA08 R
(1722448798.827801) can0 00E#DA08 R
(1722448798.827966) can0 05C#DA08DA08 R
(1722448798.828085) can0 041#00 R
(1722448798.828203) can0 016#01 R
(1722448798.828322) can0 015#00 R
(1722448798.828438) can0 017#00 R
(1722448798.828559) can0 056#00 R
(1722448798.842510) can0 00E#1309 R
(1722448798.842673) can0 05C#13091309 R
(1722448798.842777) can0 016#01 R
(1722448798.857998) can0 00D#2E09 R
(1722448798.858130) can0 05B#2E09 R
(1722448798.858243) can0 014#00 R
(1722448798.858362) can0 007#00 R
(1722448798.858478) can0 008#00 R
(1722448798.858600) can0 055#00 R
(1722448798.858716) can0 05D#00 R
(1722448798.859105) can0 015#00 R
(1722448798.859218) can0 016#01 R
(1722448798.859340) can0 041#00 R
(1722448798.859511) can0 05C#51095109 R
(1722448798.887792) can0 056#00 R
(1722448798.887923) can0 00E#C609 R
(1722448798.888090) can0 05C#C609C609 R
(1722448798.888207) can0 041#00 R
(1722448798.888326) can0 016#01 R
(1722448798.888443) can0 015#00 R
(1722448798.888563) can0 017#00 R
(1722448798.888682) can0 056#00 R
(1722448798.903243) can0 015#00 R
(1722448798.903372) can0 00E#010A R
(1722448798.903504) can0 00E#010A R
(1722448798.903675) can0 05C#010A010A R
(1722448798.908166) can0 007#00 R
(1722448798.919423) can0 016#01 R
(1722448798.919550) can0 00D#210A R
(1722448798.919674) can0 041#00 R
(1722448798.919802) can0 05B#210A R
(1722448798.919920) can0 014#00 R
(1722448798.920043) can0 008#00 R
(1722448798.920157) can0 055#00 R
(1722448798.920333) can0 05C#410A410A R
(1722448798.920439) can0 016#01 R
(1722448798.920559) can0 05D#00 R
(1722448798.951211) can0 056#00 R
(1722448798.951323) can0 00E#C40A R
(1722448798.951460) can0 00E#C40A R
(1722448798.951590) can0 00E#C40A R
(1722448798.951761) can0 05C#C40AC40A R
(1722448798.951877) can0 041#00 R
(1722448798.951997) can0 016#01 R
(1722448798.952116) can0 015#00 R
(1722448798.952233) can0 017#00 R
(1722448798.952355) can0 056#00 R
(1722448798.958605) can0 007#00 R
(1722448798.967731) can0 05C#070B070B R
(1722448798.967844) can0 016#01 R
(1722448798.983168) can0 00D#240B R
(1722448798.983283) can0 015#00 R
(1722448798.983402) can0 016#01 R
(1722448798.983522) can0 041#00 R
(1722448798.983656) can0 05B#240B R
(1722448798.983769) can0 014#00 R
(1722448798.983889) can0 008#00 R
(1722448798.984009) can0 055#00 R
(1722448798.984181) can0 05C#4A0B4A0B R
(1722448798.984295) can0 05D#00 R
(1722448799.009020) can0 007#00 R
(1722448799.013829) can0 056#00 R
(1722448799.013961) can0 00E#CA0B R
(1722448799.014092) can0 00E#CA0B R
(1722448799.014268) can0 05C#CA0BCA0B R
(1722448799.014394) can0 041#00 R
(1722448799.014495) can0 016#01 R
(1722448799.014619) can0 015#00 R
(1722448799.014732) can0 017#00 R
(1722448799.014852) can0 056#00 R
(1722448799.028785) can0 00E#0F0C R
(1722448799.028924) can0 05C#0F0C0F0C R
(1722448799.029040) can0 016#01 R
(1722448799.044539) can0 00D#2A0C R
(1722448799.044673) can0 05B#2A0C R
(1722448799.044815) can0 014#00 R
(1722448799.044891) can0 008#00 R
(1722448799.045026) can0 015#00 R
(1722448799.045139) can0 016#01 R
(1722448799.045263) can0 041#00 R
(1722448799.045382) can0 055#00 R
(1722448799.045501) can0 05D#00 R
(1722448799.058907) can0 007#00 R
(1722448799.060831) can0 05C#980C980C R
(1722448799.076160) can0 056#00 R
(1722448799.076288) can0 00E#E00C R
(1722448799.076426) can0 00E#E00C R
(1722448799.076593) can0 05C#E00CE00C R
(1722448799.076711) can0 041#00 R
(1722448799.076834) can0 016#02 R
(1722448799.076947) can0 015#00 R
(1722448799.077063) can0 017#00 R
(1722448799.077183) can0 056#00 R
(1722448799.091035) can0 00E#230D R
(1722448799.091193) can0 05C#230D230D R
(1722448799.091309) can0 016#02 R
(1722448799.106660) can0 00D#3F0D R
(1722448799.106775) can0 015#00 R
(1722448799.106893) can0 016#02 R
(1722448799.107024) can0 05B#3F0D R
(1722448799.107140) can0 014#00 R
(1722448799.107258) can0 008#00 R
(1722448799.107379) can0 055#00 R
(1722448799.107496) can0 05D#00 R
(1722448799.110244) can0 007#00 R
(1722448799.121672) can0 041#00 R
(1722448799.121843) can0 05C#B20DB20D R
(1722448799.121959) can0 056#00 R
(1722448799.137415) can0 00E#F70D R
(1722448799.137581) can0 05C#F70DF70D R
(1722448799.137700) can0 041#00 R
(1722448799.137817) can0 016#02 R
(1722448799.137937) can0 015#00 R
(1722448799.138052) can0 017#00 R
(1722448799.138172) can0 056#00 R
(1722448799.151751) can0 00E#390E R
(1722448799.151877) can0 00E#390E R
(1722448799.152038) can0 05C#390E390E R
(1722448799.159346) can0 007#00 R
(1722448799.166999) can0 00D#5A0E R
(1722448799.167115) can0 015#00 R
(1722448799.167232) can0 016#02 R
(1722448799.167347) can0 016#02 R
(1722448799.167471) can0 041#00 R
(1722448799.167602) can0 05B#5A0E R
(1722448799.167719) can0 014#00 R
(1722448799.167836) can0 008#00 R
(1722448799.167957) can0 055#00 R
(1722448799.168121) can0 05C#850E850E R
(1722448799.168241) can0 05D#00 R
(1722448799.198291) can0 056#00 R
(1722448799.198422) can0 00E#1A0F R
(1722448799.198556) can0 00E#1A0F R
(1722448799.198692) can0 00E#1A0F R
(1722448799.198864) can0 05C#1A0F1A0F R
(1722448799.198985) can0 041#00 R
(1722448799.199099) can0 016#02 R
(1722448799.199221) can0 015#00 R
(1722448799.199336) can0 017#00 R
(1722448799.199457) can0 056#00 R
(1722448799.213699) can0 05C#680F680F R
(1722448799.213814) can0 016#02 R
(1722448799.221077) can0 007#00 R
(1722448799.229274) can0 00D#850F R
(1722448799.229391) can0 015#00 R
(1722448799.229509) can0 016#02 R
(1722448799.229630) can0 041#00 R
(1722448799.229763) can0 05B#850F R
(1722448799.229878) can0 014#00 R
(1722448799.229996) can0 008#00 R
(1722448799.230116) can0 055#00 R
(1722448799.230318) can0 05C#B20FB20F R
(1722448799.230384) can0 05D#00 R
(1722448799.244390) can0 056#00 R
(1722448799.259435) can0 00E#4710 R
(1722448799.259548) can0 00E#4710 R
(1722448799.259716) can0 05C#47104710 R
(1722448799.259840) can0 041#00 R
(1722448799.259956) can0 016#02 R
(1722448799.260078) can0 015#00 R
(1722448799.260192) can0 017#00 R
(1722448799.260312) can0 056#00 R
(1722448799.270786) can0 007#00 R
(1722448799.274834) can0 00E#9810 R
(1722448799.275001) can0 05C#98109810 R
(1722448799.275116) can0 016#02 R
(1722448799.275235) can0 015#00 R
(1722448799.275352) can0 016#02 R
(1722448799.275473) can0 041#00 R
(1722448799.290399) can0 00D#B610 R
(1722448799.290530) can0 05B#B610 R
(1722448799.290644) can0 014#00 R
(1722448799.290814) can0 05C#E410E410 R
(1722448799.290947) can0 008#00 R
(1722448799.291066) can0 055#00 R
(1722448799.291183) can0 05D#00 R
(1722448799.321327) can0 056#00 R
(1722448799.321440) can0 007#00 R
(1722448799.321571) can0 00E#8411 R
(1722448799.321704) can0 00E#8411 R
(1722448799.321873) can0 05C#84118411 R
(1722448799.321992) can0 041#00 R
(1722448799.322108) can0 016#02 R
(1722448799.322228) can0 015#00 R
(1722448799.322345) can0 017#00 R
(1722448799.322465) can0 056#00 R
(1722448799.322585) can0 015#00 R
(1722448799.322700) can0 016#02 R
(1722448799.322834) can0 00E#8411 R
(1722448799.323004) can0 05C#84118411 R
(1722448799.323118) can0 016#02 R
(1722448799.337554) can0 041#00 R
(1722448799.337721) can0 05C#D811D811 R
(1722448799.352678) can0 00D#F711 R
(1722448799.352897) can0 05B#F711 R
(1722448799.353014) can0 014#00 R
(1722448799.353127) can0 008#00 R
(1722448799.353248) can0 055#00 R
(1722448799.353365) can0 05D#00 R
(1722448799.368312) can0 056#00 R
(1722448799.370453) can0 007#00 R
(1722448799.383801) can0 00E#D112 R
(1722448799.383938) can0 00E#D112 R
(1722448799.384098) can0 05C#D112D112 R
(1722448799.384230) can0 00E#D112 R
(1722448799.384392) can0 05C#D112D112 R
(1722448799.384514) can0 041#00 R
(1722448799.384629) can0 016#02 R
(1722448799.384754) can0 015#00 R
(1722448799.384864) can0 017#00 R
(1722448799.384988) can0 056#00 R
(1722448799.399555) can0 015#00 R
(1722448799.399672) can0 016#02 R
(1722448799.399795) can0 041#00 R
(1722448799.399911) can0 016#02 R
(1722448799.400071) can0 05C#22132213 R
(1722448799.414299) can0 00D#4813 R
(1722448799.414433) can0 05B#4813 R
(1722448799.414547) can0 014#00 R
(1722448799.414666) can0 008#00 R
(1722448799.414786) can0 055#00 R
(1722448799.414905) can0 05D#00 R
(1722448799.421414) can0 007#00 R
(1722448799.445205) can0 056#00 R
(1722448799.445396) can0 00E#1E14 R
(1722448799.445521) can0 00E#1E14 R
(1722448799.445663) can0 00E#1E14 R
(1722448799.445831) can0 05C#1E141E14 R
(1722448799.445951) can0 041#00 R
(1722448799.446068) can0 016#03 R
(1722448799.446187) can0 015#00 R
(1722448799.446304) can0 017#00 R
(1722448799.446426) can0 056#00 R
(1722448799.460526) can0 015#00 R
(1722448799.460677) can0 05C#71147114 R
(1722448799.460811) can0 016#03 R
(1722448799.471060) can0 007#00 R
(1722448799.475853) can0 016#03 R
(1722448799.475984) can0 00D#9914 R
(1722448799.476127) can0 05B#9914 R
(1722448799.476230) can0 014#00 R
(1722448799.476348) can0 008#00 R
(1722448799.476472) can0 041#00 R
(1722448799.476590) can0 055#00 R
(1722448799.476780) can0 05C#CB14CB14 R
(1722448799.476881) can0 05D#00 R
(1722448799.491883) can0 056#00 R
(1722448799.492019) can0 00E#2015 R
(1722448799.506418) can0 00E#7515 R
(1722448799.506578) can0 05C#75157515 R
(1722448799.506691) can0 016#03 R
(1722448799.506823) can0 00E#7515 R
(1722448799.506988) can0 05C#75157515 R
(1722448799.507109) can0 041#00 R
(1722448799.507224) can0 016#03 R
(1722448799.507345) can0 015#00 R
(1722448799.507460) can0 017#00 R
(1722448799.507581) can0 056#00 R
(1722448799.521733) can0 015#00 R
(1722448799.521848) can0 016#03 R
(1722448799.521970) can0 041#00 R
(1722448799.522136) can0 05C#D115D115 R
(1722448799.535513) can0 007#00 R
(1722448799.536690) can0 00D#F315 R
(1722448799.536825) can0 05B#F315 R
(1722448799.536932) can0 014#00 R
(1722448799.537051) can0 008#00 R
(1722448799.537170) can0 055#00 R
(1722448799.537289) can0 05D#00 R
(1722448799.552249) can0 056#00 R
(1722448799.552400) can0 00E#7E16 R
(1722448799.567343) can0 015#00 R
(1722448799.567431) can0 016#03 R
(1722448799.567577) can0 00E#D616 R
(1722448799.567742) can0 05C#D616D616 R
(1722448799.567854) can0 016#03 R
(1722448799.567986) can0 00E#D616 R
(1722448799.568151) can0 05C#D616D616 R
(1722448799.568271) can0 041#00 R
(1722448799.568389) can0 016#03 R
(1722448799.568508) can0 015#00 R
(1722448799.568627) can0 017#00 R
(1722448799.568757) can0 056#00 R
(1722448799.582625) can0 041#00 R
(1722448799.582794) can0 05C#34173417 R
(1722448799.584786) can0 007#00 R
(1722448799.598017) can0 00D#5817 R
(1722448799.598150) can0 05B#5817 R
(1722448799.598264) can0 014#00 R
(1722448799.598390) can0 008#00 R
(1722448799.598503) can0 055#00 R
(1722448799.598620) can0 05D#00 R
(1722448799.613641) can0 056#00 R
(1722448799.629208) can0 00E#4718 R
(1722448799.629422) can0 00E#4718 R
(1722448799.629581) can0 05C#47184718 R
(1722448799.629709) can0 00E#4718 R
(1722448799.629875) can0 05C#47184718 R
(1722448799.629994) can0 041#00 R
(1722448799.630111) can0 016#03 R
(1722448799.630232) can0 015#00 R
(1722448799.630348) can0 017#00 R
(1722448799.630468) can0 056#00 R
(1722448799.634545) can0 007#00 R
(1722448799.643683) can0 015#00 R
(1722448799.643798) can0 016#03 R
(1722448799.643921) can0 041#00 R
(1722448799.644037) can0 016#03 R
(1722448799.644203) can0 05C#A218A218 R
(1722448799.659137) can0 00D#C618 R
(1722448799.659511) can0 05B#C618 R
(1722448799.659625) can0 014#00 R
(1722448799.659742) can0 008#00 R
(1722448799.659863) can0 055#00 R
(1722448799.659983) can0 05D#00 R
(1722448799.684847) can0 007#00 R
(1722448799.689493) can0 056#00 R
(1722448799.689626) can0 00E#B619 R
(1722448799.689768) can0 00E#B619 R
(1722448799.689891) can0 00E#B619 R
(1722448799.690055) can0 05C#B619B619 R
(1722448799.690176) can0 041#00 R
(1722448799.690290) can0 016#04 R
(1722448799.690411) can0 015#00 R
(1722448799.690526) can0 017#00 R
(1722448799.690648) can0 056#00 R
(1722448799.705355) can0 05C#191A191A R
(1722448799.705468) can0 016#04 R
(1722448799.720472) can0 015#00 R
(1722448799.720587) can0 016#04 R
(1722448799.720721) can0 00D#3E1A R
(1722448799.720842) can0 041#00 R
(1722448799.720979) can0 05B#3E1A R
(1722448799.721095) can0 014#00 R
(1722448799.721212) can0 008#00 R
(1722448799.721334) can0 055#00 R
(1722448799.721500) can0 05C#771A771A R
(1722448799.721615) can0 05D#00 R
(1722448799.734834) can0 007#00 R
(1722448799.751748) can0 056#00 R
(1722448799.751946) can0 00E#3A1B R
(1722448799.752078) can0 00E#3A1B R
(1722448799.752240) can0 05C#3A1B3A1B R
(1722448799.752364) can0 041#00 R
(1722448799.752478) can0 016#04 R
(1722448799.752599) can0 015#00 R
(1722448799.752713) can0 017#00 R
(1722448799.752834) can0 056#00 R
(1722448799.752968) can0 00E#3A1B R
(1722448799.753128) can0 05C#3A1B3A1B R
(1722448799.753244) can0 016#04 R
(1722448799.768301) can0 015#00 R
(1722448799.768419) can0 016#04 R
(1722448799.768537) can0 041#00 R
(1722448799.783028) can0 05C#071C071C R
(1722448799.783157) can0 00D#CD1B R
(1722448799.783288) can0 05B#CD1B R
(1722448799.783402) can0 014#00 R
(1722448799.783521) can0 008#00 R
(1722448799.783641) can0 055#00 R
(1722448799.783760) can0 05D#00 R
(1722448799.784890) can0 007#00 R
(1722448799.798485) can0 056#00 R
(1722448799.798968) can0 00E#6E1C R
(1722448799.812492) can0 015#00 R
(1722448799.812617) can0 00E#C21C R
(1722448799.812788) can0 05C#C21CC21C R
(1722448799.812892) can0 016#04 R
(1722448799.813030) can0 00E#C21C R
(1722448799.813188) can0 05C#C21CC21C R
(1722448799.813306) can0 041#00 R
(1722448799.813424) can0 016#04 R
(1722448799.813545) can0 015#00 R
(1722448799.813660) can0 017#00 R
(1722448799.813785) can0 056#00 R
(1722448799.828118) can0 016#04 R
(1722448799.828233) can0 041#00 R
(1722448799.828404) can0 05C#2B1D2B1D R
(1722448799.844079) can0 00D#581D R
(1722448799.844207) can0 05B#581D R
(1722448799.844323) can0 014#00 R
(1722448799.844440) can0 008#00 R
(1722448799.844562) can0 055#00 R
(1722448799.844679) can0 05D#00 R
(1722448799.848628) can0 007#00 R
(1722448799.859132) can0 056#00 R
(1722448799.875077) can0 00E#611E R
(1722448799.875243) can0 05C#611E611E R
(1722448799.875354) can0 041#00 R
(1722448799.875471) can0 016#04 R
(1722448799.875596) can0 015#00 R
(1722448799.875708) can0 017#00 R
(1722448799.875829) can0 056#00 R
(1722448799.890508) can0 00E#C51E R
(1722448799.890620) can0 00E#C51E R
(1722448799.890806) can0 05C#C51EC51E R
(1722448799.898438) can0 007#00 R
(1722448799.905631) can0 00D#F41E R
(1722448799.905751) can0 015#00 R
(1722448799.905865) can0 016#04 R
(1722448799.905993) can0 041#00 R
(1722448799.906103) can0 016#04 R
(1722448799.906243) can0 05B#F41E R
(1722448799.906353) can0 014#00 R
(1722448799.906471) can0 008#00 R
(1722448799.906591) can0 055#00 R
(1722448799.906709) can0 05D#00 R
(1722448799.921108) can0 05C#961F961F R
(1722448799.936415) can0 056#00 R
(1722448799.936556) can0 00E#FC1F R
(1722448799.936689) can0 00E#FC1F R
(1722448799.936823) can0 00E#FC1F R
(1722448799.937002) can0 05C#FC1FFC1F R
(1722448799.937122) can0 041#00 R
(1722448799.937237) can0 016#04 R
(1722448799.937357) can0 015#00 R
(1722448799.937473) can0 017#00 R
(1722448799.937593) can0 056#00 R
(1722448799.947850) can0 007#00 R
(1722448799.952532) can0 05C#69206920 R
(1722448799.952648) can0 016#05 R
(1722448799.968215) can0 00D#9920 R
(1722448799.968333) can0 015#00 R
(1722448799.968450) can0 016#05 R
(1722448799.968585) can0 05B#9920 R
(1722448799.968698) can0 014#00 R
(1722448799.968820) can0 008#00 R
(1722448799.968938) can0 055#00 R
(1722448799.969058) can0 05D#00 R
(1722448799.984321) can0 041#00 R
(1722448799.984907) can0 05C#45214521 R
(1722448799.985023) can0 056#00 R
(1722448799.985213) can0 00E#4C21 R
(1722448799.998324) can0 007#00 R
(1722448799.999378) can0 00E#AD21 R
(1722448799.999542) can0 05C#AD21AD21 R
(1722448799.999657) can0 016#05 R
(1722448799.999790) can0 00E#AD21 R
(1722448799.999956) can0 05C#AD21AD21 R
(1722448800.000075) can0 041#00 R
(1722448800.000194) can0 016#05 R
(1722448800.000313) can0 015#00 R
(1722448800.000432) can0 017#00 R
(1722448800.000549) can0 056#00 R
(1722448800.000671) can0 015#00 R
(1722448800.014089) can0 016#05 R
(1722448800.014208) can0 041#00 R
(1722448800.014393) can0 05C#16221622 R
(1722448800.028979) can0 00D#4022 R
(1722448800.029194) can0 05B#4022 R
(1722448800.029306) can0 014#00 R
(1722448800.029426) can0 008#00 R
(1722448800.029546) can0 055#00 R
(1722448800.029664) can0 05D#00 R
(1722448800.048869) can0 007#00 R
(1722448800.059358) can0 056#00 R
(1722448800.059499) can0 00E#5323 R
(1722448800.059625) can0 00E#5323 R
(1722448800.059793) can0 05C#53235323 R
(1722448800.059908) can0 041#00 R
(1722448800.060028) can0 016#05 R
(1722448800.060147) can0 015#00 R
(1722448800.060264) can0 017#00 R
(1722448800.060383) can0 056#00 R
(1722448800.075145) can0 00E#C523 R
(1722448800.075297) can0 05C#C523C523 R
(1722448800.075419) can0 016#05 R
(1722448800.090711) can0 015#00 R
(1722448800.090836) can0 00D#F723 R
(1722448800.090956) can0 016#05 R
(1722448800.091076) can0 041#00 R
(1722448800.091209) can0 05B#F723 R
(1722448800.091325) can0 014#00 R
(1722448800.091444) can0 008#00 R
(1722448800.091563) can0 055#00 R
(1722448800.091682) can0 05D#00 R
(1722448800.098099) can0 007#00 R
(1722448800.105679) can0 05C#9C249C24 R
(1722448800.105782) can0 056#00 R
(1722448800.122002) can0 00E#1025 R
(1722448800.122162) can0 05C#10251025 R
(1722448800.122283) can0 041#00 R
(1722448800.122399) can0 016#05 R
(1722448800.122520) can0 015#00 R
(1722448800.122635) can0 017#00 R
(1722448800.122756) can0 056#00 R
(1722448800.136905) can0 00E#8425 R
(1722448800.137035) can0 00E#8425 R
(1722448800.137201) can0 05C#84258425 R
(1722448800.152088) can0 00D#B025 R
(1722448800.152207) can0 015#00 R
(1722448800.152323) can0 016#05 R
(1722448800.152441) can0 016#05 R
(1722448800.152574) can0 05B#B025 R
(1722448800.152689) can0 014#00 R
(1722448800.152818) can0 008#00 R
(1722448800.152926) can0 055#00 R
(1722448800.153046) can0 05D#00 R
(1722448800.166000) can0 007#00 R
(1722448800.166801) can0 041#00 R
(1722448800.166969) can0 05C#5F265F26 R
(1722448800.182173) can0 056#00 R
(1722448800.182302) can0 00E#CE26 R
(1722448800.182444) can0 00E#CE26 R
(1722448800.182572) can0 00E#CE26 R
(1722448800.182739) can0 05C#CE26CE26 R
(1722448800.182853) can0 041#00 R
(1722448800.182970) can0 016#06 R
(1722448800.183090) can0 015#00 R
(1722448800.183205) can0 017#00 R
(1722448800.183326) can0 056#00 R
(1722448800.197646) can0 05C#44274427 R
(1722448800.197760) can0 016#06 R
(1722448800.213058) can0 00D#7127 R
(1722448800.213174) can0 015#00 R
(1722448800.213305) can0 05B#7127 R
(1722448800.213421) can0 014#00 R
(1722448800.213538) can0 008#00 R
(1722448800.213658) can0 055#00 R
(1722448800.213777) can0 05D#00 R
(1722448800.215838) can0 007#00 R
(1722448800.229794) can0 016#06 R
(1722448800.229915) can0 041#00 R
(1722448800.230084) can0 05C#2B282B28 R
(1722448800.245473) can0 056#00 R
(1722448800.245602) can0 00E#A428 R
(1722448800.245730) can0 00E#A428 R
(1722448800.245902) can0 05C#A328A328 R
(1722448800.246014) can0 041#00 R
(1722448800.246132) can0 016#06 R
(1722448800.246251) can0 015#00 R
(1722448800.246367) can0 017#00 R
(1722448800.246493) can0 056#00 R
(1722448800.260848) can0 00E#1C29 R
(1722448800.261015) can0 05C#1C291C29 R
(1722448800.261123) can0 016#06 R
(1722448800.266501) can0 007#00 R
(1722448800.275785) can0 00D#4A29 R
(1722448800.275917) can0 05B#4A29 R
(1722448800.276030) can0 014#00 R
(1722448800.276151) can0 008#00 R
(1722448800.276269) can0 055#00 R
(1722448800.276388) can0 05D#00 R
(1722448800.291713) can0 015#00 R
(1722448800.291824) can0 016#06 R
(1722448800.291949) can0 041#00 R
(1722448800.292121) can0 05C#082A082A R
(1722448800.307251) can0 056#00 R
(1722448800.307615) can0 00E#7A2A R
(1722448800.307743) can0 00E#7A2A R
(1722448800.307907) can0 05C#7A2A7A2A R
(1722448800.308026) can0 041#00 R
(1722448800.308144) can0 016#06 R
(1722448800.308263) can0 015#00 R
(1722448800.308380) can0 017#00 R
(1722448800.308499) can0 056#00 R
(1722448800.316256) can0 007#00 R
(1722448800.322490) can0 00E#ED2A R
(1722448800.322646) can0 05C#ED2AED2A R
(1722448800.322765) can0 016#06 R
(1722448800.338451) can0 00D#232B R
(1722448800.338582) can0 05B#232B R
(1722448800.338695) can0 014#00 R
(1722448800.338814) can0 008#00 R
(1722448800.338933) can0 055#00 R
(1722448800.339051) can0 05D#00 R
(1722448800.353141) can0 015#00 R
(1722448800.353255) can0 016#06 R
(1722448800.353377) can0 041#00 R
(1722448800.366736) can0 007#00 R
(1722448800.368761) can0 05C#512C512C R
(1722448800.369021) can0 056#00 R
(1722448800.369162) can0 00E#512C R
(1722448800.369318) can0 05C#512C512C R
(1722448800.369443) can0 041#00 R
(1722448800.369555) can0 016#06 R
(1722448800.369676) can0 015#00 R
(1722448800.369792) can0 017#00 R
(1722448800.369912) can0 056#00 R
(1722448800.384730) can0 00E#CE2C R
(1722448800.384865) can0 00E#CE2C R
(1722448800.385022) can0 05C#CE2CCE2C R
(1722448800.399105) can0 00D#FD2C R
(1722448800.399220) can0 016#07 R
(1722448800.399353) can0 05B#FD2C R
(1722448800.399467) can0 014#00 R
(1722448800.399585) can0 008#00 R
(1722448800.399706) can0 055#00 R
(1722448800.399823) can0 05D#00 R
(1722448800.415240) can0 015#00 R
(1722448800.415473) can0 016#07 R
(1722448800.415590) can0 056#00 R
(1722448800.415863) can0 007#00 R
(1722448800.431087) can0 041#00 R
(1722448800.431239) can0 05C#382E382E R
(1722448800.431369) can0 00E#382E R
(1722448800.431500) can0 00E#382E R
(1722448800.431633) can0 00E#382E R
(1722448800.431800) can0 05C#382E382E R
(1722448800.431921) can0 041#00 R
(1722448800.432036) can0 016#07 R
(1722448800.432162) can0 015#00 R
(1722448800.432272) can0 017#00 R
(1722448800.432396) can0 056#00 R
(1722448800.447295) can0 05C#B72EB72E R
(1722448800.447411) can0 016#07 R
(1722448800.461741) can0 00D#EF2E R
(1722448800.461870) can0 05B#EF2E R
(1722448800.461984) can0 014#00 R
(1722448800.462101) can0 008#00 R
(1722448800.462222) can0 055#00 R
(1722448800.462340) can0 05D#00 R
(1722448800.477476) can0 007#00 R
(1722448800.477594) can0 015#00 R
(1722448800.492603) can0 016#07 R
(1722448800.492726) can0 041#00 R
(1722448800.492894) can0 05C#27302730 R
(1722448800.493015) can0 056#00 R
(1722448800.493146) can0 00E#2730 R
(1722448800.493281) can0 00E#2730 R
(1722448800.493448) can0 05C#27302730 R
(1722448800.493569) can0 041#00 R
(1722448800.493683) can0 016#07 R
(1722448800.493804) can0 015#00 R
(1722448800.493921) can0 017#00 R
(1722448800.494041) can0 056#00 R
(1722448800.508541) can0 00E#A830 R
(1722448800.508703) can0 05C#A830A830 R
(1722448800.508800) can0 016#07 R
(1722448800.523630) can0 00D#E130 R
(1722448800.523757) can0 05B#E130 R
(1722448800.523874) can0 014#00 R
(1722448800.523992) can0 008#00 R
(1722448800.524112) can0 055#00 R
(1722448800.524229) can0 05D#00 R
(1722448800.527390) can0 007#00 R
(1722448800.555421) can0 015#00 R
(1722448800.555523) can0 016#07 R
(1722448800.555646) can0 041#00 R
(1722448800.555811) can0 05C#1E321E32 R
(1722448800.555923) can0 056#00 R
(1722448800.556058) can0 00E#1E32 R
(1722448800.556185) can0 00E#1E32 R
(1722448800.556355) can0 05C#1E321E32 R
(1722448800.556472) can0 041#00 R
(1722448800.556591) can0 016#07 R
(1722448800.556709) can0 015#00 R
(1722448800.556826) can0 017#00 R
(1722448800.556946) can0 056#00 R
(1722448800.569895) can0 00E#9932 R
(1722448800.570064) can0 05C#99329932 R
(1722448800.570173) can0 016#07 R
(1722448800.576628) can0 007#00 R
(1722448800.585194) can0 00D#D232 R
(1722448800.585325) can0 05B#D232 R
(1722448800.585438) can0 014#00 R
(1722448800.585557) can0 008#00 R
(1722448800.585677) can0 055#00 R
(1722448800.585796) can0 05D#00 R
(1722448800.599770) can0 015#00 R
(1722448800.599881) can0 016#08 R
(1722448800.600006) can0 041#00 R
(1722448800.600124) can0 056#00 R
(1722448800.615530) can0 05C#14341434 R
(1722448800.615717) can0 00E#1434 R
(1722448800.615844) can0 00E#1434 R
(1722448800.616021) can0 05C#14341434 R
(1722448800.616145) can0 00E#1434 R
(1722448800.616316) can0 05C#14341434 R
(1722448800.616439) can0 041#00 R
(1722448800.616551) can0 016#08 R
(1722448800.616672) can0 015#00 R
(1722448800.616813) can0 017#00 R
(1722448800.616907) can0 056#00 R
(1722448800.627067) can0 007#00 R
(1722448800.631290) can0 016#08 R
(1722448800.646039) can0 00D#CB34 R
(1722448800.646167) can0 05B#CB34 R
(1722448800.646287) can0 014#00 R
(1722448800.646425) can0 008#00 R
(1722448800.646519) can0 055#00 R
(1722448800.646643) can0 05D#00 R
(1722448800.676646) can0 056#00 R
(1722448800.676782) can0 00E#1136 R
(1722448800.676894) can0 00E#1136 R
(1722448800.677028) can0 00E#1136 R
(1722448800.677145) can0 007#00 R
(1722448800.677312) can0 05C#11361136 R
(1722448800.677435) can0 041#00 R
(1722448800.677546) can0 016#08 R
(1722448800.677666) can0 015#00 R
(1722448800.677781) can0 017#00 R
(1722448800.677903) can0 056#00 R
(1722448800.692286) can0 05C#98369836 R
(1722448800.692398) can0 016#08 R
(1722448800.708327) can0 00D#D336 R
(1722448800.708442) can0 015#00 R
(1722448800.708557) can0 016#08 R
(1722448800.708680) can0 041#00 R
(1722448800.708809) can0 05B#D336 R
(1722448800.708926) can0 014#00 R
(1722448800.709046) can0 008#00 R
(1722448800.709164) can0 055#00 R
(1722448800.709335) can0 05C#1F371F37 R
(1722448800.709451) can0 05D#00 R
(1722448800.727374) can0 007#00 R
(1722448800.739520) can0 056#00 R
(1722448800.739642) can0 00E#2F38 R
(1722448800.739783) can0 00E#2F38 R
(1722448800.739940) can0 05C#2F382F38 R
(1722448800.740059) can0 041#00 R
(1722448800.740173) can0 016#08 R
(1722448800.740295) can0 015#00 R
(1722448800.740409) can0 017#00 R
(1722448800.740536) can0 056#00 R
(1722448800.755696) can0 015#00 R
(1722448800.755806) can0 016#08 R
(1722448800.755929) can0 041#00 R
(1722448800.756061) can0 00E#AF38 R
(1722448800.756225) can0 05C#AF38AF38 R
(1722448800.756335) can0 016#08 R
(1722448800.771093) can0 00D#EB38 R
(1722448800.771223) can0 05B#EB38 R
(1722448800.771337) can0 014#00 R
(1722448800.771456) can0 008#00 R
(1722448800.771576) can0 055#00 R
(1722448800.771745) can0 05C#38393839 R
(1722448800.771860) can0 05D#00 R
(1722448800.776668) can0 007#00 R
(1722448800.801177) can0 056#00 R
(1722448800.801312) can0 00E#3A3A R
(1722448800.801457) can0 00E#3A3A R
(1722448800.801603) can0 05C#3A3A3A3A R
(1722448800.801725) can0 041#00 R
(1722448800.801841) can0 016#09 R
(1722448800.801961) can0 015#00 R
(1722448800.802078) can0 017#00 R
(1722448800.802197) can0 056#00 R
(1722448800.816905) can0 015#00 R
(1722448800.817015) can0 016#09 R
(1722448800.817148) can0 00E#C43A R
(1722448800.817315) can0 05C#C43AC43A R
(1722448800.817429) can0 016#09 R
(1722448800.831800) can0 041#00 R
(1722448800.831931) can0 00D#F83A R
(1722448800.832066) can0 05B#F83A R
(1722448800.832179) can0 014#00 R
(1722448800.832298) can0 008#00 R
(1722448800.832417) can0 055#00 R
(1722448800.832585) can0 05C#463B463B R
(1722448800.832699) can0 05D#00 R
(1722448800.838394) can0 007#00 R
(1722448800.861905) can0 056#00 R
(1722448800.862031) can0 00E#4C3C R
(1722448800.862198) can0 05C#4C3C4C3C R
(1722448800.862315) can0 041#00 R
(1722448800.862450) can0 016#09 R
(1722448800.862554) can0 015#00 R
(1722448800.862677) can0 017#00 R
(1722448800.862789) can0 056#00 R
(1722448800.877415) can0 015#00 R
(1722448800.877522) can0 00E#CF3C R
(1722448800.877659) can0 00E#CF3C R
(1722448800.877825) can0 05C#CF3CCF3C R
(1722448800.886952) can0 007#00 R
(1722448800.893118) can0 00D#0C3D R
(1722448800.893249) can0 05B#0C3D R
(1722448800.893364) can0 014#00 R
(1722448800.893479) can0 016#09 R
(1722448800.893601) can0 041#00 R
(1722448800.893770) can0 05C#5B3D5B3D R
(1722448800.893880) can0 008#00 R
(1722448800.893999) can0 016#09 R
(1722448800.894118) can0 055#00 R
(1722448800.894241) can0 05D#00 R
(1722448800.924470) can0 056#00 R
(1722448800.924600) can0 00E#6D3E R
(1722448800.924759) can0 00E#6D3E R
(1722448800.924867) can0 00E#6D3E R
(1722448800.925036) can0 05C#6C3E6C3E R
(1722448800.925152) can0 041#00 R
(1722448800.925270) can0 016#09 R
(1722448800.925390) can0 015#00 R
(1722448800.925506) can0 017#00 R
(1722448800.925626) can0 056#00 R
(1722448800.937924) can0 007#00 R
(1722448800.940153) can0 05C#FA3EFA3E R
(1722448800.940264) can0 016#09 R
(1722448800.954814) can0 00D#2F3F R
(1722448800.954945) can0 05B#2F3F R
(1722448800.955058) can0 014#00 R
(1722448800.955178) can0 008#00 R
(1722448800.955296) can0 015#00 R
(1722448800.955414) can0 016#09 R
(1722448800.955542) can0 041#00 R
(1722448800.955655) can0 055#00 R
(1722448800.955825) can0 05C#763F763F R
(1722448800.955940) can0 05D#00 R
(1722448800.969785) can0 056#00 R
(1722448800.985698) can0 00E#8B40 R
(1722448800.985813) can0 00E#8B40 R
(1722448800.985990) can0 05C#8B408B40 R
(1722448800.986104) can0 041#00 R
(1722448800.986220) can0 016#0A R
(1722448800.986339) can0 015#00 R
(1722448800.986456) can0 017#00 R
(1722448800.986575) can0 056#00 R
(1722448800.988431) can0 007#00 R
(1722448801.001289) can0 00E#1A41 R
(1722448801.001440) can0 05C#1A411A41 R
(1722448801.001549) can0 016#0A R
(1722448801.015939) can0 00D#5041 R
(1722448801.016025) can0 015#00 R
(1722448801.016131) can0 016#0A R
(1722448801.016249) can0 041#00 R
(1722448801.016390) can0 05B#5041 R
(1722448801.016502) can0 014#00 R
(1722448801.016623) can0 008#00 R
(1722448801.016784) can0 055#00 R
(1722448801.016843) can0 05D#00 R
(1722448801.031191) can0 05C#28422842 R
(1722448801.038588) can0 007#00 R
(1722448801.045800) can0 056#00 R
(1722448801.045927) can0 00E#AF42 R
(1722448801.046059) can0 00E#AF42 R
(1722448801.046219) can0 05C#AF42AF42 R
(1722448801.046369) can0 041#00 R
(1722448801.046477) can0 016#0A R
(1722448801.046598) can0 015#00 R
(1722448801.046716) can0 017#00 R
(1722448801.046835) can0 056#00 R
(1722448801.046967) can0 00E#AF42 R
(1722448801.047129) can0 05C#AF42AF42 R
(1722448801.047242) can0 016#0A R
(1722448801.060834) can0 015#00 R
(1722448801.060947) can0 016#0A R
(1722448801.076436) can0 041#00 R
(1722448801.076563) can0 00D#6D43 R
(1722448801.076693) can0 05B#6D43 R
(1722448801.076825) can0 014#00 R
(1722448801.076926) can0 008#00 R
(1722448801.077047) can0 055#00 R
(1722448801.077214) can0 05C#BF43BF43 R
(1722448801.077330) can0 05D#00 R
(1722448801.088194) can0 007#00 R
(1722448801.092960) can0 056#00 R
(1722448801.107864) can0 00E#E244 R
(1722448801.108033) can0 05C#E244E244 R
(1722448801.108151) can0 041#00 R
(1722448801.108265) can0 016#0A R
(1722448801.108397) can0 015#00 R
(1722448801.108501) can0 017#00 R
(1722448801.108631) can0 056#00 R
(1722448801.123094) can0 015#00 R
(1722448801.123226) can0 00E#6B45 R
(1722448801.123353) can0 00E#6B45 R
(1722448801.123518) can0 05C#6B456B45 R
(1722448801.137864) can0 007#00 R
(1722448801.139218) can0 00D#AC45 R
(1722448801.139331) can0 016#0A R
(1722448801.139455) can0 041#00 R
(1722448801.139585) can0 05B#AC45 R
(1722448801.139699) can0 014#00 R
(1722448801.139819) can0 008#00 R
(1722448801.139938) can0 055#00 R
(1722448801.140107) can0 05C#FE45FE45 R
(1722448801.140220) can0 016#0A R
(1722448801.140338) can0 05D#00 R
(1722448801.170026) can0 056#00 R
(1722448801.170150) can0 00E#1B47 R
(1722448801.170283) can0 00E#1B47 R
(1722448801.170411) can0 00E#1B47 R
(1722448801.170580) can0 05C#1B471B47 R
(1722448801.170702) can0 041#00 R
(1722448801.170815) can0 016#0B R
(1722448801.170935) can0 015#00 R
(1722448801.171051) can0 017#00 R
(1722448801.171170) can0 056#00 R
(1722448801.185423) can0 05C#A647A647 R
(1722448801.185535) can0 016#0B R
(1722448801.187339) can0 007#00 R
(1722448801.200629) can0 00D#E747 R
(1722448801.200769) can0 015#00 R
(1722448801.200854) can0 016#0B R
(1722448801.200978) can0 041#00 R
(1722448801.201105) can0 05B#E747 R
(1722448801.201218) can0 014#00 R
(1722448801.201338) can0 008#00 R
(1722448801.201456) can0 055#00 R
(1722448801.201622) can0 05C#3A483A48 R
(1722448801.201741) can0 05D#00 R
(1722448801.231495) can0 056#00 R
(1722448801.231625) can0 00E#5049 R
(1722448801.231758) can0 00E#5049 R
(1722448801.231928) can0 05C#50495049 R
(1722448801.232047) can0 041#00 R
(1722448801.232160) can0 016#0B R
(1722448801.232280) can0 015#00 R
(1722448801.232396) can0 017#00 R
(1722448801.232517) can0 056#00 R
(1722448801.237959) can0 007#00 R
(1722448801.247197) can0 00E#E649 R
(1722448801.247462) can0 05C#E649E649 R
(1722448801.247574) can0 016#0B R
(1722448801.263250) can0 00D#274A R
(1722448801.263368) can0 015#00 R
(1722448801.263489) can0 016#0B R
(1722448801.263603) can0 041#00 R
(1722448801.263737) can0 05B#274A R
(1722448801.263850) can0 014#00 R
(1722448801.263974) can0 008#00 R
(1722448801.264089) can0 055#00 R
(1722448801.264212) can0 05D#00 R
(1722448801.278925) can0 05C#074B074B R
(1722448801.290493) can0 007#00 R
(1722448801.294476) can0 056#00 R
(1722448801.294603) can0 00E#9E4B R
(1722448801.294733) can0 00E#9E4B R
(1722448801.294898) can0 05C#9E4B9D4B R
(1722448801.295020) can0 041#00 R
(1722448801.295134) can0 016#0B R
(1722448801.295255) can0 015#00 R
(1722448801.295370) can0 017#00 R
(1722448801.295491) can0 056#00 R
(1722448801.295620) can0 00E#9E4B R
(1722448801.295785) can0 05C#9E4B9D4B R
(1722448801.295899) can0 016#0B R
(1722448801.310268) can0 015#00 R
(1722448801.310364) can0 016#0B R
(1722448801.325455) can0 041#00 R
(1722448801.325578) can0 00D#6C4C R
(1722448801.325709) can0 05B#6C4C R
(1722448801.325873) can0 05C#C14CC14C R
(1722448801.325990) can0 014#00 R
(1722448801.326107) can0 008#00 R
(1722448801.326229) can0 055#00 R
(1722448801.326350) can0 05D#00 R
(1722448801.339677) can0 007#00 R
(1722448801.340786) can0 056#00 R
(1722448801.356077) can0 015#00 R
(1722448801.356208) can0 00E#E64D R
(1722448801.356342) can0 00E#E64D R
(1722448801.356499) can0 05C#E64DE64D R
(1722448801.356631) can0 00E#E64D R
(1722448801.356795) can0 05C#E64DE64D R
(1722448801.356918) can0 041#00 R
(1722448801.357033) can0 016#0C R
(1722448801.357148) can0 015#00 R
(1722448801.357268) can0 017#00 R
(1722448801.357384) can0 056#00 R
(1722448801.357497) can0 016#0C R
(1722448801.357621) can0 041#00 R
(1722448801.357787) can0 05C#E64DE64D R
(1722448801.357904) can0 016#0C R
(1722448801.387456) can0 00D#C14E R
(1722448801.387586) can0 05B#C14E R
(1722448801.387698) can0 014#00 R
(1722448801.387823) can0 008#00 R
(1722448801.387936) can0 055#00 R
(1722448801.388058) can0 05D#00 R
(1722448801.390529) can0 007#00 R
(1722448801.403737) can0 056#00 R
(1722448801.403870) can0 00E#AF4F R
(1722448801.404002) can0 00E#AF4F R
(1722448801.419116) can0 015#00 R
(1722448801.419228) can0 016#0C R
(1722448801.419350) can0 041#00 R
(1722448801.419518) can0 05C#3E503E50 R
(1722448801.419632) can0 016#0C R
(1722448801.419765) can0 00E#3E50 R
(1722448801.419937) can0 05C#3E503E50 R
(1722448801.420059) can0 041#00 R
(1722448801.420171) can0 016#0C R
(1722448801.420296) can0 015#00 R
(1722448801.420406) can0 017#00 R
(1722448801.420526) can0 056#00 R
(1722448801.434929) can0 05C#D750D750 R
(1722448801.449822) can0 00D#1051 R
(1722448801.449954) can0 05B#1051 R
(1722448801.450073) can0 014#00 R
(1722448801.450186) can0 008#00 R
(1722448801.450308) can0 055#00 R
(1722448801.450425) can0 05D#00 R
(1722448801.453003) can0 007#00 R
(1722448801.464966) can0 056#00 R
(1722448801.465095) can0 00E#F651 R
(1722448801.479955) can0 015#00 R
(1722448801.480102) can0 00E#8652 R
(1722448801.480268) can0 05C#86528652 R
(1722448801.480380) can0 016#0C R
(1722448801.480512) can0 00E#8652 R
(1722448801.480674) can0 05C#86528652 R
(1722448801.480803) can0 041#00 R
(1722448801.480916) can0 016#0C R
(1722448801.481035) can0 015#00 R
(1722448801.481151) can0 017#00 R
(1722448801.481273) can0 056#00 R
(1722448801.495546) can0 016#0C R
(1722448801.495666) can0 041#00 R
(1722448801.495830) can0 05C#21532153 R
(1722448801.502794) can0 007#00 R
(1722448801.511425) can0 00D#6453 R
(1722448801.511553) can0 05B#6453 R
(1722448801.511672) can0 014#00 R
(1722448801.511786) can0 008#00 R
(1722448801.511906) can0 055#00 R
(1722448801.512025) can0 05D#00 R
(1722448801.542694) can0 056#00 R
(1722448801.542785) can0 00E#E754 R
(1722448801.542905) can0 00E#E754 R
(1722448801.543067) can0 05C#E754E754 R
(1722448801.543193) can0 041#00 R
(1722448801.543301) can0 016#0D R
(1722448801.543426) can0 015#00 R
(1722448801.543539) can0 017#00 R
(1722448801.543657) can0 056#00 R
(1722448801.543788) can0 00E#E754 R
(1722448801.543951) can0 05C#E754E754 R
(1722448801.544063) can0 016#0D R
(1722448801.553333) can0 007#00 R
(1722448801.557728) can0 015#00 R
(1722448801.557847) can0 016#0D R
(1722448801.557964) can0 041#00 R
(1722448801.558128) can0 05C#78557855 R
(1722448801.572721) can0 00D#B355 R
(1722448801.572875) can0 05B#B355 R
(1722448801.572972) can0 014#00 R
(1722448801.573090) can0 008#00 R
(1722448801.573205) can0 055#00 R
(1722448801.573327) can0 05D#00 R
(1722448801.603229) can0 007#00 R
(1722448801.603439) can0 056#00 R
(1722448801.603580) can0 00E#2E57 R
(1722448801.603735) can0 05C#2E572E57 R
(1722448801.603857) can0 041#00 R
(1722448801.603970) can0 016#0D R
(1722448801.604091) can0 015#00 R
(1722448801.604207) can0 017#00 R
(1722448801.604327) can0 056#00 R
(1722448801.618223) can0 00E#C157 R
(1722448801.618334) can0 00E#C157 R
(1722448801.618506) can0 05C#C157C157 R
(1722448801.633028) can0 015#00 R
(1722448801.633158) can0 00D#FC57 R
(1722448801.633270) can0 016#0D R
(1722448801.633393) can0 041#00 R
(1722448801.633528) can0 05B#FC57 R
(1722448801.633644) can0 014#00 R
(1722448801.633757) can0 008#00 R
(1722448801.633879) can0 055#00 R
(1722448801.634043) can0 05C#54585458 R
(1722448801.634158) can0 016#0D R
(1722448801.634278) can0 05D#00 R
(1722448801.648545) can0 056#00 R
(1722448801.648676) can0 00E#E758 R
(1722448801.648807) can0 00E#E758 R
(1722448801.653225) can0 007#00 R
(1722448801.663494) can0 05C#7A597A59 R
(1722448801.663608) can0 016#0D R
(1722448801.663741) can0 00E#7A59 R
(1722448801.663905) can0 05C#7A597A59 R
(1722448801.664027) can0 041#00 R
(1722448801.664141) can0 016#0D R
(1722448801.664263) can0 015#00 R
(1722448801.664379) can0 017#00 R
(1722448801.664499) can0 056#00 R
(1722448801.679057) can0 015#00 R
(1722448801.679180) can0 016#0E R
(1722448801.679295) can0 041#00 R
(1722448801.694926) can0 05C#AA5AAA5A R
(1722448801.695057) can0 00D#5C5A R
(1722448801.695190) can0 05B#5C5A R
(1722448801.695304) can0 014#00 R
(1722448801.695424) can0 008#00 R
(1722448801.695544) can0 055#00 R
(1722448801.695666) can0 05D#00 R
(1722448801.702870) can0 007#00 R
(1722448801.710393) can0 056#00 R
(1722448801.710600) can0 00E#525B R
(1722448801.725163) can0 015#00 R
(1722448801.725348) can0 00E#DC5B R
(1722448801.725516) can0 05C#DC5BDC5B R
(1722448801.725630) can0 016#0E R
(1722448801.725762) can0 00E#DC5B R
(1722448801.725928) can0 05C#DC5BDC5B R
(1722448801.726048) can0 041#00 R
(1722448801.726163) can0 016#0E R
(1722448801.726309) can0 015#00 R
(1722448801.726399) can0 017#00 R
(1722448801.726520) can0 056#00 R
(1722448801.740715) can0 016#0E R
(1722448801.740925) can0 041#00 R
(1722448801.741095) can0 05C#705C705C R
(1722448801.753319) can0 007#00 R
(1722448801.756341) can0 00D#B65C R
(1722448801.756471) can0 05B#B65C R
(1722448801.756588) can0 014#00 R
(1722448801.756704) can0 008#00 R
(1722448801.756826) can0 055#00 R
(1722448801.756943) can0 05D#00 R
(1722448801.787057) can0 056#00 R
(1722448801.787183) can0 00E#425E R
(1722448801.787313) can0 00E#425E R
(1722448801.787476) can0 05C#425E425E R
(1722448801.787599) can0 041#00 R
(1722448801.787714) can0 016#0E R
(1722448801.787835) can0 015#00 R
(1722448801.787951) can0 017#00 R
(1722448801.788071) can0 056#00 R
(1722448801.802967) can0 007#00 R
(1722448801.803084) can0 015#00 R
(1722448801.803202) can0 016#0E R
(1722448801.803323) can0 041#00 R
(1722448801.803454) can0 00E#E15E R
(1722448801.803616) can0 05C#E15EE15E R
(1722448801.803732) can0 016#0E R
(1722448801.819243) can0 00D#275F R
(1722448801.819373) can0 05B#275F R
(1722448801.819491) can0 014#00 R
(1722448801.819607) can0 008#00 R
(1722448801.819723) can0 055#00 R
(1722448801.819895) can0 05C#805F805F R
(1722448801.820016) can0 05D#00 R
(1722448801.849098) can0 056#00 R
(1722448801.849229) can0 00E#AB60 R
(1722448801.849395) can0 05C#AB60AB60 R
(1722448801.849520) can0 041#00 R
(1722448801.849636) can0 016#0F R
(1722448801.849751) can0 015#00 R
(1722448801.849873) can0 017#00 R
(1722448801.849992) can0 056#00 R
(1722448801.850113) can0 015#00 R
(1722448801.850225) can0 016#0F R
(1722448801.850359) can0 00E#AB60 R
(1722448801.850492) can0 00E#AB60 R
(1722448801.850658) can0 05C#AB60AB60 R
(1722448801.852863) can0 007#00 R
(1722448801.865690) can0 041#00 R
(1722448801.865854) can0 05C#4B614B61 R
(1722448801.865968) can0 016#0F R
(1722448801.881538) can0 00D#9161 R
(1722448801.881726) can0 05B#9161 R
(1722448801.881842) can0 014#00 R
(1722448801.881958) can0 008#00 R
(1722448801.882079) can0 055#00 R
(1722448801.882199) can0 05D#00 R
(1722448801.897041) can0 056#00 R
(1722448801.902664) can0 007#00 R
(1722448801.911913) can0 00E#2263 R
(1722448801.912047) can0 00E#2263 R
(1722448801.912184) can0 00E#2263 R
(1722448801.912343) can0 05C#22632263 R
(1722448801.912468) can0 041#00 R
(1722448801.912581) can0 016#0F R
(1722448801.912703) can0 015#00 R
(1722448801.912824) can0 017#00 R
(1722448801.912942) can0 056#00 R
(1722448801.927824) can0 05C#C263C263 R
(1722448801.927939) can0 016#0F R
(1722448801.943061) can0 00D#FF63 R
(1722448801.943166) can0 015#00 R
(1722448801.943281) can0 016#0F R
(1722448801.943405) can0 041#00 R
(1722448801.943539) can0 05B#FF63 R
(1722448801.943655) can0 014#00 R
(1722448801.943774) can0 008#00 R
(1722448801.943896) can0 055#00 R
(1722448801.944013) can0 05D#00 R
(1722448801.944723) can0 05C#59645964 R
(1722448801.952422) can0 007#00 R
(1722448801.973544) can0 056#00 R
(1722448801.973746) can0 00E#8765 R
(1722448801.973878) can0 00E#8765 R
(1722448801.974041) can0 05C#87658765 R
(1722448801.974162) can0 041#00 R
(1722448801.974303) can0 016#0F R
(1722448801.974406) can0 015#00 R
(1722448801.974514) can0 017#00 R
(1722448801.974635) can0 056#00 R
(1722448801.974755) can0 015#00 R
(1722448801.974871) can0 016#0F R
(1722448801.975001) can0 00E#8765 R
(1722448801.975170) can0 05C#87658765 R
(1722448801.975283) can0 016#0F R
(1722448801.989245) can0 041#00 R
(1722448801.989457) can0 05C#28662866 R
(1722448802.002861) can0 007#00 R
(1722448802.003849) can0 00D#6566 R
(1722448802.004005) can0 05B#6566 R
(1722448802.004119) can0 014#00 R
(1722448802.004242) can0 008#00 R
(1722448802.004357) can0 055#00 R
(1722448802.004478) can0 05D#00 R
(1722448802.034747) can0 056#00 R
(1722448802.034877) can0 00E#EE67 R
(1722448802.035006) can0 00E#EE67 R
(1722448802.035175) can0 05C#EE67EE67 R
(1722448802.035298) can0 041#00 R
(1722448802.035409) can0 016#10 R
(1722448802.035529) can0 015#00 R
(1722448802.035645) can0 017#00 R
(1722448802.035765) can0 056#00 R
(1722448802.050520) can0 00E#9068 R
(1722448802.050673) can0 05C#90689068 R
(1722448802.050790) can0 016#10 R
(1722448802.053238) can0 007#00 R
(1722448802.066305) can0 00D#D768 R
(1722448802.066422) can0 015#00 R
(1722448802.066539) can0 016#10 R
(1722448802.066665) can0 041#00 R
(1722448802.066794) can0 05B#D768 R
(1722448802.066913) can0 014#00 R
(1722448802.067028) can0 008#00 R
(1722448802.067145) can0 055#00 R
(1722448802.067309) can0 05C#32693269 R
(1722448802.067427) can0 05D#00 R
(1722448802.096766) can0 056#00 R
(1722448802.096872) can0 00E#6D6A R
(1722448802.097037) can0 05C#6D6A6D6A R
(1722448802.097160) can0 041#00 R
(1722448802.097270) can0 016#10 R
(1722448802.097392) can0 015#00 R
(1722448802.097504) can0 017#00 R
(1722448802.097625) can0 056#00 R
(1722448802.097743) can0 015#00 R
(1722448802.097859) can0 016#10 R
(1722448802.097979) can0 041#00 R
(1722448802.098117) can0 00E#6D6A R
(1722448802.098251) can0 00E#6D6A R
(1722448802.098416) can0 05C#6D6A6D6A R
(1722448802.112607) can0 05C#0F6B0F6B R
(1722448802.112719) can0 016#10 R
(1722448802.121994) can0 007#00 R
(1722448802.127556) can0 00D#4C6B R
(1722448802.127732) can0 05B#4C6B R
(1722448802.127846) can0 014#00 R
(1722448802.127968) can0 008#00 R
(1722448802.128083) can0 055#00 R
(1722448802.128203) can0 05D#00 R
(1722448802.158930) can0 056#00 R
(1722448802.159068) can0 00E#E36C R
(1722448802.159179) can0 00E#E36C R
(1722448802.159309) can0 00E#E36C R
(1722448802.159470) can0 05C#E36CE36C R
(1722448802.159592) can0 041#00 R
(1722448802.159706) can0 016#11 R
(1722448802.159827) can0 015#00 R
(1722448802.159943) can0 017#00 R
(1722448802.160063) can0 056#00 R
(1722448802.160183) can0 015#00 R
(1722448802.160346) can0 05C#E36CE36C R
(1722448802.160459) can0 016#11 R
(1722448802.170995) can0 007#00 R
(1722448802.175060) can0 016#11 R
(1722448802.175186) can0 041#00 R
(1722448802.175346) can0 05C#866D866D R
(1722448802.191102) can0 00D#CD6D R
(1722448802.191229) can0 05B#CD6D R
(1722448802.191345) can0 014#00 R
(1722448802.191462) can0 008#00 R
(1722448802.191584) can0 055#00 R
(1722448802.192339) can0 05D#00 R
(1722448802.206129) can0 056#00 R
(1722448802.221512) can0 007#00 R
(1722448802.221717) can0 00E#5B6F R
(1722448802.221846) can0 00E#5B6F R
(1722448802.222011) can0 05C#5B6F5B6F R
(1722448802.222132) can0 041#00 R
(1722448802.222247) can0 016#11 R
(1722448802.222365) can0 015#00 R
(1722448802.222482) can0 017#00 R
(1722448802.222604) can0 056#00 R
(1722448802.222734) can0 00E#5B6F R
(1722448802.222899) can0 05C#5B6F5B6F R
(1722448802.223017) can0 016#11 R
(1722448802.236547) can0 015#00 R
(1722448802.236820) can0 016#11 R
(1722448802.236932) can0 041#00 R
(1722448802.252453) can0 05C#97709770 R
(1722448802.252708) can0 00D#3B70 R
(1722448802.252844) can0 05B#3B70 R
(1722448802.253169) can0 014#00 R
(1722448802.253288) can0 008#00 R
(1722448802.253413) can0 055#00 R
(1722448802.253529) can0 05D#00 R
(1722448802.267374) can0 056#00 R
(1722448802.267493) can0 00E#3171 R
(1722448802.271384) can0 007#00 R
(1722448802.282113) can0 015#00 R
(1722448802.282238) can0 016#11 R
(1722448802.282357) can0 00E#CA71 R
(1722448802.282520) can0 05C#CA71CA71 R
(1722448802.282634) can0 016#11 R
(1722448802.282765) can0 00E#CA71 R
(1722448802.282930) can0 05C#CA71CA71 R
(1722448802.283059) can0 041#00 R
(1722448802.283161) can0 016#11 R
(1722448802.283304) can0 015#00 R
(1722448802.283398) can0 017#00 R
(1722448802.283518) can0 056#00 R
(1722448802.298098) can0 041#00 R
(1722448802.298353) can0 05C#6E726E72 R
(1722448802.313037) can0 00D#AB72 R
(1722448802.313242) can0 05B#AB72 R
(1722448802.313357) can0 014#00 R
(1722448802.313476) can0 008#00 R
(1722448802.313596) can0 055#00 R
(1722448802.313716) can0 05D#00 R
(1722448802.320532) can0 007#00 R
(1722448802.328490) can0 056#00 R
(1722448802.344243) can0 00E#4574 R
(1722448802.344372) can0 00E#4574 R
(1722448802.344537) can0 05C#45744574 R
(1722448802.344669) can0 00E#4574 R
(1722448802.344832) can0 05C#45744574 R
(1722448802.344953) can0 041#00 R
(1722448802.345067) can0 016#12 R
(1722448802.345187) can0 015#00 R
(1722448802.345303) can0 017#00 R
(1722448802.345423) can0 056#00 R
(1722448802.360009) can0 015#00 R
(1722448802.360120) can0 016#12 R
(1722448802.360244) can0 041#00 R
(1722448802.360413) can0 05C#E974E974 R
(1722448802.360528) can0 016#12 R
(1722448802.374136) can0 007#00 R
(1722448802.374781) can0 00D#2775 R
(1722448802.374915) can0 05B#2775 R
(1722448802.375030) can0 014#00 R
(1722448802.375145) can0 008#00 R
(1722448802.375265) can0 055#00 R
(1722448802.375382) can0 05D#00 R
(1722448802.406601) can0 056#00 R
(1722448802.406739) can0 00E#C176 R
(1722448802.407078) can0 00E#C176 R
(1722448802.407211) can0 00E#C176 R
