(1720633479.021136) can0 00E#2716 R
(1720633479.021269) can0 05C#27162716 R
(1720633479.021375) can0 041#00 R
(1720633479.021506) can0 016#03 R
(1720633479.021612) can0 015#00 R
(1720633479.021727) can0 017#00 R
(1720633479.021847) can0 056#00 R
(1720633479.036420) can0 007#00 R
(1720633479.067591) can0 00D#2615 R
(1720633479.067723) can0 05B#2615 R
(1720633479.067836) can0 014#00 R
(1720633479.067954) can0 008#00 R
(1720633479.068076) can0 055#00 R
(1720633479.068196) can0 05D#00 R
(1720633479.070129) can0 056#00 R
(1720633479.070265) can0 00E#0915 R
(1720633479.070401) can0 00E#0915 R
(1720633479.070564) can0 05C#09150915 R
(1720633479.070687) can0 041#00 R
(1720633479.070803) can0 016#03 R
(1720633479.070959) can0 015#00 R
(1720633479.071040) can0 017#00 R
(1720633479.071159) can0 056#00 R
(1720633479.071279) can0 015#00 R
(1720633479.071395) can0 016#03 R
(1720633479.071531) can0 00E#0915 R
(1720633479.071695) can0 05C#09150915 R
(1720633479.071811) can0 016#03 R
(1720633479.072173) can0 041#00 R
(1720633479.072347) can0 05C#04150415 R
(1720633479.097707) can0 007#00 R
(1720633479.121655) can0 00E#ED13 R
(1720633479.121805) can0 05C#EC13EC13 R
(1720633479.121929) can0 041#00 R
(1720633479.122043) can0 016#03 R
(1720633479.122162) can0 015#00 R
(1720633479.122280) can0 017#00 R
(1720633479.122398) can0 056#00 R
(1720633479.127604) can0 00D#D613 R
(1720633479.127735) can0 05B#D613 R
(1720633479.127848) can0 014#00 R
(1720633479.127966) can0 008#00 R
(1720633479.128085) can0 055#00 R
(1720633479.128204) can0 05D#00 R
(1720633479.130422) can0 056#00 R
(1720633479.131711) can0 015#00 R
(1720633479.131842) can0 00E#B513 R
(1720633479.131972) can0 00E#B513 R
(1720633479.132134) can0 05C#B513B513 R
(1720633479.132454) can0 016#03 R
(1720633479.132576) can0 041#00 R
(1720633479.132742) can0 05C#B013B013 R
(1720633479.132858) can0 016#03 R
(1720633479.157705) can0 007#00 R
(1720633479.170892) can0 00E#DC12 R
(1720633479.171064) can0 05C#DC12DC12 R
(1720633479.171189) can0 041#00 R
(1720633479.171298) can0 016#02 R
(1720633479.171422) can0 015#00 R
(1720633479.171534) can0 017#00 R
(1720633479.171657) can0 056#00 R
(1720633479.188990) can0 00D#8612 R
(1720633479.189119) can0 05B#8612 R
(1720633479.189234) can0 014#00 R
(1720633479.189352) can0 008#00 R
(1720633479.189472) can0 055#00 R
(1720633479.189590) can0 05D#00 R
(1720633479.190916) can0 00E#7612 R
(1720633479.191047) can0 00E#7612 R
(1720633479.191883) can0 056#00 R
(1720633479.192043) can0 05C#71127112 R
(1720633479.192160) can0 016#02 R
(1720633479.192868) can0 015#00 R
(1720633479.192987) can0 016#02 R
(1720633479.194012) can0 041#00 R
(1720633479.194175) can0 05C#66126612 R
(1720633479.219886) can0 007#00 R
(1720633479.221803) can0 00E#D311 R
(1720633479.221960) can0 05C#D311D311 R
(1720633479.222080) can0 041#00 R
(1720633479.222199) can0 016#02 R
(1720633479.222313) can0 015#00 R
(1720633479.222431) can0 017#00 R
(1720633479.222549) can0 056#00 R
(1720633479.251028) can0 00D#4111 R
(1720633479.251160) can0 05B#4111 R
(1720633479.251275) can0 014#00 R
(1720633479.251392) can0 008#00 R
(1720633479.251512) can0 055#00 R
(1720633479.251630) can0 05D#00 R
(1720633479.253945) can0 056#00 R
(1720633479.254073) can0 00E#2C11 R
(1720633479.254883) can0 00E#2711 R
(1720633479.255049) can0 05C#27112711 R
(1720633479.255167) can0 016#02 R
(1720633479.255827) can0 015#00 R
(1720633479.255944) can0 016#02 R
(1720633479.256064) can0 041#00 R
(1720633479.256758) can0 05C#1D111D11 R
(1720633479.271818) can0 00E#D010 R
(1720633479.271982) can0 05C#D010D010 R
(1720633479.272105) can0 041#00 R
(1720633479.272219) can0 016#02 R
(1720633479.272341) can0 015#00 R
(1720633479.272457) can0 017#00 R
(1720633479.272581) can0 056#00 R
(1720633479.281776) can0 007#00 R
(1720633479.311782) can0 00D#0B10 R
(1720633479.311916) can0 05B#0B10 R
(1720633479.312033) can0 014#00 R
(1720633479.312152) can0 008#00 R
(1720633479.312265) can0 055#00 R
(1720633479.312388) can0 05D#00 R
(1720633479.313763) can0 00E#FC0F R
(1720633479.314661) can0 056#00 R
(1720633479.314797) can0 00E#F70F R
(1720633479.314985) can0 05C#F70FF70F R
(1720633479.315067) can0 016#02 R
(1720633479.315707) can0 015#00 R
(1720633479.315822) can0 016#02 R
(1720633479.315945) can0 041#00 R
(1720633479.316114) can0 05C#F20FF20F R
(1720633479.321660) can0 00E#D50F R
(1720633479.321820) can0 05C#D50FD50F R
(1720633479.321941) can0 041#00 R
(1720633479.322061) can0 016#02 R
(1720633479.322178) can0 015#00 R
(1720633479.322301) can0 017#00 R
(1720633479.322421) can0 056#00 R
(1720633479.341819) can0 007#00 R
(1720633479.371667) can0 00D#E50E R
(1720633479.371803) can0 00E#E00E R
(1720633479.371932) can0 05B#E50E R
(1720633479.372049) can0 014#00 R
(1720633479.372166) can0 008#00 R
(1720633479.372287) can0 055#00 R
(1720633479.372451) can0 05C#E00EE00E R
(1720633479.372575) can0 041#00 R
(1720633479.372690) can0 016#02 R
(1720633479.372809) can0 05D#00 R
(1720633479.372928) can0 015#00 R
(1720633479.373044) can0 017#00 R
(1720633479.373164) can0 056#00 R
(1720633479.374847) can0 056#00 R
(1720633479.374983) can0 00E#D20E R
(1720633479.375113) can0 00E#D20E R
(1720633479.375282) can0 05C#D20ED20E R
(1720633479.376869) can0 015#00 R
(1720633479.376988) can0 016#02 R
(1720633479.377111) can0 041#00 R
(1720633479.377227) can0 016#02 R
(1720633479.378766) can0 05C#BF0EBF0E R
(1720633479.402734) can0 007#00 R
(1720633479.421242) can0 00E#F30D R
(1720633479.421405) can0 05C#F30DF30D R
(1720633479.421524) can0 041#00 R
(1720633479.421641) can0 016#02 R
(1720633479.421757) can0 015#00 R
(1720633479.421888) can0 017#00 R
(1720633479.421996) can0 056#00 R
(1720633479.433550) can0 00D#C40D R
(1720633479.433683) can0 05B#C40D R
(1720633479.433803) can0 014#00 R
(1720633479.433913) can0 008#00 R
(1720633479.434038) can0 055#00 R
(1720633479.434151) can0 05D#00 R
(1720633479.436169) can0 056#00 R
(1720633479.436300) can0 00E#AD0D R
(1720633479.436430) can0 00E#AD0D R
(1720633479.437160) can0 015#00 R
(1720633479.437278) can0 016#02 R
(1720633479.437438) can0 05C#A90DA90D R
(1720633479.437561) can0 016#02 R
(1720633479.438188) can0 041#00 R
(1720633479.438358) can0 05C#A40DA40D R
(1720633479.464143) can0 007#00 R
(1720633479.471307) can0 00E#0D0D R
(1720633479.471468) can0 05C#0D0D0D0D R
(1720633479.471592) can0 041#00 R
(1720633479.471711) can0 016#02 R
(1720633479.471834) can0 015#00 R
(1720633479.471948) can0 017#00 R
(1720633479.472064) can0 056#00 R
(1720633479.495132) can0 00D#AA0C R
(1720633479.495263) can0 05B#AA0C R
(1720633479.495386) can0 014#00 R
(1720633479.495497) can0 008#00 R
(1720633479.495621) can0 055#00 R
(1720633479.495735) can0 05D#00 R
(1720633479.497198) can0 00E#980C R
(1720633479.497959) can0 056#00 R
(1720633479.498094) can0 00E#940C R
(1720633479.498319) can0 05C#940C940C R
(1720633479.498435) can0 016#01 R
(1720633479.499174) can0 015#00 R
(1720633479.499291) can0 016#01 R
(1720633479.499412) can0 041#00 R
(1720633479.500000) can0 05C#8F0C8F0C R
(1720633479.521204) can0 00E#2E0C R
(1720633479.521369) can0 05C#2E0C2E0C R
(1720633479.521492) can0 041#00 R
(1720633479.521606) can0 016#01 R
(1720633479.521727) can0 015#00 R
(1720633479.521842) can0 017#00 R
(1720633479.521966) can0 056#00 R
(1720633479.525335) can0 007#00 R
(1720633479.556784) can0 00D#9B0B R
(1720633479.556916) can0 05B#9B0B R
(1720633479.557035) can0 014#00 R
(1720633479.557157) can0 008#00 R
(1720633479.557274) can0 055#00 R
(1720633479.557393) can0 05D#00 R
(1720633479.558517) can0 00E#8E0B R
(1720633479.559433) can0 056#00 R
(1720633479.559566) can0 00E#8A0B R
(1720633479.559730) can0 05C#8A0B8A0B R
(1720633479.559847) can0 016#01 R
(1720633479.561517) can0 015#00 R
(1720633479.561636) can0 016#01 R
(1720633479.561758) can0 041#00 R
(1720633479.561925) can0 05C#810B810B R
(1720633479.571304) can0 00E#570B R
(1720633479.571463) can0 05C#570B570B R
(1720633479.571592) can0 041#00 R
(1720633479.571701) can0 016#01 R
(1720633479.571824) can0 015#00 R
(1720633479.571937) can0 017#00 R
(1720633479.572059) can0 056#00 R
(1720633479.587691) can0 007#00 R
(1720633479.618382) can0 00D#9B0A R
(1720633479.618507) can0 05B#9B0A R
(1720633479.618631) can0 014#00 R
(1720633479.618745) can0 008#00 R
(1720633479.618867) can0 055#00 R
(1720633479.618991) can0 05D#00 R
(1720633479.621162) can0 056#00 R
(1720633479.621294) can0 00E#860A R
(1720633479.621429) can0 00E#860A R
(1720633479.621597) can0 05C#860A860A R
(1720633479.621733) can0 00E#860A R
(1720633479.621902) can0 05C#860A860A R
(1720633479.622022) can0 041#00 R
(1720633479.622139) can0 016#01 R
(1720633479.622258) can0 015#00 R
(1720633479.622374) can0 017#00 R
(1720633479.622494) can0 056#00 R
(1720633479.622609) can0 016#01 R
(1720633479.623120) can0 015#00 R
(1720633479.623240) can0 016#01 R
(1720633479.623361) can0 041#00 R
(1720633479.624322) can0 05C#7A0A7A0A R
(1720633479.648220) can0 007#00 R
(1720633479.670815) can0 00E#BE09 R
(1720633479.670990) can0 05C#BE09BE09 R
(1720633479.671107) can0 041#00 R
(1720633479.671224) can0 016#01 R
(1720633479.671344) can0 015#00 R
(1720633479.671460) can0 017#00 R
(1720633479.671582) can0 056#00 R
(1720633479.679012) can0 00D#A609 R
(1720633479.679141) can0 05B#A609 R
(1720633479.679258) can0 014#00 R
(1720633479.679374) can0 008#00 R
(1720633479.679497) can0 055#00 R
(1720633479.679612) can0 05D#00 R
(1720633479.683660) can0 056#00 R
(1720633479.683792) can0 00E#8F09 R
(1720633479.683921) can0 00E#8F09 R
(1720633479.684733) can0 05C#8B098B09 R
(1720633479.684851) can0 016#01 R
(1720633479.688862) can0 015#00 R
(1720633479.688978) can0 016#01 R
(1720633479.689102) can0 041#00 R
(1720633479.689261) can0 05C#7B097B09 R
(1720633479.709739) can0 007#00 R
(1720633479.721507) can0 00E#FD08 R
(1720633479.721680) can0 05C#FD08FD08 R
(1720633479.721792) can0 041#00 R
(1720633479.721912) can0 016#01 R
(1720633479.722028) can0 015#00 R
(1720633479.722145) can0 017#00 R
(1720633479.722259) can0 056#00 R
(1720633479.740832) can0 00D#B908 R
(1720633479.740964) can0 05B#B908 R
(1720633479.741081) can0 014#00 R
(1720633479.741196) can0 008#00 R
(1720633479.741318) can0 055#00 R
(1720633479.741433) can0 05D#00 R
(1720633479.743619) can0 056#00 R
(1720633479.743752) can0 00E#AA08 R
(1720633479.744748) can0 00E#A608 R
(1720633479.744914) can0 05C#A608A608 R
(1720633479.745031) can0 016#01 R
(1720633479.746648) can0 015#00 R
(1720633479.746766) can0 016#01 R
(1720633479.746887) can0 041#00 R
(1720633479.747061) can0 05C#9F089F08 R
(1720633479.771753) can0 007#00 R
(1720633479.771888) can0 00E#4308 R
(1720633479.772046) can0 05C#43084308 R
(1720633479.772167) can0 041#00 R
(1720633479.772284) can0 016#01 R
(1720633479.772403) can0 015#00 R
(1720633479.772526) can0 017#00 R
(1720633479.772644) can0 056#00 R
(1720633479.802373) can0 00D#DB07 R
(1720633479.802512) can0 05B#DB07 R
(1720633479.802764) can0 014#00 R
(1720633479.802888) can0 008#00 R
(1720633479.803007) can0 055#00 R
(1720633479.803127) can0 05D#00 R
(1720633479.805065) can0 056#00 R
(1720633479.805196) can0 00E#C907 R
(1720633479.806039) can0 015#00 R
(1720633479.806159) can0 016#01 R
(1720633479.806292) can0 00E#C507 R
(1720633479.806478) can0 05C#C507C507 R
(1720633479.806580) can0 016#01 R
(1720633479.807229) can0 041#00 R
(1720633479.807407) can0 05C#C207C207 R
(1720633479.821164) can0 00E#9107 R
(1720633479.821333) can0 05C#91079107 R
(1720633479.821454) can0 041#00 R
(1720633479.821573) can0 016#01 R
(1720633479.821691) can0 015#00 R
(1720633479.821812) can0 017#00 R
(1720633479.821928) can0 056#00 R
(1720633479.832625) can0 007#00 R
(1720633479.863623) can0 00D#0807 R
(1720633479.863756) can0 05B#0807 R
(1720633479.863869) can0 014#00 R
(1720633479.863987) can0 008#00 R
(1720633479.864106) can0 055#00 R
(1720633479.864225) can0 05D#00 R
(1720633479.866252) can0 056#00 R
(1720633479.867258) can0 015#00 R
(1720633479.867373) can0 016#01 R
(1720633479.867495) can0 041#00 R
(1720633479.867628) can0 00E#F406 R
(1720633479.867770) can0 00E#F406 R
(1720633479.867926) can0 05C#F406F406 R
(1720633479.868233) can0 05C#F006F006 R
(1720633479.868350) can0 016#01 R
(1720633479.871112) can0 00E#E606 R
(1720633479.871275) can0 05C#E606E606 R
(1720633479.871396) can0 041#00 R
(1720633479.871512) can0 016#01 R
(1720633479.871632) can0 015#00 R
(1720633479.871747) can0 017#00 R
(1720633479.871868) can0 056#00 R
(1720633479.893424) can0 007#00 R
(1720633479.920827) can0 00E#4306 R
(1720633479.920999) can0 05C#43064306 R
(1720633479.921111) can0 041#00 R
(1720633479.921228) can0 016#00 R
(1720633479.921347) can0 015#00 R
(1720633479.921463) can0 017#00 R
(1720633479.921583) can0 056#00 R
(1720633479.923938) can0 00D#4006 R
(1720633479.924069) can0 05B#4006 R
(1720633479.924197) can0 014#00 R
(1720633479.924315) can0 008#00 R
(1720633479.924436) can0 055#00 R
(1720633479.924552) can0 05D#00 R
(1720633479.925874) can0 00E#3306 R
(1720633479.926007) can0 00E#3306 R
(1720633479.926637) can0 015#00 R
(1720633479.926750) can0 016#00 R
(1720633479.926874) can0 041#00 R
(1720633479.927020) can0 056#00 R
(1720633479.927161) can0 05C#30063006 R
(1720633479.927275) can0 016#00 R
(1720633479.927770) can0 05C#2D062D06 R
(1720633479.954579) can0 007#00 R
(1720633479.970867) can0 00E#A805 R
(1720633479.971058) can0 05C#A805A805 R
(1720633479.971162) can0 041#00 R
(1720633479.971269) can0 016#00 R
(1720633479.971391) can0 015#00 R
(1720633479.971507) can0 017#00 R
(1720633479.971627) can0 056#00 R
(1720633479.986057) can0 00D#8105 R
(1720633479.986192) can0 05B#8105 R
(1720633479.986306) can0 014#00 R
(1720633479.986425) can0 008#00 R
(1720633479.986545) can0 055#00 R
(1720633479.986662) can0 05D#00 R
(1720633479.988562) can0 056#00 R
(1720633479.988692) can0 00E#7205 R
(1720633479.989784) can0 00E#6F05 R
(1720633479.989952) can0 05C#6F056F05 R
(1720633479.990065) can0 016#00 R
(1720633479.990794) can0 015#00 R
(1720633479.990907) can0 016#00 R
(1720633479.991030) can0 041#00 R
(1720633479.991204) can0 05C#6C056C05 R
(1720633480.016412) can0 007#00 R
(1720633480.021345) can0 00E#1505 R
(1720633480.021513) can0 05C#15051505 R
(1720633480.021632) can0 041#00 R
(1720633480.021751) can0 016#00 R
(1720633480.021875) can0 015#00 R
(1720633480.021986) can0 017#00 R
(1720633480.022111) can0 056#00 R
(1720633480.047099) can0 00D#D104 R
(1720633480.047233) can0 05B#D104 R
(1720633480.047345) can0 014#00 R
(1720633480.047467) can0 008#00 R
(1720633480.047586) can0 055#00 R
(1720633480.047705) can0 05D#00 R
(1720633480.048994) can0 00E#C504 R
(1720633480.049933) can0 056#00 R
(1720633480.050067) can0 00E#C304 R
(1720633480.050236) can0 05C#C304C304 R
(1720633480.050345) can0 016#00 R
(1720633480.050788) can0 015#00 R
(1720633480.050901) can0 016#00 R
(1720633480.051027) can0 041#00 R
(1720633480.051881) can0 05C#BD04BD04 R
(1720633480.071257) can0 00E#8904 R
(1720633480.071424) can0 05C#89048904 R
(1720633480.071544) can0 041#00 R
(1720633480.071660) can0 016#00 R
(1720633480.071779) can0 015#00 R
(1720633480.071895) can0 017#00 R
(1720633480.072015) can0 056#00 R
(1720633480.078222) can0 007#00 R
(1720633480.109305) can0 00D#2904 R
(1720633480.109427) can0 05B#2904 R
(1720633480.109546) can0 014#00 R
(1720633480.109658) can0 008#00 R
(1720633480.109777) can0 055#00 R
(1720633480.109896) can0 05D#00 R
(1720633480.111940) can0 056#00 R
(1720633480.112074) can0 00E#1C04 R
(1720633480.112207) can0 00E#1C04 R
(1720633480.112378) can0 05C#1C041C04 R
(1720633480.113035) can0 016#00 R
(1720633480.114070) can0 015#00 R
(1720633480.114181) can0 016#00 R
(1720633480.114306) can0 041#00 R
(1720633480.114964) can0 05C#14041404 R
(1720633480.122397) can0 00E#0204 R
(1720633480.122557) can0 05C#02040204 R
(1720633480.122678) can0 041#00 R
(1720633480.122789) can0 016#00 R
(1720633480.122914) can0 015#00 R
(1720633480.123032) can0 017#00 R
(1720633480.123146) can0 056#00 R
(1720633480.139882) can0 007#00 R
(1720633480.170477) can0 00D#8E03 R
(1720633480.170609) can0 05B#8E03 R
(1720633480.170722) can0 014#00 R
(1720633480.170840) can0 008#00 R
(1720633480.170984) can0 055#00 R
(1720633480.171078) can0 05D#00 R
(1720633480.172321) can0 00E#8603 R
(1720633480.172488) can0 05C#86038603 R
(1720633480.172610) can0 041#00 R
(1720633480.172724) can0 016#00 R
(1720633480.172845) can0 015#00 R
(1720633480.172960) can0 017#00 R
(1720633480.173081) can0 056#00 R
(1720633480.173201) can0 056#00 R
(1720633480.173336) can0 00E#8403 R
(1720633480.173476) can0 00E#8403 R
(1720633480.174183) can0 05C#82038203 R
(1720633480.174296) can0 016#00 R
(1720633480.175005) can0 015#00 R
(1720633480.175114) can0 016#00 R
(1720633480.175238) can0 041#00 R
(1720633480.175413) can0 05C#7F037F03 R
(1720633480.200224) can0 007#00 R
(1720633480.221869) can0 00E#1203 R
(1720633480.222039) can0 05C#12031203 R
(1720633480.222150) can0 041#00 R
(1720633480.222268) can0 016#00 R
(1720633480.222388) can0 015#00 R
(1720633480.222503) can0 017#00 R
(1720633480.222625) can0 056#00 R
(1720633480.231275) can0 00D#0103 R
(1720633480.231409) can0 05B#0103 R
(1720633480.231526) can0 014#00 R
(1720633480.231642) can0 008#00 R
(1720633480.231764) can0 055#00 R
(1720633480.231880) can0 05D#00 R
(1720633480.233087) can0 00E#FA02 R
(1720633480.234214) can0 056#00 R
(1720633480.234352) can0 00E#F802 R
(1720633480.234526) can0 05C#F802F802 R
(1720633480.234640) can0 016#00 R
(1720633480.235192) can0 015#00 R
(1720633480.235306) can0 016#00 R
(1720633480.236039) can0 041#00 R
(1720633480.236213) can0 05C#F302F302 R
(1720633480.262765) can0 007#00 R
(1720633480.271733) can0 00E#A602 R
(1720633480.271900) can0 05C#A602A602 R
(1720633480.272023) can0 041#00 R
(1720633480.272137) can0 016#00 R
(1720633480.272258) can0 015#00 R
(1720633480.272372) can0 017#00 R
(1720633480.272494) can0 056#00 R
(1720633480.292604) can0 00D#7F02 R
(1720633480.292739) can0 05B#7F02 R
(1720633480.292854) can0 014#00 R
(1720633480.292976) can0 008#00 R
(1720633480.293091) can0 055#00 R
(1720633480.293214) can0 05D#00 R
(1720633480.294612) can0 00E#7702 R
(1720633480.295511) can0 015#00 R
(1720633480.295627) can0 016#00 R
(1720633480.295746) can0 056#00 R
(1720633480.295880) can0 00E#7502 R
(1720633480.296051) can0 05C#75027502 R
(1720633480.296166) can0 016#00 R
(1720633480.296363) can0 041#00 R
(1720633480.296534) can0 05C#73027302 R
(1720633480.322413) can0 00E#4202 R
(1720633480.322585) can0 05C#42024202 R
(1720633480.322689) can0 041#00 R
(1720633480.322810) can0 016#00 R
(1720633480.322924) can0 015#00 R
(1720633480.323021) can0 017#00 R
(1720633480.323161) can0 056#00 R
(1720633480.323276) can0 007#00 R
(1720633480.353591) can0 00D#0A02 R
(1720633480.353725) can0 05B#0A02 R
(1720633480.353841) can0 014#00 R
(1720633480.353958) can0 008#00 R
(1720633480.354079) can0 055#00 R
(1720633480.354195) can0 05D#00 R
(1720633480.355376) can0 056#00 R
(1720633480.356608) can0 015#00 R
(1720633480.356747) can0 00E#0102 R
(1720633480.356878) can0 00E#0102 R
(1720633480.357049) can0 05C#01020102 R
(1720633480.357438) can0 016#00 R
(1720633480.357560) can0 041#00 R
(1720633480.357733) can0 05C#FF01FF01 R
(1720633480.357847) can0 016#00 R
(1720633480.372406) can0 00E#E601 R
(1720633480.372570) can0 05C#E601E601 R
(1720633480.372688) can0 041#00 R
(1720633480.372806) can0 016#00 R
(1720633480.372924) can0 015#00 R
(1720633480.373041) can0 017#00 R
(1720633480.373162) can0 056#00 R
(1720633480.384488) can0 007#00 R
(1720633480.416215) can0 00D#9D01 R
(1720633480.416345) can0 05B#9D01 R
(1720633480.416520) can0 014#00 R
(1720633480.416637) can0 008#00 R
(1720633480.416757) can0 055#00 R
(1720633480.416873) can0 05D#00 R
(1720633480.418194) can0 00E#9801 R
(1720633480.418333) can0 00E#9801 R
(1720633480.419012) can0 056#00 R
(1720633480.419175) can0 05C#96019601 R
(1720633480.419288) can0 016#00 R
(1720633480.421162) can0 015#00 R
(1720633480.421276) can0 016#00 R
(1720633480.421399) can0 041#00 R
(1720633480.421976) can0 05C#91019101 R
(1720633480.422107) can0 00E#9101 R
(1720633480.422284) can0 05C#91019101 R
(1720633480.422400) can0 041#00 R
(1720633480.422514) can0 016#00 R
(1720633480.422634) can0 015#00 R
(1720633480.422745) can0 017#00 R
(1720633480.422868) can0 056#00 R
(1720633480.447433) can0 007#00 R
(1720633480.471561) can0 00E#4501 R
(1720633480.471733) can0 05C#45014501 R
(1720633480.471847) can0 041#00 R
(1720633480.471966) can0 016#00 R
(1720633480.472085) can0 015#00 R
(1720633480.472200) can0 017#00 R
(1720633480.472320) can0 056#00 R
(1720633480.477981) can0 00D#3F01 R
(1720633480.478120) can0 05B#3F01 R
(1720633480.478237) can0 014#00 R
(1720633480.478351) can0 008#00 R
(1720633480.478475) can0 055#00 R
(1720633480.478595) can0 05D#00 R
(1720633480.479968) can0 056#00 R
(1720633480.481108) can0 00E#3801 R
(1720633480.481709) can0 015#00 R
(1720633480.481824) can0 016#00 R
(1720633480.481956) can0 00E#3701 R
(1720633480.482125) can0 05C#37013701 R
(1720633480.482239) can0 016#00 R
(1720633480.482665) can0 041#00 R
(1720633480.482837) can0 05C#35013501 R
(1720633480.508219) can0 007#00 R
(1720633480.521531) can0 00E#0101 R
(1720633480.521698) can0 05C#01010101 R
(1720633480.521818) can0 041#00 R
(1720633480.521940) can0 016#00 R
(1720633480.522053) can0 015#00 R
(1720633480.522171) can0 017#00 R
(1720633480.522289) can0 056#00 R
(1720633480.538669) can0 00D#EE00 R
(1720633480.538795) can0 05B#EE00 R
(1720633480.538912) can0 014#00 R
(1720633480.539039) can0 008#00 R
(1720633480.539154) can0 055#00 R
(1720633480.539266) can0 05D#00 R
(1720633480.540649) can0 00E#E900 R
(1720633480.541224) can0 015#00 R
(1720633480.541339) can0 016#00 R
(1720633480.541462) can0 041#00 R
(1720633480.541581) can0 056#00 R
(1720633480.541714) can0 00E#E700 R
(1720633480.541885) can0 05C#E700E700 R
(1720633480.542004) can0 016#00 R
(1720633480.542375) can0 05C#E600E600 R
(1720633480.569167) can0 007#00 R
(1720633480.571794) can0 00E#C400 R
(1720633480.571963) can0 05C#C400C400 R
(1720633480.572082) can0 041#00 R
(1720633480.572199) can0 016#00 R
(1720633480.572318) can0 015#00 R
(1720633480.572434) can0 017#00 R
(1720633480.572555) can0 056#00 R
(1720633480.600099) can0 00D#A700 R
(1720633480.600226) can0 05B#A700 R
(1720633480.600342) can0 014#00 R
(1720633480.600458) can0 008#00 R
(1720633480.600579) can0 055#00 R
(1720633480.600695) can0 05D#00 R
(1720633480.602256) can0 056#00 R
(1720633480.604196) can0 00E#A200 R
(1720633480.604328) can0 00E#A200 R
(1720633480.604495) can0 05C#A200A200 R
(1720633480.606131) can0 015#00 R
(1720633480.606243) can0 016#00 R
(1720633480.606367) can0 041#00 R
(1720633480.606542) can0 05C#A000A000 R
(1720633480.606657) can0 016#00 R
(1720633480.626720) can0 00E#8B00 R
(1720633480.626873) can0 05C#8B008B00 R
(1720633480.627023) can0 041#00 R
(1720633480.627119) can0 016#00 R
(1720633480.627229) can0 015#00 R
(1720633480.627347) can0 017#00 R
(1720633480.627466) can0 056#00 R
(1720633480.630289) can0 007#00 R
(1720633480.662183) can0 00D#6D00 R
(1720633480.662313) can0 05B#6D00 R
(1720633480.662431) can0 014#00 R
(1720633480.662548) can0 008#00 R
(1720633480.662669) can0 055#00 R
(1720633480.662786) can0 05D#00 R
(1720633480.665023) can0 056#00 R
(1720633480.665156) can0 00E#6900 R
(1720633480.665293) can0 00E#6900 R
(1720633480.665957) can0 015#00 R
(1720633480.666076) can0 016#00 R
(1720633480.666194) can0 041#00 R
(1720633480.666364) can0 05C#69006900 R
(1720633480.666477) can0 016#00 R
(1720633480.667210) can0 05C#68006800 R
(1720633480.676495) can0 00E#6000 R
(1720633480.676667) can0 05C#60006000 R
(1720633480.676789) can0 041#00 R
(1720633480.676906) can0 016#00 R
(1720633480.677026) can0 015#00 R
(1720633480.677141) can0 017#00 R
(1720633480.677262) can0 056#00 R
(1720633480.692861) can0 007#00 R
(1720633480.723757) can0 00D#4000 R
(1720633480.723889) can0 05B#4000 R
(1720633480.724002) can0 014#00 R
(1720633480.724121) can0 008#00 R
(1720633480.724243) can0 055#00 R
(1720633480.724361) can0 05D#00 R
(1720633480.726537) can0 056#00 R
(1720633480.726682) can0 00E#3C00 R
(1720633480.726807) can0 00E#3C00 R
(1720633480.727007) can0 05C#3C003C00 R
(1720633480.727072) can0 041#00 R
(1720633480.727216) can0 016#00 R
(1720633480.727334) can0 015#00 R
(1720633480.727450) can0 017#00 R
(1720633480.727572) can0 056#00 R
(1720633480.727695) can0 015#00 R
(1720633480.727808) can0 016#00 R
(1720633480.727936) can0 041#00 R
(1720633480.728071) can0 00E#3C00 R
(1720633480.728238) can0 05C#3C003C00 R
(1720633480.728351) can0 016#00 R
(1720633480.728552) can0 05C#3B003B00 R
(1720633480.754766) can0 007#00 R
(1720633480.776409) can0 00E#2100 R
(1720633480.776575) can0 05C#21002100 R
(1720633480.776703) can0 041#00 R
(1720633480.776816) can0 016#00 R
(1720633480.776938) can0 015#00 R
(1720633480.777051) can0 017#00 R
(1720633480.777175) can0 056#00 R
(1720633480.785190) can0 00D#1E00 R
(1720633480.785314) can0 05B#1E00 R
(1720633480.785429) can0 014#00 R
(1720633480.785547) can0 008#00 R
(1720633480.785666) can0 055#00 R
(1720633480.785786) can0 05D#00 R
(1720633480.787912) can0 056#00 R
(1720633480.788045) can0 00E#1C00 R
(1720633480.788784) can0 015#00 R
(1720633480.788916) can0 00E#1C00 R
(1720633480.789089) can0 05C#1C001C00 R
(1720633480.789203) can0 016#00 R
(1720633480.789871) can0 016#00 R
(1720633480.789994) can0 041#00 R
(1720633480.790166) can0 05C#1B001B00 R
(1720633480.815385) can0 007#00 R
(1720633480.826604) can0 00E#0E00 R
(1720633480.826777) can0 05C#0E000E00 R
(1720633480.826897) can0 041#00 R
(1720633480.827022) can0 016#00 R
(1720633480.827131) can0 015#00 R
(1720633480.827249) can0 017#00 R
(1720633480.827367) can0 056#00 R
(1720633480.846161) can0 00D#0900 R
(1720633480.846292) can0 05B#0900 R
(1720633480.846408) can0 014#00 R
(1720633480.846527) can0 008#00 R
(1720633480.846647) can0 055#00 R
(1720633480.846764) can0 05D#00 R
(1720633480.848914) can0 056#00 R
(1720633480.849051) can0 00E#0800 R
(1720633480.849189) can0 00E#0800 R
(1720633480.849364) can0 05C#08000800 R
(1720633480.849812) can0 016#00 R
(1720633480.850801) can0 015#00 R
(1720633480.850915) can0 016#00 R
(1720633480.851037) can0 041#00 R
(1720633480.851210) can0 05C#07000700 R
(1720633480.876624) can0 00E#0300 R
(1720633480.876795) can0 05C#03000300 R
(1720633480.876915) can0 041#00 R
(1720633480.877031) can0 016#00 R
(1720633480.877151) can0 015#00 R
(1720633480.877267) can0 017#00 R
(1720633480.877387) can0 056#00 R
(1720633480.877627) can0 007#00 R
(1720633480.908384) can0 00D#0000 R
(1720633480.908520) can0 05B#0000 R
(1720633480.908632) can0 014#00 R
(1720633480.908752) can0 008#00 R
(1720633480.908872) can0 055#00 R
(1720633480.908989) can0 05D#00 R
(1720633480.910116) can0 00E#0000 R
(1720633480.910256) can0 00E#0000 R
(1720633480.911204) can0 015#00 R
(1720633480.911327) can0 056#00 R
(1720633480.911502) can0 05C#00000000 R
(1720633480.911613) can0 016#00 R
(1720633480.912126) can0 016#00 R
(1720633480.912247) can0 041#00 R
(1720633480.912424) can0 05C#00000000 R
(1720633480.926704) can0 00E#0000 R
(1720633480.926872) can0 05C#00000000 R
(1720633480.927013) can0 041#00 R
(1720633480.927106) can0 016#00 R
(1720633480.927228) can0 015#00 R
(1720633480.927342) can0 017#00 R
(1720633480.927463) can0 056#00 R
(1720633480.939269) can0 007#00 R
(1720633480.969621) can0 00D#0300 R
(1720633480.969757) can0 05B#0300 R
(1720633480.969873) can0 014#00 R
(1720633480.969989) can0 008#00 R
(1720633480.970111) can0 055#00 R
(1720633480.970227) can0 05D#00 R
(1720633480.972373) can0 056#00 R
(1720633480.972507) can0 00E#0400 R
(1720633480.973245) can0 015#00 R
(1720633480.973383) can0 00E#0400 R
(1720633480.973554) can0 05C#04000400 R
(1720633480.973671) can0 016#00 R
(1720633480.974527) can0 016#00 R
(1720633480.974642) can0 041#00 R
(1720633480.974818) can0 05C#04000400 R
(1720633480.976351) can0 00E#0500 R
(1720633480.976530) can0 05C#05000500 R
(1720633480.976646) can0 041#00 R
(1720633480.976768) can0 016#00 R
(1720633480.976882) can0 015#00 R
(1720633480.976999) can0 017#00 R
(1720633480.977118) can0 056#00 R
(1720633480.999395) can0 007#00 R
(1720633481.026666) can0 00E#1200 R
(1720633481.026829) can0 05C#12001200 R
(1720633481.026964) can0 041#00 R
(1720633481.027063) can0 016#00 R
(1720633481.027183) can0 015#00 R
(1720633481.027299) can0 017#00 R
(1720633481.027420) can0 056#00 R
(1720633481.029860) can0 00D#1200 R
(1720633481.029990) can0 05B#1200 R
(1720633481.030107) can0 014#00 R
(1720633481.030224) can0 008#00 R
(1720633481.030345) can0 055#00 R
(1720633481.030461) can0 05D#00 R
(1720633481.032370) can0 056#00 R
(1720633481.032509) can0 00E#1400 R
(1720633481.033328) can0 015#00 R
(1720633481.033461) can0 00E#1400 R
(1720633481.033638) can0 05C#14001400 R
(1720633481.033749) can0 016#00 R
(1720633481.034386) can0 016#00 R
(1720633481.034509) can0 041#00 R
(1720633481.034681) can0 05C#15001500 R
(1720633481.060234) can0 007#00 R
(1720633481.076479) can0 00E#2700 R
(1720633481.076643) can0 05C#27002700 R
(1720633481.076763) can0 041#00 R
(1720633481.076880) can0 016#00 R
(1720633481.076998) can0 015#00 R
(1720633481.077115) can0 017#00 R
(1720633481.077235) can0 056#00 R
(1720633481.091005) can0 00D#2E00 R
(1720633481.091113) can0 05B#2E00 R
(1720633481.091228) can0 014#00 R
(1720633481.091345) can0 008#00 R
(1720633481.091465) can0 055#00 R
(1720633481.091583) can0 05D#00 R
(1720633481.094201) can0 056#00 R
(1720633481.094340) can0 00E#3000 R
(1720633481.094476) can0 00E#3000 R
(1720633481.094647) can0 05C#30003000 R
(1720633481.094985) can0 015#00 R
(1720633481.095050) can0 016#00 R
(1720633481.095202) can0 041#00 R
(1720633481.095369) can0 05C#31003100 R
(1720633481.095484) can0 016#00 R
(1720633481.121686) can0 007#00 R
(1720633481.126520) can0 00E#4400 R
(1720633481.126687) can0 05C#44004400 R
(1720633481.126812) can0 041#00 R
(1720633481.126927) can0 016#00 R
(1720633481.127041) can0 015#00 R
(1720633481.127164) can0 017#00 R
(1720633481.127281) can0 056#00 R
(1720633481.151657) can0 00D#5500 R
(1720633481.151840) can0 05B#5500 R
(1720633481.151954) can0 014#00 R
(1720633481.152072) can0 008#00 R
(1720633481.152191) can0 055#00 R
(1720633481.152309) can0 05D#00 R
(1720633481.154634) can0 056#00 R
(1720633481.154773) can0 00E#5800 R
(1720633481.154901) can0 00E#5800 R
(1720633481.155858) can0 015#00 R
(1720633481.155970) can0 016#00 R
(1720633481.156144) can0 05C#5A005A00 R
(1720633481.156258) can0 016#00 R
(1720633481.156707) can0 041#00 R
(1720633481.156877) can0 05C#5A005A00 R
(1720633481.176609) can0 00E#6900 R
(1720633481.176773) can0 05C#69006900 R
(1720633481.176899) can0 041#00 R
(1720633481.177012) can0 016#00 R
(1720633481.177132) can0 015#00 R
(1720633481.177247) can0 017#00 R
(1720633481.177370) can0 056#00 R
(1720633481.182770) can0 007#00 R
(1720633481.213312) can0 00D#8800 R
(1720633481.213445) can0 05B#8800 R
(1720633481.213558) can0 014#00 R
(1720633481.213677) can0 008#00 R
(1720633481.213798) can0 055#00 R
(1720633481.213915) can0 05D#00 R
(1720633481.214884) can0 00E#8C00 R
(1720633481.215904) can0 056#00 R
(1720633481.216035) can0 00E#8D00 R
(1720633481.216202) can0 05C#8D008D00 R
(1720633481.216315) can0 016#00 R
(1720633481.216978) can0 015#00 R
(1720633481.217092) can0 016#00 R
(1720633481.217220) can0 041#00 R
(1720633481.217962) can0 05C#8F008F00 R
(1720633481.226685) can0 00E#9700 R
(1720633481.226843) can0 05C#97009700 R
(1720633481.226991) can0 041#00 R
(1720633481.227087) can0 016#00 R
(1720633481.227197) can0 015#00 R
(1720633481.227313) can0 017#00 R
(1720633481.227433) can0 056#00 R
(1720633481.243590) can0 007#00 R
(1720633481.274827) can0 00D#C900 R
(1720633481.274984) can0 05B#C900 R
(1720633481.275060) can0 014#00 R
(1720633481.275194) can0 008#00 R
(1720633481.275311) can0 055#00 R
(1720633481.275430) can0 05D#00 R
(1720633481.276666) can0 056#00 R
(1720633481.276809) can0 00E#CC00 R
(1720633481.276935) can0 00E#CC00 R
(1720633481.277113) can0 05C#CC00CC00 R
(1720633481.277227) can0 041#00 R
(1720633481.277348) can0 016#00 R
(1720633481.277465) can0 015#00 R
(1720633481.277586) can0 017#00 R
(1720633481.277711) can0 056#00 R
(1720633481.277836) can0 00E#CD00 R
(1720633481.278003) can0 05C#CD00CD00 R
(1720633481.278117) can0 016#00 R
(1720633481.278711) can0 015#00 R
(1720633481.278823) can0 016#00 R
(1720633481.278966) can0 041#00 R
(1720633481.279609) can0 05C#D000D000 R
(1720633481.305575) can0 007#00 R
(1720633481.326450) can0 00E#0A01 R
(1720633481.326631) can0 05C#0A010A01 R
(1720633481.326741) can0 041#00 R
(1720633481.326860) can0 016#00 R
(1720633481.327009) can0 015#00 R
(1720633481.327100) can0 017#00 R
(1720633481.327216) can0 056#00 R
(1720633481.335807) can0 00D#1401 R
(1720633481.335939) can0 05B#1401 R
(1720633481.336053) can0 014#00 R
(1720633481.336172) can0 008#00 R
(1720633481.336290) can0 055#00 R
(1720633481.336410) can0 05D#00 R
(1720633481.338703) can0 056#00 R
(1720633481.340028) can0 015#00 R
(1720633481.340146) can0 016#00 R
(1720633481.340266) can0 041#00 R
(1720633481.340400) can0 00E#1C01 R
(1720633481.340534) can0 00E#1C01 R
(1720633481.340702) can0 05C#1C011C01 R
(1720633481.340918) can0 05C#1E011E01 R
(1720633481.341030) can0 016#00 R
(1720633481.366961) can0 007#00 R
(1720633481.378179) can0 00E#5201 R
(1720633481.378346) can0 05C#52015201 R
(1720633481.378467) can0 041#00 R
(1720633481.378582) can0 016#00 R
(1720633481.378703) can0 015#00 R
(1720633481.378818) can0 017#00 R
(1720633481.378960) can0 056#00 R
(1720633481.398995) can0 00D#6F01 R
(1720633481.399101) can0 05B#6F01 R
(1720633481.399215) can0 014#00 R
(1720633481.399334) can0 008#00 R
(1720633481.399453) can0 055#00 R
(1720633481.399573) can0 05D#00 R
(1720633481.400779) can0 056#00 R
(1720633481.400912) can0 00E#7501 R
(1720633481.401043) can0 00E#7501 R
(1720633481.401852) can0 05C#76017601 R
(1720633481.401966) can0 016#00 R
(1720633481.402602) can0 015#00 R
(1720633481.402715) can0 016#00 R
(1720633481.402839) can0 041#00 R
(1720633481.403913) can0 05C#7A017A01 R
(1720633481.427832) can0 00E#A001 R
(1720633481.427997) can0 05C#A001A001 R
(1720633481.428112) can0 041#00 R
(1720633481.428229) can0 016#00 R
(1720633481.428348) can0 015#00 R
(1720633481.428468) can0 017#00 R
(1720633481.428586) can0 056#00 R
(1720633481.429922) can0 007#00 R
(1720633481.460940) can0 00D#D401 R
(1720633481.461072) can0 05B#D401 R
(1720633481.461189) can0 014#00 R
(1720633481.461305) can0 008#00 R
(1720633481.461425) can0 055#00 R
(1720633481.461546) can0 05D#00 R
(1720633481.462828) can0 056#00 R
(1720633481.462987) can0 00E#DB01 R
(1720633481.463693) can0 015#00 R
(1720633481.463805) can0 016#00 R
(1720633481.463940) can0 00E#DD01 R
(1720633481.464106) can0 05C#DD01DD01 R
(1720633481.464220) can0 016#00 R
(1720633481.464694) can0 041#00 R
(1720633481.464862) can0 05C#DF01DF01 R
(1720633481.478200) can0 00E#F601 R
(1720633481.478367) can0 05C#F601F601 R
(1720633481.478489) can0 041#00 R
(1720633481.478611) can0 016#00 R
(1720633481.478725) can0 015#00 R
(1720633481.478847) can0 017#00 R
(1720633481.478986) can0 056#00 R
(1720633481.491633) can0 007#00 R
(1720633481.522744) can0 00D#4602 R
(1720633481.522880) can0 05B#4602 R
(1720633481.523019) can0 014#00 R
(1720633481.523115) can0 008#00 R
(1720633481.523232) can0 055#00 R
(1720633481.523351) can0 05D#00 R
(1720633481.524802) can0 056#00 R
(1720633481.524932) can0 00E#4E02 R
(1720633481.525581) can0 015#00 R
(1720633481.525709) can0 00E#5002 R
(1720633481.525881) can0 05C#50025002 R
(1720633481.525993) can0 016#00 R
(1720633481.526691) can0 016#00 R
(1720633481.526817) can0 041#00 R
(1720633481.526987) can0 05C#51025102 R
(1720633481.527735) can0 00E#5302 R
(1720633481.527906) can0 05C#53025302 R
(1720633481.528021) can0 041#00 R
(1720633481.528137) can0 016#00 R
(1720633481.528258) can0 015#00 R
(1720633481.528373) can0 017#00 R
(1720633481.528493) can0 056#00 R
(1720633481.553943) can0 007#00 R
(1720633481.578252) can0 00E#B902 R
(1720633481.578418) can0 05C#B902B902 R
(1720633481.578541) can0 041#00 R
(1720633481.578652) can0 016#00 R
(1720633481.578777) can0 015#00 R
(1720633481.578886) can0 017#00 R
(1720633481.579022) can0 056#00 R
(1720633481.585737) can0 00D#C602 R
(1720633481.585871) can0 05B#C602 R
(1720633481.585983) can0 014#00 R
(1720633481.586104) can0 008#00 R
(1720633481.586222) can0 055#00 R
(1720633481.586341) can0 05D#00 R
(1720633481.588620) can0 056#00 R
(1720633481.589794) can0 015#00 R
(1720633481.589912) can0 016#00 R
(1720633481.590041) can0 00E#D302 R
(1720633481.590185) can0 00E#D302 R
(1720633481.590343) can0 05C#D302D302 R
(1720633481.590696) can0 041#00 R
(1720633481.590862) can0 05C#D502D502 R
(1720633481.590998) can0 016#00 R
(1720633481.616069) can0 007#00 R
(1720633481.627456) can0 00E#2703 R
(1720633481.627623) can0 05C#27032703 R
(1720633481.627753) can0 041#00 R
(1720633481.627856) can0 016#00 R
(1720633481.627975) can0 015#00 R
(1720633481.628093) can0 017#00 R
(1720633481.628212) can0 056#00 R
(1720633481.646882) can0 00D#4E03 R
(1720633481.647017) can0 05B#4E03 R
(1720633481.647146) can0 014#00 R
(1720633481.647260) can0 008#00 R
(1720633481.647382) can0 055#00 R
(1720633481.647501) can0 05D#00 R
(1720633481.648833) can0 056#00 R
(1720633481.649714) can0 00E#5903 R
(1720633481.649843) can0 00E#5903 R
(1720633481.650675) can0 05C#5C035C03 R
(1720633481.650791) can0 016#00 R
(1720633481.651767) can0 015#00 R
(1720633481.651878) can0 016#00 R
(1720633481.652003) can0 041#00 R
(1720633481.654372) can0 05C#63036303 R
(1720633481.678377) can0 007#00 R
(1720633481.678511) can0 00E#9C03 R
(1720633481.678679) can0 05C#9C039C03 R
(1720633481.678800) can0 041#00 R
(1720633481.678915) can0 016#00 R
(1720633481.679034) can0 015#00 R
(1720633481.679151) can0 017#00 R
(1720633481.679272) can0 056#00 R
(1720633481.709574) can0 00D#E603 R
(1720633481.709707) can0 05B#E603 R
(1720633481.709816) can0 014#00 R
(1720633481.709935) can0 008#00 R
(1720633481.710056) can0 055#00 R
(1720633481.710174) can0 05D#00 R
(1720633481.711267) can0 00E#EE03 R
(1720633481.712295) can0 056#00 R
(1720633481.712425) can0 00E#F103 R
(1720633481.712595) can0 05C#F103F103 R
(1720633481.712708) can0 016#00 R
(1720633481.713370) can0 015#00 R
(1720633481.714210) can0 016#00 R
(1720633481.714329) can0 041#00 R
(1720633481.714501) can0 05C#F603F603 R
(1720633481.727856) can0 00E#1A04 R
(1720633481.728019) can0 05C#1A041A04 R
(1720633481.728137) can0 041#00 R
(1720633481.728254) can0 016#00 R
(1720633481.728373) can0 015#00 R
(1720633481.728489) can0 017#00 R
(1720633481.728609) can0 056#00 R
(1720633481.740336) can0 007#00 R
(1720633481.771547) can0 00D#8904 R
(1720633481.771675) can0 05B#8904 R
(1720633481.771818) can0 014#00 R
(1720633481.771933) can0 008#00 R
(1720633481.772056) can0 055#00 R
(1720633481.772172) can0 05D#00 R
(1720633481.774136) can0 056#00 R
(1720633481.774267) can0 00E#9404 R
(1720633481.775249) can0 00E#9604 R
(1720633481.775416) can0 05C#96049604 R
(1720633481.775531) can0 016#00 R
(1720633481.776239) can0 015#00 R
(1720633481.776353) can0 016#00 R
(1720633481.776476) can0 041#00 R
(1720633481.777196) can0 05C#9C049C04 R
(1720633481.778186) can0 00E#9F04 R
(1720633481.778358) can0 05C#9F049F04 R
(1720633481.778478) can0 041#00 R
(1720633481.778595) can0 016#00 R
(1720633481.778715) can0 015#00 R
(1720633481.778830) can0 017#00 R
(1720633481.778962) can0 056#00 R
(1720633481.802113) can0 007#00 R
(1720633481.827747) can0 00E#2C05 R
(1720633481.827904) can0 05C#2C052C05 R
(1720633481.828029) can0 041#00 R
(1720633481.828144) can0 016#00 R
(1720633481.828268) can0 015#00 R
(1720633481.828378) can0 017#00 R
(1720633481.828503) can0 056#00 R
(1720633481.832122) can0 00D#3105 R
(1720633481.832248) can0 05B#3105 R
(1720633481.832368) can0 014#00 R
(1720633481.832480) can0 008#00 R
(1720633481.832601) can0 055#00 R
(1720633481.832719) can0 05D#00 R
(1720633481.834914) can0 056#00 R
(1720633481.835052) can0 00E#4005 R
(1720633481.835190) can0 00E#4005 R
(1720633481.835362) can0 05C#40054005 R
(1720633481.835791) can0 015#00 R
(1720633481.835906) can0 016#00 R
(1720633481.836028) can0 041#00 R
(1720633481.836145) can0 016#00 R
(1720633481.836904) can0 05C#46054605 R
(1720633481.862210) can0 007#00 R
(1720633481.878394) can0 00E#C005 R
(1720633481.878565) can0 05C#C005C005 R
(1720633481.878687) can0 041#00 R
(1720633481.878800) can0 016#00 R
(1720633481.878922) can0 015#00 R
(1720633481.879044) can0 017#00 R
(1720633481.879158) can0 056#00 R
(1720633481.892743) can0 00D#E805 R
(1720633481.892870) can0 05B#E805 R
(1720633481.892989) can0 014#00 R
(1720633481.893109) can0 008#00 R
(1720633481.893224) can0 055#00 R
(1720633481.893341) can0 05D#00 R
(1720633481.894689) can0 00E#F505 R
(1720633481.894821) can0 00E#F505 R
(1720633481.895467) can0 015#00 R
(1720633481.895588) can0 056#00 R
(1720633481.895760) can0 05C#F805F805 R
(1720633481.895872) can0 016#00 R
(1720633481.896599) can0 016#00 R
(1720633481.896718) can0 041#00 R
(1720633481.896891) can0 05C#FB05FB05 R
(1720633481.923704) can0 007#00 R
(1720633481.927512) can0 00E#5D06 R
(1720633481.927678) can0 05C#5D065D06 R
(1720633481.927797) can0 041#00 R
(1720633481.927912) can0 016#00 R
(1720633481.928034) can0 015#00 R
(1720633481.928149) can0 017#00 R
(1720633481.928270) can0 056#00 R
(1720633481.954566) can0 00D#AE06 R
(1720633481.954694) can0 05B#AE06 R
(1720633481.954894) can0 014#00 R
(1720633481.955013) can0 008#00 R
(1720633481.955131) can0 055#00 R
(1720633481.955249) can0 05D#00 R
(1720633481.956172) can0 00E#B806 R
(1720633481.957041) can0 056#00 R
(1720633481.957172) can0 00E#BB06 R
(1720633481.957352) can0 05C#BB06BB06 R
(1720633481.957455) can0 016#01 R
(1720633481.958155) can0 015#00 R
(1720633481.959139) can0 016#01 R
(1720633481.959258) can0 041#00 R
(1720633481.959427) can0 05C#C206C206 R
(1720633481.979527) can0 00E#0807 R
(1720633481.979697) can0 05C#08070807 R
(1720633481.979817) can0 041#00 R
(1720633481.979934) can0 016#01 R
(1720633481.980053) can0 015#00 R
(1720633481.980170) can0 017#00 R
(1720633481.980289) can0 056#00 R
(1720633481.985616) can0 007#00 R
(1720633482.015902) can0 00D#7C07 R
(1720633482.016040) can0 05B#7C07 R
(1720633482.016151) can0 014#00 R
(1720633482.016274) can0 008#00 R
(1720633482.016389) can0 055#00 R
(1720633482.016512) can0 05D#00 R
(1720633482.017808) can0 056#00 R
(1720633482.017940) can0 00E#8A07 R
(1720633482.018794) can0 015#00 R
(1720633482.018927) can0 00E#8D07 R
(1720633482.019102) can0 05C#8D078D07 R
(1720633482.019211) can0 016#01 R
(1720633482.019782) can0 016#01 R
(1720633482.019903) can0 041#00 R
(1720633482.020072) can0 05C#91079107 R
(1720633482.029772) can0 00E#B407 R
(1720633482.029921) can0 05C#B407B407 R
(1720633482.030040) can0 041#00 R
(1720633482.030157) can0 016#01 R
(1720633482.030279) can0 015#00 R
(1720633482.030393) can0 017#00 R
(1720633482.030519) can0 056#00 R
(1720633482.046814) can0 007#00 R
(1720633482.078192) can0 00D#5C08 R
(1720633482.078326) can0 05B#5C08 R
(1720633482.078439) can0 014#00 R
(1720633482.078557) can0 008#00 R
(1720633482.078678) can0 055#00 R
(1720633482.078795) can0 05D#00 R
(1720633482.079935) can0 00E#6708 R
(1720633482.080102) can0 05C#67086708 R
(1720633482.080222) can0 041#00 R
(1720633482.080338) can0 016#01 R
(1720633482.080457) can0 015#00 R
(1720633482.080573) can0 017#00 R
(1720633482.080693) can0 056#00 R
(1720633482.080848) can0 056#00 R
(1720633482.082076) can0 015#00 R
(1720633482.082189) can0 016#01 R
(1720633482.082322) can0 00E#6F08 R
(1720633482.082465) can0 00E#6F08 R
(1720633482.082611) can0 05C#6F086F08 R
(1720633482.082926) can0 041#00 R
(1720633482.083094) can0 05C#72087208 R
(1720633482.083209) can0 016#01 R
(1720633482.108175) can0 007#00 R
(1720633482.129360) can0 00E#2309 R
(1720633482.129525) can0 05C#23092309 R
(1720633482.129638) can0 041#00 R
(1720633482.129753) can0 016#01 R
(1720633482.129877) can0 015#00 R
(1720633482.129997) can0 017#00 R
(1720633482.130111) can0 056#00 R
(1720633482.138186) can0 00D#3D09 R
(1720633482.138325) can0 05B#3D09 R
(1720633482.138432) can0 014#00 R
(1720633482.138551) can0 008#00 R
(1720633482.138670) can0 055#00 R
(1720633482.138789) can0 05D#00 R
(1720633482.140905) can0 056#00 R
(1720633482.141037) can0 00E#4D09 R
(1720633482.141188) can0 00E#4D09 R
(1720633482.142008) can0 05C#51095109 R
(1720633482.142122) can0 016#01 R
(1720633482.142869) can0 015#00 R
(1720633482.143013) can0 016#01 R
(1720633482.143111) can0 041#00 R
(1720633482.144242) can0 05C#58095809 R
(1720633482.168301) can0 007#00 R
(1720633482.179636) can0 00E#E509 R
(1720633482.179800) can0 05C#E509E509 R
(1720633482.179919) can0 041#00 R
(1720633482.180036) can0 016#01 R
(1720633482.180155) can0 015#00 R
(1720633482.180272) can0 017#00 R
(1720633482.180392) can0 056#00 R
(1720633482.198888) can0 00D#290A R
(1720633482.199020) can0 05B#290A R
(1720633482.199130) can0 014#00 R
(1720633482.199248) can0 008#00 R
(1720633482.199368) can0 055#00 R
(1720633482.199485) can0 05D#00 R
(1720633482.200897) can0 00E#390A R
(1720633482.201783) can0 056#00 R
(1720633482.201926) can0 00E#3D0A R
(1720633482.202082) can0 05C#3D0A3D0A R
(1720633482.202192) can0 016#01 R
(1720633482.202932) can0 015#00 R
(1720633482.203032) can0 016#01 R
(1720633482.203834) can0 041#00 R
(1720633482.203997) can0 05C#450A450A R
(1720633482.229246) can0 007#00 R
(1720633482.229376) can0 00E#AF0A R
(1720633482.229539) can0 05C#AF0AAF0A R
(1720633482.229677) can0 041#00 R
(1720633482.229773) can0 016#01 R
(1720633482.229899) can0 015#00 R
(1720633482.230014) can0 017#00 R
(1720633482.230134) can0 056#00 R
(1720633482.259810) can0 00D#240B R
(1720633482.259940) can0 05B#240B R
(1720633482.260055) can0 014#00 R
(1720633482.260173) can0 008#00 R
(1720633482.260293) can0 055#00 R
(1720633482.260411) can0 05D#00 R
(1720633482.261638) can0 00E#350B R
(1720633482.262553) can0 056#00 R
(1720633482.262683) can0 00E#390B R
(1720633482.262845) can0 05C#390B390B R
(1720633482.262985) can0 016#01 R
(1720633482.263611) can0 015#00 R
(1720633482.263725) can0 016#01 R
(1720633482.264540) can0 041#00 R
(1720633482.264710) can0 05C#410B410B R
(1720633482.280115) can0 00E#810B R
(1720633482.280283) can0 05C#810B810B R
(1720633482.280401) can0 041#00 R
(1720633482.280517) can0 016#01 R
(1720633482.280637) can0 015#00 R
(1720633482.280755) can0 017#00 R
(1720633482.280874) can0 056#00 R
(1720633482.290153) can0 007#00 R
(1720633482.320784) can0 00D#2A0C R
(1720633482.320918) can0 05B#2A0C R
(1720633482.321031) can0 014#00 R
(1720633482.321151) can0 008#00 R
(1720633482.321269) can0 055#00 R
(1720633482.321388) can0 05D#00 R
(1720633482.322823) can0 056#00 R
(1720633482.323668) can0 015#00 R
(1720633482.323802) can0 00E#400C R
(1720633482.323937) can0 00E#400C R
(1720633482.324109) can0 05C#400C400C R
(1720633482.324634) can0 016#01 R
(1720633482.324754) can0 041#00 R
(1720633482.324948) can0 05C#440C440C R
(1720633482.325014) can0 016#01 R
(1720633482.329878) can0 00E#5A0C R
(1720633482.330033) can0 05C#5A0C5A0C R
(1720633482.330154) can0 041#00 R
(1720633482.330271) can0 016#01 R
(1720633482.330391) can0 015#00 R
(1720633482.330506) can0 017#00 R
(1720633482.330627) can0 056#00 R
(1720633482.351216) can0 007#00 R
(1720633482.379196) can0 00E#3A0D R
(1720633482.379361) can0 05C#3A0D3A0D R
(1720633482.379479) can0 041#00 R
(1720633482.379596) can0 016#02 R
(1720633482.379714) can0 015#00 R
(1720633482.379831) can0 017#00 R
(1720633482.379951) can0 056#00 R
(1720633482.381440) can0 00D#3A0D R
(1720633482.381572) can0 05B#3A0D R
(1720633482.381686) can0 014#00 R
(1720633482.381804) can0 008#00 R
(1720633482.381928) can0 055#00 R
(1720633482.382044) can0 05D#00 R
(1720633482.383219) can0 056#00 R
(1720633482.383351) can0 00E#4D0D R
(1720633482.383484) can0 00E#4D0D R
(1720633482.384203) can0 05C#4D0D4D0D R
(1720633482.384318) can0 016#02 R
(1720633482.385099) can0 015#00 R
(1720633482.385995) can0 016#02 R
(1720633482.386115) can0 041#00 R
(1720633482.386288) can0 05C#560D560D R
(1720633482.411581) can0 007#00 R
(1720633482.429756) can0 00E#220E R
(1720633482.429921) can0 05C#220E220E R
(1720633482.430046) can0 041#00 R
(1720633482.430165) can0 016#02 R
(1720633482.430282) can0 015#00 R
(1720633482.430403) can0 017#00 R
(1720633482.430519) can0 056#00 R
(1720633482.442317) can0 00D#560E R
(1720633482.442449) can0 05B#560E R
(1720633482.442562) can0 014#00 R
(1720633482.442680) can0 008#00 R
(1720633482.442800) can0 055#00 R
(1720633482.442918) can0 05D#00 R
(1720633482.444812) can0 056#00 R
(1720633482.444939) can0 00E#690E R
(1720633482.445776) can0 00E#6D0E R
(1720633482.445942) can0 05C#6D0E6D0E R
(1720633482.446053) can0 016#02 R
(1720633482.446547) can0 015#00 R
(1720633482.446756) can0 016#02 R
(1720633482.446878) can0 041#00 R
(1720633482.447719) can0 05C#770E770E R
(1720633482.472842) can0 007#00 R
(1720633482.480027) can0 00E#110F R
(1720633482.480192) can0 05C#110F110F R
(1720633482.480310) can0 041#00 R
(1720633482.480426) can0 016#02 R
(1720633482.480546) can0 015#00 R
(1720633482.480662) can0 017#00 R
(1720633482.480782) can0 056#00 R
(1720633482.502714) can0 00D#770F R
(1720633482.502852) can0 05B#770F R
(1720633482.502986) can0 014#00 R
(1720633482.503081) can0 008#00 R
(1720633482.503201) can0 055#00 R
(1720633482.503319) can0 05D#00 R
(1720633482.504316) can0 00E#8B0F R
(1720633482.505694) can0 056#00 R
(1720633482.505833) can0 00E#8F0F R
(1720633482.505998) can0 05C#8F0F8F0F R
(1720633482.506112) can0 016#02 R
(1720633482.506429) can0 015#00 R
(1720633482.507507) can0 016#02 R
(1720633482.507628) can0 041#00 R
(1720633482.507796) can0 05C#990F990F R
(1720633482.529658) can0 00E#0610 R
(1720633482.529827) can0 05C#06100610 R
(1720633482.529947) can0 041#00 R
(1720633482.530059) can0 016#02 R
(1720633482.530182) can0 015#00 R
(1720633482.530295) can0 017#00 R
(1720633482.530418) can0 056#00 R
(1720633482.532932) can0 007#00 R
(1720633482.562620) can0 00D#A210 R
(1720633482.562749) can0 05B#A210 R
(1720633482.562866) can0 014#00 R
(1720633482.563007) can0 008#00 R
(1720633482.563102) can0 055#00 R
(1720633482.563221) can0 05D#00 R
(1720633482.565540) can0 056#00 R
(1720633482.566509) can0 015#00 R
(1720633482.566622) can0 016#02 R
(1720633482.566747) can0 041#00 R
(1720633482.566881) can0 00E#C110 R
(1720633482.567018) can0 00E#C110 R
(1720633482.567182) can0 05C#C110C110 R
(1720633482.567617) can0 05C#C610C610 R
(1720633482.567732) can0 016#02 R
(1720633482.579463) can0 00E#0311 R
(1720633482.579629) can0 05C#03110311 R
(1720633482.579752) can0 041#00 R
(1720633482.579869) can0 016#02 R
(1720633482.579989) can0 015#00 R
(1720633482.580104) can0 017#00 R
(1720633482.580226) can0 056#00 R
(1720633482.592953) can0 007#00 R
(1720633482.623982) can0 00D#E211 R
(1720633482.624105) can0 05B#E211 R
(1720633482.624280) can0 014#00 R
(1720633482.624393) can0 008#00 R
(1720633482.624515) can0 055#00 R
(1720633482.624632) can0 05D#00 R
(1720633482.627120) can0 056#00 R
(1720633482.627250) can0 00E#F711 R
(1720633482.627381) can0 00E#F711 R
(1720633482.627977) can0 05C#FD11FD11 R
(1720633482.628090) can0 016#02 R
(1720633482.628779) can0 015#00 R
(1720633482.628914) can0 016#02 R
(1720633482.629010) can0 041#00 R
(1720633482.629846) can0 05C#07120712 R
(1720633482.629960) can0 00E#0712 R
(1720633482.630128) can0 05C#07120712 R
(1720633482.630252) can0 041#00 R
(1720633482.630367) can0 016#02 R
(1720633482.630492) can0 015#00 R
(1720633482.630602) can0 017#00 R
(1720633482.630722) can0 056#00 R
(1720633482.653860) can0 007#00 R
(1720633482.679854) can0 00E#1213 R
(1720633482.680020) can0 05C#12131213 R
(1720633482.680142) can0 041#00 R
(1720633482.680254) can0 016#02 R
(1720633482.680376) can0 015#00 R
(1720633482.680490) can0 017#00 R
(1720633482.680611) can0 056#00 R
(1720633482.684929) can0 00D#2813 R
(1720633482.685062) can0 05B#2813 R
(1720633482.685175) can0 014#00 R
(1720633482.685297) can0 008#00 R
(1720633482.685414) can0 055#00 R
(1720633482.685534) can0 05D#00 R
(1720633482.686897) can0 00E#3813 R
(1720633482.689039) can0 015#00 R
(1720633482.689155) can0 016#03 R
(1720633482.689276) can0 041#00 R
(1720633482.689397) can0 056#00 R
(1720633482.689531) can0 00E#4313 R
(1720633482.689695) can0 05C#43134313 R
(1720633482.689808) can0 016#03 R
(1720633482.690745) can0 05C#4E134E13 R
(1720633482.715742) can0 007#00 R
(1720633482.729656) can0 00E#2414 R
(1720633482.729832) can0 05C#24142414 R
(1720633482.729939) can0 041#00 R
(1720633482.730060) can0 016#03 R
(1720633482.730179) can0 015#00 R
(1720633482.730296) can0 017#00 R
(1720633482.730413) can0 056#00 R
(1720633482.745466) can0 00D#7214 R
(1720633482.745600) can0 05B#7214 R
(1720633482.745713) can0 014#00 R
(1720633482.745835) can0 008#00 R
(1720633482.745950) can0 055#00 R
(1720633482.746074) can0 05D#00 R
(1720633482.748292) can0 056#00 R
(1720633482.748419) can0 00E#8E14 R
(1720633482.749385) can0 00E#9314 R
(1720633482.749551) can0 05C#93149314 R
(1720633482.749660) can0 016#03 R
(1720633482.750206) can0 015#00 R
(1720633482.750320) can0 016#03 R
(1720633482.750443) can0 041#00 R
(1720633482.751442) can0 05C#9E149E14 R
(1720633482.775821) can0 007#00 R
(1720633482.779673) can0 00E#3C15 R
(1720633482.779836) can0 05C#3C153C15 R
(1720633482.779955) can0 041#00 R
(1720633482.780074) can0 016#03 R
(1720633482.780196) can0 015#00 R
(1720633482.780308) can0 017#00 R
(1720633482.780429) can0 056#00 R
(1720633482.807124) can0 00D#D115 R
(1720633482.807256) can0 05B#D115 R
(1720633482.807372) can0 014#00 R
(1720633482.807488) can0 008#00 R
(1720633482.807609) can0 055#00 R
(1720633482.807726) can0 05D#00 R
(1720633482.809928) can0 056#00 R
(1720633482.811919) can0 00E#F915 R
(1720633482.812047) can0 00E#F915 R
(1720633482.812215) can0 05C#F915F915 R
(1720633482.812850) can0 015#00 R
(1720633482.812967) can0 016#03 R
(1720633482.813089) can0 041#00 R
(1720633482.813259) can0 05C#F915F915 R
(1720633482.813371) can0 016#03 R
(1720633482.829493) can0 00E#5C16 R
(1720633482.829658) can0 05C#5C165C16 R
(1720633482.829789) can0 041#00 R
(1720633482.829896) can0 016#03 R
(1720633482.830014) can0 015#00 R
(1720633482.830131) can0 017#00 R
(1720633482.830251) can0 056#00 R
(1720633482.837938) can0 007#00 R
(1720633482.868658) can0 00D#3A17 R
(1720633482.868789) can0 05B#3A17 R
(1720633482.868903) can0 014#00 R
(1720633482.869022) can0 008#00 R
(1720633482.869148) can0 055#00 R
(1720633482.869262) can0 05D#00 R
(1720633482.870581) can0 00E#4C17 R
(1720633482.870714) can0 00E#4C17 R
(1720633482.871491) can0 056#00 R
(1720633482.871655) can0 05C#52175217 R
(1720633482.871768) can0 016#03 R
(1720633482.872465) can0 015#00 R
(1720633482.872581) can0 016#03 R
(1720633482.873390) can0 041#00 R
(1720633482.873554) can0 05C#5E175E17 R
(1720633482.880658) can0 00E#8817 R
(1720633482.880824) can0 05C#88178817 R
(1720633482.880944) can0 041#00 R
(1720633482.881061) can0 016#03 R
(1720633482.881181) can0 015#00 R
(1720633482.881296) can0 017#00 R
(1720633482.881419) can0 056#00 R
(1720633482.899204) can0 007#00 R
(1720633482.929582) can0 00D#A818 R
(1720633482.929732) can0 05B#A818 R
(1720633482.929856) can0 014#00 R
(1720633482.929972) can0 008#00 R
(1720633482.930091) can0 055#00 R
(1720633482.930209) can0 05D#00 R
(1720633482.930343) can0 00E#B418 R
(1720633482.930518) can0 05C#B418B418 R
(1720633482.930638) can0 041#00 R
(1720633482.930753) can0 016#03 R
(1720633482.930873) can0 015#00 R
(1720633482.931025) can0 017#00 R
(1720633482.931124) can0 056#00 R
(1720633482.932052) can0 056#00 R
(1720633482.932192) can0 00E#C018 R
(1720633482.932898) can0 015#00 R
(1720633482.933037) can0 00E#C618 R
(1720633482.933197) can0 05C#C618C618 R
(1720633482.933310) can0 016#03 R
(1720633482.933885) can0 016#03 R
(1720633482.934007) can0 041#00 R
(1720633482.934170) can0 05C#CD18CD18 R
(1720633482.960786) can0 007#00 R
(1720633482.979689) can0 00E#E719 R
(1720633482.979859) can0 05C#E719E719 R
(1720633482.979978) can0 041#00 R
(1720633482.980094) can0 016#04 R
(1720633482.980214) can0 015#00 R
(1720633482.980334) can0 017#00 R
(1720633482.980452) can0 056#00 R
(1720633482.992246) can0 00D#261A R
(1720633482.992377) can0 05B#261A R
(1720633482.992579) can0 014#00 R
(1720633482.992692) can0 008#00 R
(1720633482.992812) can0 055#00 R
(1720633482.992930) can0 05D#00 R
(1720633482.994999) can0 056#00 R
(1720633482.995104) can0 00E#451A R
(1720633482.995996) can0 015#00 R
(1720633482.996108) can0 016#04 R
(1720633482.996244) can0 00E#4B1A R
(1720633482.996406) can0 05C#4B1A4B1A R
(1720633482.996545) can0 016#04 R
(1720633482.997147) can0 041#00 R
(1720633482.997314) can0 05C#511A511A R
(1720633483.022509) can0 007#00 R
(1720633483.030489) can0 00E#211B R
(1720633483.030644) can0 05C#211B211B R
(1720633483.030763) can0 041#00 R
(1720633483.030880) can0 016#04 R
(1720633483.031018) can0 015#00 R
(1720633483.031114) can0 017#00 R
(1720633483.031235) can0 056#00 R
(1720633483.052595) can0 00D#A71B R
(1720633483.052724) can0 05B#A71B R
(1720633483.052841) can0 014#00 R
(1720633483.052956) can0 008#00 R
(1720633483.053079) can0 055#00 R
(1720633483.053195) can0 05D#00 R
(1720633483.055412) can0 056#00 R
(1720633483.055546) can0 00E#C01B R
(1720633483.055684) can0 00E#C01B R
(1720633483.055846) can0 05C#C01BC01B R
(1720633483.056458) can0 015#00 R
(1720633483.056571) can0 016#04 R
(1720633483.057336) can0 016#04 R
(1720633483.057458) can0 041#00 R
(1720633483.057624) can0 05C#CD1BCD1B R
(1720633483.080564) can0 00E#611C R
(1720633483.080725) can0 05C#611C611C R
(1720633483.080847) can0 041#00 R
(1720633483.080961) can0 016#04 R
(1720633483.081081) can0 015#00 R
(1720633483.081196) can0 017#00 R
(1720633483.081317) can0 056#00 R
(1720633483.082605) can0 007#00 R
(1720633483.113553) can0 00D#311D R
(1720633483.113676) can0 05B#311D R
(1720633483.113892) can0 014#00 R
(1720633483.114006) can0 008#00 R
(1720633483.114130) can0 055#00 R
(1720633483.114251) can0 05D#00 R
(1720633483.115515) can0 00E#451D R
(1720633483.115646) can0 00E#451D R
(1720633483.116700) can0 056#00 R
(1720633483.116866) can0 05C#521D521D R
(1720633483.116979) can0 016#04 R
(1720633483.117657) can0 015#00 R
(1720633483.117771) can0 016#04 R
(1720633483.118721) can0 041#00 R
(1720633483.118887) can0 05C#5F1D5F1D R
(1720633483.130144) can0 00E#A81D R
(1720633483.130314) can0 05C#A81DA81D R
(1720633483.130443) can0 041#00 R
(1720633483.130545) can0 016#04 R
(1720633483.130664) can0 015#00 R
(1720633483.130781) can0 017#00 R
(1720633483.130901) can0 056#00 R
(1720633483.144894) can0 007#00 R
(1720633483.176637) can0 00D#D31E R
(1720633483.176765) can0 05B#D31E R
(1720633483.176879) can0 014#00 R
(1720633483.176997) can0 008#00 R
(1720633483.177117) can0 055#00 R
(1720633483.177235) can0 05D#00 R
(1720633483.178598) can0 00E#E71E R
(1720633483.179521) can0 056#00 R
(1720633483.179651) can0 00E#ED1E R
(1720633483.179822) can0 05C#ED1EED1E R
(1720633483.179929) can0 016#04 R
(1720633483.180513) can0 00E#F41E R
(1720633483.180689) can0 05C#F41EF41E R
(1720633483.180803) can0 041#00 R
(1720633483.180920) can0 016#04 R
(1720633483.181040) can0 015#00 R
(1720633483.181160) can0 017#00 R
(1720633483.181276) can0 056#00 R
(1720633483.181748) can0 015#00 R
(1720633483.181861) can0 016#04 R
(1720633483.181985) can0 041#00 R
(1720633483.182155) can0 05C#FB1EFB1E R
(1720633483.206778) can0 007#00 R
(1720633483.229687) can0 00E#4720 R
(1720633483.229851) can0 05C#47204720 R
(1720633483.229974) can0 041#00 R
(1720633483.230092) can0 016#05 R
(1720633483.230213) can0 015#00 R
(1720633483.230327) can0 017#00 R
(1720633483.230447) can0 056#00 R
(1720633483.238894) can0 00D#7720 R
(1720633483.239028) can0 05B#7720 R
(1720633483.239140) can0 014#00 R
(1720633483.239257) can0 008#00 R
(1720633483.239376) can0 055#00 R
(1720633483.239499) can0 05D#00 R
(1720633483.241583) can0 056#00 R
(1720633483.241714) can0 00E#9220 R
(1720633483.242609) can0 015#00 R
(1720633483.242725) can0 016#05 R
(1720633483.242848) can0 041#00 R
(1720633483.243003) can0 00E#9920 R
(1720633483.243150) can0 05C#99209920 R
(1720633483.243264) can0 016#05 R
(1720633483.243741) can0 05C#A020A020 R
(1720633483.269473) can0 007#00 R
(1720633483.280581) can0 00E#9F21 R
(1720633483.280754) can0 05C#9F219F21 R
(1720633483.280868) can0 041#00 R
(1720633483.280987) can0 016#05 R
(1720633483.281107) can0 015#00 R
(1720633483.281225) can0 017#00 R
(1720633483.281343) can0 056#00 R
(1720633483.299862) can0 00D#1D22 R
(1720633483.299988) can0 05B#1D22 R
(1720633483.300107) can0 014#00 R
(1720633483.300223) can0 008#00 R
(1720633483.300364) can0 055#00 R
(1720633483.300462) can0 05D#00 R
(1720633483.302916) can0 056#00 R
(1720633483.303033) can0 00E#4022 R
(1720633483.303183) can0 00E#4022 R
(1720633483.303343) can0 05C#40224022 R
(1720633483.304041) can0 015#00 R
(1720633483.304160) can0 016#05 R
(1720633483.304281) can0 041#00 R
(1720633483.304398) can0 016#05 R
(1720633483.305097) can0 05C#4E224E22 R
(1720633483.330038) can0 00E#FE22 R
(1720633483.330201) can0 05C#FE22FE22 R
(1720633483.330326) can0 041#00 R
(1720633483.330440) can0 016#05 R
(1720633483.330571) can0 015#00 R
(1720633483.330678) can0 017#00 R
(1720633483.330801) can0 056#00 R
(1720633483.330914) can0 007#00 R
(1720633483.361387) can0 00D#CC23 R
(1720633483.361516) can0 05B#CC23 R
(1720633483.361629) can0 014#00 R
(1720633483.361747) can0 008#00 R
(1720633483.361867) can0 055#00 R
(1720633483.361985) can0 05D#00 R
(1720633483.362859) can0 056#00 R
(1720633483.364024) can0 00E#F023 R
(1720633483.364158) can0 00E#F023 R
(1720633483.364886) can0 015#00 R
(1720633483.365000) can0 016#05 R
(1720633483.365167) can0 05C#F723F723 R
(1720633483.365282) can0 016#05 R
(1720633483.366064) can0 041#00 R
(1720633483.366232) can0 05C#FE23FE23 R
(1720633483.379460) can0 00E#6324 R
(1720633483.379619) can0 05C#63246324 R
(1720633483.379741) can0 041#00 R
(1720633483.379858) can0 016#05 R
(1720633483.379978) can0 015#00 R
(1720633483.380094) can0 017#00 R
(1720633483.380218) can0 056#00 R
(1720633483.391732) can0 007#00 R
(1720633483.423136) can0 00D#8B25 R
(1720633483.423272) can0 05B#8B25 R
(1720633483.423443) can0 014#00 R
(1720633483.423560) can0 008#00 R
(1720633483.423678) can0 055#00 R
(1720633483.423803) can0 05D#00 R
(1720633483.425854) can0 056#00 R
(1720633483.425992) can0 00E#B025 R
(1720633483.426995) can0 00E#B725 R
(1720633483.427138) can0 05C#B725B725 R
(1720633483.427255) can0 016#05 R
(1720633483.427818) can0 015#00 R
(1720633483.427943) can0 016#05 R
(1720633483.428058) can0 041#00 R
(1720633483.428225) can0 05C#BE25BE25 R
(1720633483.432774) can0 00E#E325 R
(1720633483.432924) can0 05C#E325E325 R
(1720633483.433049) can0 041#00 R
(1720633483.433162) can0 016#05 R
(1720633483.433285) can0 015#00 R
(1720633483.433398) can0 017#00 R
(1720633483.433520) can0 056#00 R
(1720633483.453606) can0 007#00 R
(1720633483.482899) can0 00E#5327 R
(1720633483.483059) can0 05C#53275327 R
(1720633483.483176) can0 041#00 R
(1720633483.483298) can0 016#06 R
(1720633483.483412) can0 015#00 R
(1720633483.483535) can0 017#00 R
(1720633483.483654) can0 056#00 R
(1720633483.484830) can0 00D#5327 R
(1720633483.484963) can0 05B#5327 R
(1720633483.485076) can0 014#00 R
(1720633483.485199) can0 008#00 R
(1720633483.485313) can0 055#00 R
(1720633483.485434) can0 05D#00 R
(1720633483.486697) can0 056#00 R
(1720633483.486830) can0 00E#7127 R
(1720633483.487546) can0 00E#7927 R
(1720633483.487708) can0 05C#79277927 R
(1720633483.487831) can0 016#06 R
(1720633483.489713) can0 015#00 R
(1720633483.489828) can0 016#06 R
(1720633483.489953) can0 041#00 R
(1720633483.490686) can0 05C#8F278F27 R
(1720633483.515018) can0 007#00 R
(1720633483.532809) can0 00E#C928 R
(1720633483.532951) can0 05C#C928C928 R
(1720633483.533074) can0 041#00 R
(1720633483.533184) can0 016#06 R
(1720633483.533308) can0 015#00 R
(1720633483.533420) can0 017#00 R
(1720633483.533543) can0 056#00 R
(1720633483.544889) can0 00D#1529 R
(1720633483.545017) can0 05B#1529 R
(1720633483.545130) can0 014#00 R
(1720633483.545248) can0 008#00 R
(1720633483.545374) can0 055#00 R
(1720633483.545488) can0 05D#00 R
(1720633483.546660) can0 056#00 R
(1720633483.547650) can0 00E#3B29 R
(1720633483.547784) can0 00E#3B29 R
(1720633483.547943) can0 05C#3B293B29 R
(1720633483.548685) can0 016#06 R
(1720633483.549692) can0 015#00 R
(1720633483.549806) can0 016#06 R
(1720633483.549931) can0 041#00 R
(1720633483.550090) can0 05C#4A294A29 R
(1720633483.575374) can0 007#00 R
(1720633483.582788) can0 00E#452A R
(1720633483.582962) can0 05C#452A452A R
(1720633483.583072) can0 041#00 R
(1720633483.583191) can0 016#06 R
(1720633483.583308) can0 015#00 R
(1720633483.583429) can0 017#00 R
(1720633483.583543) can0 056#00 R
(1720633483.606320) can0 00D#EE2A R
(1720633483.606438) can0 05B#EE2A R
(1720633483.606558) can0 014#00 R
(1720633483.606671) can0 008#00 R
(1720633483.606793) can0 055#00 R
(1720633483.606911) can0 05D#00 R
(1720633483.608413) can0 056#00 R
(1720633483.609206) can0 00E#0C2B R
(1720633483.609414) can0 00E#0C2B R
(1720633483.610176) can0 015#00 R
(1720633483.610337) can0 05C#142B142B R
(1720633483.610453) can0 016#06 R
(1720633483.611201) can0 016#06 R
(1720633483.611320) can0 041#00 R
(1720633483.611484) can0 05C#1C2B1C2B R
(1720633483.632966) can0 00E#C62B R
(1720633483.633111) can0 05C#C62BC62B R
(1720633483.633239) can0 041#00 R
(1720633483.633349) can0 016#06 R
(1720633483.633472) can0 015#00 R
(1720633483.633585) can0 017#00 R
(1720633483.633708) can0 056#00 R
(1720633483.635855) can0 007#00 R
(1720633483.666120) can0 00D#B72C R
(1720633483.666247) can0 05B#B72C R
(1720633483.666360) can0 014#00 R
(1720633483.666478) can0 008#00 R
(1720633483.666597) can0 055#00 R
(1720633483.666716) can0 05D#00 R
(1720633483.668046) can0 056#00 R
(1720633483.668850) can0 00E#DE2C R
(1720633483.669749) can0 015#00 R
(1720633483.669864) can0 016#07 R
(1720633483.669997) can0 00E#E62C R
(1720633483.670156) can0 05C#E62CE62C R
(1720633483.670276) can0 016#07 R
(1720633483.670806) can0 041#00 R
(1720633483.670993) can0 05C#EE2CEE2C R
(1720633483.682735) can0 00E#4C2D R
(1720633483.682900) can0 05C#4C2D4C2D R
(1720633483.683028) can0 041#00 R
(1720633483.683138) can0 016#07 R
(1720633483.683261) can0 015#00 R
(1720633483.683373) can0 017#00 R
(1720633483.683493) can0 056#00 R
(1720633483.696912) can0 007#00 R
(1720633483.727044) can0 00D#A02E R
(1720633483.727176) can0 05B#A02E R
(1720633483.727293) can0 014#00 R
(1720633483.727411) can0 008#00 R
(1720633483.727533) can0 055#00 R
(1720633483.727649) can0 05D#00 R
(1720633483.729931) can0 056#00 R
(1720633483.730065) can0 00E#C02E R
(1720633483.730782) can0 015#00 R
(1720633483.730901) can0 016#07 R
(1720633483.731032) can0 00E#C82E R
(1720633483.731202) can0 05C#C82EC82E R
(1720633483.731315) can0 016#07 R
(1720633483.731883) can0 041#00 R
(1720633483.732045) can0 05C#CF2ECF2E R
(1720633483.732879) can0 00E#D72E R
(1720633483.733040) can0 05C#D72ED72E R
(1720633483.733167) can0 041#00 R
(1720633483.733277) can0 016#07 R
(1720633483.733400) can0 015#00 R
(1720633483.733512) can0 017#00 R
(1720633483.733635) can0 056#00 R
(1720633483.757574) can0 007#00 R
(1720633483.782577) can0 00E#6830 R
(1720633483.782741) can0 05C#68306830 R
(1720633483.782859) can0 041#00 R
(1720633483.782983) can0 016#07 R
(1720633483.783100) can0 015#00 R
(1720633483.783213) can0 017#00 R
(1720633483.783337) can0 056#00 R
(1720633483.788623) can0 00D#8830 R
(1720633483.788755) can0 05B#8830 R
(1720633483.788871) can0 014#00 R
(1720633483.788991) can0 008#00 R
(1720633483.789110) can0 055#00 R
(1720633483.789229) can0 05D#00 R
(1720633483.791225) can0 056#00 R
(1720633483.791361) can0 00E#B130 R
(1720633483.791489) can0 00E#B130 R
(1720633483.791660) can0 05C#B130B130 R
(1720633483.792306) can0 015#00 R
(1720633483.792428) can0 016#07 R
(1720633483.792539) can0 016#07 R
(1720633483.793316) can0 041#00 R
(1720633483.793484) can0 05C#C130C130 R
(1720633483.820462) can0 007#00 R
(1720633483.833181) can0 00E#0632 R
(1720633483.833334) can0 05C#06320632 R
(1720633483.833451) can0 041#00 R
(1720633483.833575) can0 016#07 R
(1720633483.833694) can0 015#00 R
(1720633483.833805) can0 017#00 R
(1720633483.833929) can0 056#00 R
(1720633483.852534) can0 00D#9132 R
(1720633483.852742) can0 05B#9132 R
(1720633483.852854) can0 014#00 R
(1720633483.852976) can0 008#00 R
(1720633483.853099) can0 055#00 R
(1720633483.853210) can0 05D#00 R
(1720633483.855234) can0 056#00 R
(1720633483.855365) can0 00E#BA32 R
(1720633483.855493) can0 00E#BA32 R
(1720633483.856248) can0 05C#C232C232 R
(1720633483.856370) can0 016#07 R
(1720633483.857266) can0 015#00 R
(1720633483.857380) can0 016#07 R
(1720633483.857505) can0 041#00 R
(1720633483.861278) can0 05C#EB32EB32 R
(1720633483.883254) can0 00E#A033 R
(1720633483.883429) can0 05C#A033A033 R
(1720633483.883544) can0 007#00 R
(1720633483.883663) can0 041#00 R
(1720633483.883774) can0 016#08 R
(1720633483.883895) can0 015#00 R
(1720633483.884010) can0 017#00 R
(1720633483.884137) can0 056#00 R
(1720633483.914470) can0 00D#9134 R
(1720633483.914595) can0 05B#9134 R
(1720633483.914712) can0 014#00 R
(1720633483.914829) can0 008#00 R
(1720633483.914969) can0 055#00 R
(1720633483.915071) can0 05D#00 R
(1720633483.916563) can0 056#00 R
(1720633483.916695) can0 00E#B234 R
(1720633483.917344) can0 015#00 R
(1720633483.917454) can0 016#08 R
(1720633483.917592) can0 00E#BA34 R
(1720633483.917750) can0 05C#BA34BA34 R
(1720633483.917869) can0 016#08 R
(1720633483.918408) can0 041#00 R
(1720633483.918572) can0 05C#C334C334 R
(1720633483.933810) can0 00E#4035 R
(1720633483.933962) can0 05C#40354035 R
(1720633483.934084) can0 041#00 R
(1720633483.934195) can0 016#08 R
(1720633483.934316) can0 015#00 R
(1720633483.934432) can0 017#00 R
(1720633483.934552) can0 056#00 R
(1720633483.944579) can0 007#00 R
(1720633483.975400) can0 00D#9036 R
(1720633483.975535) can0 05B#9036 R
(1720633483.975649) can0 014#00 R
(1720633483.975767) can0 008#00 R
(1720633483.975887) can0 055#00 R
(1720633483.976005) can0 05D#00 R
(1720633483.977054) can0 056#00 R
(1720633483.978255) can0 00E#B136 R
(1720633483.979022) can0 015#00 R
(1720633483.979129) can0 016#08 R
(1720633483.979263) can0 00E#BA36 R
(1720633483.979425) can0 05C#BA36BA36 R
(1720633483.979537) can0 016#08 R
(1720633483.981171) can0 041#00 R
(1720633483.981336) can0 05C#CB36CB36 R
(1720633483.983212) can0 00E#E436 R
(1720633483.983379) can0 05C#E436E436 R
(1720633483.983498) can0 041#00 R
(1720633483.983612) can0 016#08 R
(1720633483.983735) can0 015#00 R
(1720633483.983850) can0 017#00 R
(1720633483.983970) can0 056#00 R
(1720633484.005892) can0 007#00 R
(1720633484.033615) can0 00E#8D38 R
(1720633484.033775) can0 05C#8D388D38 R
(1720633484.033903) can0 041#00 R
(1720633484.034015) can0 016#08 R
(1720633484.034133) can0 015#00 R
(1720633484.034250) can0 017#00 R
(1720633484.034369) can0 056#00 R
(1720633484.036919) can0 00D#9538 R
(1720633484.037043) can0 05B#9538 R
(1720633484.037160) can0 014#00 R
(1720633484.037277) can0 008#00 R
(1720633484.037398) can0 055#00 R
(1720633484.037515) can0 05D#00 R
(1720633484.039669) can0 056#00 R
(1720633484.039797) can0 00E#C038 R
(1720633484.039939) can0 00E#C038 R
(1720633484.040101) can0 05C#C038C038 R
(1720633484.040485) can0 015#00 R
(1720633484.040596) can0 016#08 R
(1720633484.040712) can0 016#08 R
(1720633484.041437) can0 041#00 R
(1720633484.041599) can0 05C#D138D138 R
(1720633484.067774) can0 007#00 R
(1720633484.085143) can0 00E#433A R
(1720633484.085311) can0 05C#433A433A R
(1720633484.085432) can0 041#00 R
(1720633484.085547) can0 016#09 R
(1720633484.085668) can0 015#00 R
(1720633484.085788) can0 017#00 R
(1720633484.085903) can0 056#00 R
(1720633484.099073) can0 00D#B33A R
(1720633484.099202) can0 05B#B33A R
(1720633484.099318) can0 014#00 R
(1720633484.099435) can0 008#00 R
(1720633484.099556) can0 055#00 R
(1720633484.099674) can0 05D#00 R
(1720633484.101935) can0 056#00 R
(1720633484.102065) can0 00E#D63A R
(1720633484.102190) can0 00E#D63A R
(1720633484.103701) can0 015#00 R
(1720633484.103813) can0 016#09 R
(1720633484.103937) can0 041#00 R
(1720633484.104104) can0 05C#E73AE73A R
(1720633484.104213) can0 016#09 R
(1720633484.105115) can0 05C#F03AF03A R
(1720633484.129807) can0 007#00 R
(1720633484.134335) can0 00E#F53B R
(1720633484.134582) can0 05C#F53BF53B R
(1720633484.134702) can0 041#00 R
(1720633484.134818) can0 016#09 R
(1720633484.134956) can0 015#00 R
(1720633484.135052) can0 017#00 R
(1720633484.135175) can0 056#00 R
(1720633484.160135) can0 00D#C63C R
(1720633484.160266) can0 05B#C63C R
(1720633484.160379) can0 014#00 R
(1720633484.160498) can0 008#00 R
(1720633484.160623) can0 055#00 R
(1720633484.160736) can0 05D#00 R
(1720633484.162778) can0 056#00 R
(1720633484.162907) can0 00E#E93C R
(1720633484.163717) can0 00E#F23C R
(1720633484.163883) can0 05C#F23CF23C R
(1720633484.163994) can0 016#09 R
(1720633484.164755) can0 015#00 R
(1720633484.164872) can0 016#09 R
(1720633484.164992) can0 041#00 R
(1720633484.165777) can0 05C#043D043D R
(1720633484.187734) can0 00E#C53D R
(1720633484.187895) can0 05C#C53DC53D R
(1720633484.188015) can0 041#00 R
(1720633484.188131) can0 016#09 R
(1720633484.188251) can0 015#00 R
(1720633484.188367) can0 017#00 R
(1720633484.188486) can0 056#00 R
(1720633484.192094) can0 007#00 R
(1720633484.223037) can0 00D#F23E R
(1720633484.223161) can0 05B#F23E R
(1720633484.223276) can0 014#00 R
(1720633484.223394) can0 008#00 R
(1720633484.223515) can0 055#00 R
(1720633484.223631) can0 05D#00 R
(1720633484.225786) can0 056#00 R
(1720633484.225918) can0 00E#153F R
(1720633484.226789) can0 015#00 R
(1720633484.226909) can0 016#09 R
(1720633484.227032) can0 041#00 R
(1720633484.227163) can0 00E#1E3F R
(1720633484.227335) can0 05C#1E3F1E3F R
(1720633484.227447) can0 016#09 R
(1720633484.227962) can0 05C#273F273F R
(1720633484.237541) can0 00E#803F R
(1720633484.237696) can0 05C#803F803F R
(1720633484.237818) can0 041#00 R
(1720633484.237932) can0 016#09 R
(1720633484.238054) can0 015#00 R
(1720633484.238168) can0 017#00 R
(1720633484.238290) can0 056#00 R
(1720633484.252996) can0 007#00 R
(1720633484.283883) can0 00D#1141 R
(1720633484.284015) can0 05B#1141 R
(1720633484.284127) can0 014#00 R
(1720633484.284246) can0 008#00 R
(1720633484.284366) can0 055#00 R
(1720633484.284484) can0 05D#00 R
(1720633484.286682) can0 056#00 R
(1720633484.287652) can0 015#00 R
(1720633484.287771) can0 016#0A R
(1720633484.287889) can0 041#00 R
(1720633484.288036) can0 00E#3E41 R
(1720633484.288161) can0 00E#3E41 R
(1720633484.288336) can0 05C#3E413E41 R
(1720633484.288472) can0 00E#3E41 R
(1720633484.288646) can0 05C#3E413E41 R
(1720633484.288767) can0 041#00 R
(1720633484.288880) can0 016#0A R
(1720633484.289000) can0 015#00 R
(1720633484.289115) can0 017#00 R
(1720633484.289236) can0 056#00 R
(1720633484.289406) can0 05C#47414741 R
(1720633484.289519) can0 016#0A R
(1720633484.314420) can0 007#00 R
(1720633484.337734) can0 00E#0143 R
(1720633484.337882) can0 05C#01430143 R
(1720633484.338008) can0 041#00 R
(1720633484.338115) can0 016#0A R
(1720633484.338241) can0 015#00 R
(1720633484.338351) can0 017#00 R
(1720633484.338472) can0 056#00 R
(1720633484.345426) can0 00D#3743 R
(1720633484.345555) can0 05B#3743 R
(1720633484.345669) can0 014#00 R
(1720633484.345787) can0 008#00 R
(1720633484.345907) can0 055#00 R
(1720633484.346026) can0 05D#00 R
(1720633484.348240) can0 056#00 R
(1720633484.348363) can0 00E#6443 R
(1720633484.348503) can0 00E#6443 R
(1720633484.349131) can0 015#00 R
(1720633484.349248) can0 016#0A R
(1720633484.349414) can0 05C#6E436D43 R
(1720633484.349523) can0 016#0A R
(1720633484.350108) can0 041#00 R
(1720633484.350272) can0 05C#77437743 R
(1720633484.376346) can0 007#00 R
(1720633484.387404) can0 00E#C744 R
(1720633484.387568) can0 05C#C744C744 R
(1720633484.387690) can0 041#00 R
(1720633484.387802) can0 016#0A R
(1720633484.387925) can0 015#00 R
(1720633484.388039) can0 017#00 R
(1720633484.388160) can0 056#00 R
(1720633484.406783) can0 00D#6345 R
(1720633484.406913) can0 05B#6345 R
(1720633484.407019) can0 014#00 R
(1720633484.407150) can0 008#00 R
(1720633484.407265) can0 055#00 R
(1720633484.407388) can0 05D#00 R
(1720633484.409577) can0 056#00 R
(1720633484.409710) can0 00E#9045 R
(1720633484.410144) can0 015#00 R
(1720633484.410274) can0 00E#9A45 R
(1720633484.410438) can0 05C#9A459945 R
(1720633484.410550) can0 016#0A R
(1720633484.411306) can0 016#0A R
(1720633484.411429) can0 041#00 R
(1720633484.411591) can0 05C#A345A345 R
(1720633484.437066) can0 00E#9146 R
(1720633484.437311) can0 05C#91469146 R
(1720633484.437425) can0 007#00 R
(1720633484.437547) can0 041#00 R
(1720633484.437673) can0 016#0B R
(1720633484.437787) can0 015#00 R
(1720633484.437899) can0 017#00 R
(1720633484.438019) can0 056#00 R
(1720633484.467612) can0 00D#9D47 R
(1720633484.467754) can0 05B#9D47 R
(1720633484.467866) can0 014#00 R
(1720633484.467984) can0 008#00 R
(1720633484.468105) can0 055#00 R
(1720633484.468222) can0 05D#00 R
(1720633484.470656) can0 056#00 R
(1720633484.470787) can0 00E#C247 R
(1720633484.471938) can0 015#00 R
(1720633484.472068) can0 00E#D447 R
(1720633484.472235) can0 05C#D447D447 R
(1720633484.472345) can0 016#0B R
(1720633484.472791) can0 016#0B R
(1720633484.472907) can0 041#00 R
(1720633484.473074) can0 05C#DE47DD47 R
(1720633484.487334) can0 00E#5F48 R
(1720633484.487500) can0 05C#5F485F48 R
(1720633484.487620) can0 041#00 R
(1720633484.487732) can0 016#0B R
(1720633484.487853) can0 015#00 R
(1720633484.487969) can0 017#00 R
(1720633484.488090) can0 056#00 R
(1720633484.498927) can0 007#00 R
(1720633484.529148) can0 00D#D349 R
(1720633484.529313) can0 05B#D349 R
(1720633484.529426) can0 014#00 R
(1720633484.529546) can0 008#00 R
(1720633484.529666) can0 055#00 R
(1720633484.529783) can0 05D#00 R
(1720633484.531772) can0 056#00 R
(1720633484.531899) can0 00E#024A R
(1720633484.532037) can0 00E#024A R
(1720633484.532199) can0 05C#024A024A R
(1720633484.532786) can0 016#0B R
(1720633484.534028) can0 015#00 R
(1720633484.534138) can0 016#0B R
(1720633484.534265) can0 041#00 R
(1720633484.534426) can0 05C#144A144A R
(1720633484.537003) can0 00E#314A R
(1720633484.537173) can0 05C#304A304A R
(1720633484.537290) can0 041#00 R
(1720633484.537407) can0 016#0B R
(1720633484.537526) can0 015#00 R
(1720633484.537640) can0 017#00 R
(1720633484.537767) can0 056#00 R
(1720633484.559311) can0 007#00 R
(1720633484.587719) can0 00E#054C R
(1720633484.587867) can0 05C#054C054C R
(1720633484.587989) can0 041#00 R
(1720633484.588097) can0 016#0B R
(1720633484.588221) can0 015#00 R
(1720633484.588333) can0 017#00 R
(1720633484.588454) can0 056#00 R
(1720633484.589758) can0 00D#0F4C R
(1720633484.589896) can0 05B#0F4C R
(1720633484.590068) can0 014#00 R
(1720633484.590178) can0 008#00 R
(1720633484.590299) can0 055#00 R
(1720633484.590417) can0 05D#00 R
(1720633484.592647) can0 056#00 R
(1720633484.592776) can0 00E#344C R
(1720633484.592918) can0 00E#344C R
(1720633484.593517) can0 015#00 R
(1720633484.593682) can0 05C#3E4C3E4C R
(1720633484.593795) can0 016#0B R
(1720633484.594502) can0 016#0B R
(1720633484.594624) can0 041#00 R
(1720633484.594787) can0 05C#474C474C R
(1720633484.620408) can0 007#00 R
(1720633484.637148) can0 00E#DD4D R
(1720633484.637319) can0 05C#DD4DDD4D R
(1720633484.637432) can0 041#00 R
(1720633484.637550) can0 016#0C R
(1720633484.637670) can0 015#00 R
(1720633484.637784) can0 017#00 R
(1720633484.637901) can0 056#00 R
(1720633484.651097) can0 00D#4F4E R
(1720633484.651225) can0 05B#4F4E R
(1720633484.651338) can0 014#00 R
(1720633484.651457) can0 008#00 R
(1720633484.651576) can0 055#00 R
(1720633484.651700) can0 05D#00 R
(1720633484.653464) can0 00E#754E R
(1720633484.654440) can0 056#00 R
(1720633484.654578) can0 00E#7E4E R
(1720633484.654743) can0 05C#7E4E7E4E R
(1720633484.654854) can0 016#0C R
(1720633484.655505) can0 015#00 R
(1720633484.655616) can0 016#0C R
(1720633484.655739) can0 041#00 R
(1720633484.655905) can0 05C#884E884E R
(1720633484.681541) can0 007#00 R
(1720633484.687236) can0 00E#B84F R
(1720633484.687401) can0 05C#B84FB84F R
(1720633484.687520) can0 041#00 R
(1720633484.687635) can0 016#0C R
(1720633484.687755) can0 015#00 R
(1720633484.687871) can0 017#00 R
(1720633484.687990) can0 056#00 R
(1720633484.711649) can0 00D#9450 R
(1720633484.711781) can0 05B#9450 R
(1720633484.711896) can0 014#00 R
(1720633484.712016) can0 008#00 R
(1720633484.712135) can0 055#00 R
(1720633484.712254) can0 05D#00 R
(1720633484.713567) can0 00E#B150 R
(1720633484.714468) can0 015#00 R
(1720633484.714586) can0 056#00 R
(1720633484.714722) can0 00E#BA50 R
(1720633484.714882) can0 05C#BA50BA50 R
(1720633484.715012) can0 016#0C R
(1720633484.715457) can0 016#0C R
(1720633484.715576) can0 041#00 R
(1720633484.715747) can0 05C#C450C450 R
(1720633484.736856) can0 00E#9751 R
(1720633484.737018) can0 05C#97519751 R
(1720633484.737142) can0 041#00 R
(1720633484.737253) can0 016#0C R
(1720633484.737379) can0 015#00 R
(1720633484.737489) can0 017#00 R
(1720633484.737628) can0 056#00 R
(1720633484.742170) can0 007#00 R
(1720633484.772556) can0 00D#DD52 R
(1720633484.772688) can0 05B#DD52 R
(1720633484.772863) can0 014#00 R
(1720633484.772977) can0 008#00 R
(1720633484.773098) can0 055#00 R
(1720633484.773215) can0 05D#00 R
(1720633484.774444) can0 056#00 R
(1720633484.775321) can0 00E#0453 R
(1720633484.775459) can0 00E#0453 R
(1720633484.775624) can0 05C#04530453 R
(1720633484.776380) can0 016#0C R
(1720633484.777264) can0 015#00 R
(1720633484.777379) can0 016#0C R
(1720633484.777505) can0 041#00 R
(1720633484.777665) can0 05C#17531753 R
(1720633484.786645) can0 00E#7853 R
(1720633484.786806) can0 05C#78537853 R
(1720633484.786926) can0 041#00 R
(1720633484.787059) can0 016#0D R
(1720633484.787168) can0 015#00 R
(1720633484.787276) can0 017#00 R
(1720633484.787398) can0 056#00 R
(1720633484.802959) can0 007#00 R
(1720633484.833803) can0 00D#2B55 R
(1720633484.833929) can0 05B#2B55 R
(1720633484.834046) can0 014#00 R
(1720633484.834162) can0 008#00 R
(1720633484.834284) can0 055#00 R
(1720633484.834400) can0 05D#00 R
(1720633484.836705) can0 00E#5255 R
(1720633484.836839) can0 00E#5255 R
(1720633484.838635) can0 015#00 R
(1720633484.838742) can0 056#00 R
(1720633484.838908) can0 05C#65556555 R
(1720633484.838997) can0 016#0D R
(1720633484.839155) can0 00E#6555 R
(1720633484.839314) can0 05C#65556555 R
(1720633484.839436) can0 041#00 R
(1720633484.839548) can0 016#0D R
(1720633484.839669) can0 015#00 R
(1720633484.839784) can0 017#00 R
(1720633484.839905) can0 056#00 R
(1720633484.840019) can0 016#0D R
(1720633484.840142) can0 041#00 R
(1720633484.840303) can0 05C#6F556F55 R
(1720633484.864789) can0 007#00 R
(1720633484.888804) can0 00E#5657 R
(1720633484.888970) can0 05C#56575657 R
(1720633484.889090) can0 041#00 R
(1720633484.889207) can0 016#0D R
(1720633484.889322) can0 015#00 R
(1720633484.889444) can0 017#00 R
(1720633484.889557) can0 056#00 R
(1720633484.895286) can0 00D#8757 R
(1720633484.895422) can0 05B#8757 R
(1720633484.895531) can0 014#00 R
(1720633484.895659) can0 008#00 R
(1720633484.895769) can0 055#00 R
(1720633484.895891) can0 05D#00 R
(1720633484.897287) can0 00E#A457 R
(1720633484.898056) can0 056#00 R
(1720633484.898186) can0 00E#AE57 R
(1720633484.898352) can0 05C#AE57AE57 R
(1720633484.898464) can0 016#0D R
(1720633484.898923) can0 015#00 R
(1720633484.899058) can0 016#0D R
(1720633484.899161) can0 041#00 R
(1720633484.900057) can0 05C#C157C157 R
(1720633484.925902) can0 007#00 R
(1720633484.939042) can0 00E#3F59 R
(1720633484.939194) can0 05C#3F593F59 R
(1720633484.939315) can0 041#00 R
(1720633484.939430) can0 016#0D R
(1720633484.939547) can0 015#00 R
(1720633484.939664) can0 017#00 R
(1720633484.939787) can0 056#00 R
(1720633484.956817) can0 00D#DC59 R
(1720633484.956949) can0 05B#DC59 R
(1720633484.957084) can0 014#00 R
(1720633484.957206) can0 008#00 R
(1720633484.957322) can0 055#00 R
(1720633484.957443) can0 05D#00 R
(1720633484.958636) can0 056#00 R
(1720633484.960595) can0 00E#175A R
(1720633484.961474) can0 015#00 R
(1720633484.961590) can0 016#0E R
(1720633484.961713) can0 041#00 R
(1720633484.961846) can0 00E#175A R
(1720633484.962010) can0 05C#175A175A R
(1720633484.962126) can0 016#0E R
(1720633484.962600) can0 05C#215A215A R
(1720633484.988154) can0 007#00 R
(1720633484.989082) can0 00E#2B5B R
(1720633484.989242) can0 05C#2B5B2B5B R
(1720633484.989371) can0 041#00 R
(1720633484.989480) can0 016#0E R
(1720633484.989607) can0 015#00 R
(1720633484.989717) can0 017#00 R
(1720633484.989840) can0 056#00 R
(1720633485.019639) can0 00D#495C R
(1720633485.019768) can0 05B#495C R
(1720633485.019885) can0 014#00 R
(1720633485.020001) can0 008#00 R
(1720633485.020123) can0 055#00 R
(1720633485.020239) can0 05D#00 R
(1720633485.022302) can0 056#00 R
(1720633485.023269) can0 015#00 R
(1720633485.023384) can0 016#0E R
(1720633485.023516) can0 00E#7B5C R
(1720633485.023644) can0 00E#7B5C R
(1720633485.023810) can0 05C#7B5C7B5C R
(1720633485.024367) can0 041#00 R
(1720633485.024531) can0 05C#845C845C R
(1720633485.024645) can0 016#0E R
(1720633485.039452) can0 00E#195D R
(1720633485.039607) can0 05C#195D195D R
(1720633485.039727) can0 041#00 R
(1720633485.039842) can0 016#0E R
(1720633485.039961) can0 015#00 R
(1720633485.040078) can0 017#00 R
(1720633485.040197) can0 056#00 R
(1720633485.049281) can0 007#00 R
(1720633485.079684) can0 00D#9C5E R
(1720633485.079812) can0 05B#9C5E R
(1720633485.079927) can0 014#00 R
(1720633485.080046) can0 008#00 R
(1720633485.080165) can0 055#00 R
(1720633485.080283) can0 05D#00 R
(1720633485.083489) can0 056#00 R
(1720633485.083618) can0 00E#D85E R
(1720633485.083752) can0 00E#D85E R
(1720633485.084363) can0 015#00 R
(1720633485.084485) can0 016#0E R
(1720633485.084644) can0 05C#D75ED75E R
(1720633485.084761) can0 016#0E R
(1720633485.086384) can0 041#00 R
(1720633485.086549) can0 05C#EB5EEB5E R
(1720633485.089510) can0 00E#135F R
(1720633485.089682) can0 05C#135F135F R
(1720633485.089802) can0 041#00 R
(1720633485.089919) can0 016#0E R
(1720633485.090039) can0 015#00 R
(1720633485.090155) can0 017#00 R
(1720633485.090274) can0 056#00 R
(1720633485.110221) can0 007#00 R
(1720633485.140224) can0 00E#0661 R
(1720633485.140334) can0 00D#F260 R
(1720633485.140507) can0 05C#06610661 R
(1720633485.140627) can0 041#00 R
(1720633485.140746) can0 016#0F R
(1720633485.140863) can0 015#00 R
(1720633485.140979) can0 017#00 R
(1720633485.141098) can0 056#00 R
(1720633485.141231) can0 05B#F260 R
(1720633485.141346) can0 014#00 R
(1720633485.141465) can0 008#00 R
(1720633485.141585) can0 055#00 R
(1720633485.141703) can0 05D#00 R
(1720633485.143450) can0 056#00 R
(1720633485.143582) can0 00E#2461 R
(1720633485.143955) can0 00E#2E61 R
(1720633485.144115) can0 05C#2E612E61 R
(1720633485.144237) can0 016#0F R
(1720633485.144900) can0 015#00 R
(1720633485.145896) can0 016#0F R
(1720633485.146017) can0 041#00 R
(1720633485.146182) can0 05C#42614261 R
(1720633485.170480) can0 007#00 R
(1720633485.189892) can0 00E#FA62 R
(1720633485.190054) can0 05C#FA62FA62 R
(1720633485.190177) can0 041#00 R
(1720633485.190291) can0 016#0F R
(1720633485.190413) can0 015#00 R
(1720633485.190527) can0 017#00 R
(1720633485.190649) can0 056#00 R
(1720633485.201657) can0 00D#5E63 R
(1720633485.201786) can0 05B#5E63 R
(1720633485.201902) can0 014#00 R
(1720633485.202019) can0 008#00 R
(1720633485.202142) can0 055#00 R
(1720633485.202259) can0 05D#00 R
(1720633485.203445) can0 056#00 R
(1720633485.204618) can0 00E#8663 R
(1720633485.205252) can0 015#00 R
(1720633485.205366) can0 016#0F R
(1720633485.205497) can0 00E#9063 R
(1720633485.205666) can0 05C#90639063 R
(1720633485.205781) can0 016#0F R
(1720633485.206105) can0 041#00 R
(1720633485.206270) can0 05C#9A639A63 R
(1720633485.232534) can0 007#00 R
(1720633485.239403) can0 00E#F064 R
(1720633485.239569) can0 05C#F064F064 R
(1720633485.239691) can0 041#00 R
(1720633485.239807) can0 016#0F R
(1720633485.239928) can0 015#00 R
(1720633485.240043) can0 017#00 R
(1720633485.240179) can0 056#00 R
(1720633485.263920) can0 00D#CE65 R
(1720633485.264046) can0 05B#CE65 R
(1720633485.264167) can0 014#00 R
(1720633485.264279) can0 008#00 R
(1720633485.264401) can0 055#00 R
(1720633485.264518) can0 05D#00 R
(1720633485.266698) can0 056#00 R
(1720633485.266827) can0 00E#0066 R
(1720633485.266997) can0 00E#0066 R
(1720633485.267133) can0 05C#00660066 R
(1720633485.267598) can0 015#00 R
(1720633485.267722) can0 016#0F R
(1720633485.267829) can0 016#0F R
(1720633485.268468) can0 041#00 R
(1720633485.268631) can0 05C#14661466 R
(1720633485.290275) can0 00E#E866 R
(1720633485.290434) can0 05C#E866E866 R
(1720633485.290562) can0 041#00 R
(1720633485.290669) can0 016#10 R
(1720633485.290796) can0 015#00 R
(1720633485.290905) can0 017#00 R
(1720633485.291027) can0 056#00 R
(1720633485.294580) can0 007#00 R
(1720633485.325197) can0 00D#4068 R
(1720633485.325330) can0 05B#4068 R
(1720633485.325467) can0 014#00 R
(1720633485.325590) can0 008#00 R
(1720633485.325705) can0 055#00 R
(1720633485.325827) can0 05D#00 R
(1720633485.327979) can0 056#00 R
(1720633485.328112) can0 00E#6868 R
(1720633485.328243) can0 00E#6868 R
(1720633485.328955) can0 015#00 R
(1720633485.329124) can0 05C#72687268 R
(1720633485.329236) can0 016#10 R
(1720633485.330036) can0 016#10 R
(1720633485.330152) can0 041#00 R
(1720633485.330320) can0 05C#7C687C68 R
(1720633485.339988) can0 00E#E268 R
(1720633485.340160) can0 05C#E268E268 R
(1720633485.340271) can0 041#00 R
(1720633485.340383) can0 016#10 R
(1720633485.340503) can0 015#00 R
(1720633485.340618) can0 017#00 R
(1720633485.340739) can0 056#00 R
(1720633485.355167) can0 007#00 R
(1720633485.385065) can0 00D#966A R
(1720633485.385268) can0 05B#966A R
(1720633485.385376) can0 014#00 R
(1720633485.385497) can0 008#00 R
(1720633485.385616) can0 055#00 R
(1720633485.385744) can0 05D#00 R
(1720633485.387921) can0 056#00 R
(1720633485.388052) can0 00E#C86A R
(1720633485.388736) can0 015#00 R
(1720633485.388865) can0 00E#D26A R
(1720633485.389031) can0 05C#D26AD26A R
(1720633485.389144) can0 016#10 R
(1720633485.389841) can0 016#10 R
(1720633485.389959) can0 041#00 R
(1720633485.390129) can0 05C#DD6ADC6A R
(1720633485.390253) can0 00E#DD6A R
(1720633485.390416) can0 05C#DD6ADC6A R
(1720633485.390539) can0 041#00 R
(1720633485.390652) can0 016#10 R
(1720633485.390773) can0 015#00 R
(1720633485.390895) can0 017#00 R
(1720633485.391018) can0 056#00 R
(1720633485.414906) can0 007#00 R
(1720633485.441235) can0 00E#E36C R
(1720633485.441383) can0 05C#E36CE36C R
(1720633485.441503) can0 041#00 R
(1720633485.441616) can0 016#11 R
(1720633485.441738) can0 015#00 R
(1720633485.441861) can0 017#00 R
(1720633485.441973) can0 056#00 R
(1720633485.445565) can0 00D#026D R
(1720633485.445705) can0 05B#026D R
(1720633485.445813) can0 014#00 R
(1720633485.445937) can0 008#00 R
(1720633485.446050) can0 055#00 R
(1720633485.446174) can0 05D#00 R
(1720633485.447214) can0 056#00 R
(1720633485.448158) can0 00E#2A6D R
(1720633485.449058) can0 015#00 R
(1720633485.449191) can0 00E#346D R
(1720633485.449352) can0 05C#346D346D R
(1720633485.449476) can0 016#11 R
(1720633485.450081) can0 016#11 R
(1720633485.450208) can0 041#00 R
(1720633485.450370) can0 05C#3F6D3F6D R
(1720633485.475904) can0 007#00 R
(1720633485.490986) can0 00E#E16E R
(1720633485.491384) can0 05C#E16EE06E R
(1720633485.491512) can0 041#00 R
(1720633485.491619) can0 016#11 R
(1720633485.491744) can0 015#00 R
(1720633485.491855) can0 017#00 R
(1720633485.491977) can0 056#00 R
(1720633485.506274) can0 00D#6F6F R
(1720633485.506408) can0 05B#6F6F R
(1720633485.506523) can0 014#00 R
(1720633485.506642) can0 008#00 R
(1720633485.506761) can0 055#00 R
(1720633485.506879) can0 05D#00 R
(1720633485.507800) can0 056#00 R
(1720633485.510023) can0 015#00 R
(1720633485.510136) can0 016#11 R
(1720633485.510271) can0 00E#A26F R
(1720633485.510400) can0 00E#A26F R
(1720633485.510571) can0 05C#A26FA26F R
(1720633485.511192) can0 041#00 R
(1720633485.511357) can0 05C#B76FB76F R
(1720633485.511472) can0 016#11 R
(1720633485.537540) can0 007#00 R
(1720633485.540445) can0 00E#DF70 R
(1720633485.540615) can0 05C#DF70DF70 R
(1720633485.540735) can0 041#00 R
(1720633485.540850) can0 016#11 R
(1720633485.540969) can0 015#00 R
(1720633485.541086) can0 017#00 R
(1720633485.541203) can0 056#00 R
(1720633485.569622) can0 00D#F371 R
(1720633485.569750) can0 05B#F371 R
(1720633485.569867) can0 014#00 R
(1720633485.569984) can0 008#00 R
(1720633485.570104) can0 055#00 R
(1720633485.570222) can0 05D#00 R
(1720633485.571446) can0 00E#1C72 R
(1720633485.571576) can0 00E#1C72 R
(1720633485.572285) can0 015#00 R
(1720633485.572408) can0 016#11 R
(1720633485.572517) can0 056#00 R
(1720633485.572681) can0 05C#26722672 R
(1720633485.572798) can0 016#11 R
(1720633485.573373) can0 041#00 R
(1720633485.573535) can0 05C#31723172 R
(1720633485.591846) can0 00E#E972 R
(1720633485.592017) can0 05C#E972E972 R
(1720633485.592133) can0 041#00 R
(1720633485.592256) can0 016#11 R
(1720633485.592367) can0 015#00 R
(1720633485.592485) can0 017#00 R
(1720633485.592603) can0 056#00 R
(1720633485.600545) can0 007#00 R
(1720633485.631396) can0 00D#6E74 R
(1720633485.631523) can0 05B#6E74 R
(1720633485.631637) can0 014#00 R
(1720633485.631756) can0 008#00 R
(1720633485.631879) can0 055#00 R
(1720633485.631996) can0 05D#00 R
(1720633485.634430) can0 056#00 R
(1720633485.634562) can0 00E#A274 R
(1720633485.635187) can0 015#00 R
(1720633485.635303) can0 016#12 R
(1720633485.635435) can0 00E#AC74 R
(1720633485.635600) can0 05C#AC74AC74 R
(1720633485.635713) can0 016#12 R
(1720633485.636276) can0 041#00 R
(1720633485.636441) can0 05C#B674B674 R
(1720633485.641466) can0 00E#E974 R
(1720633485.641622) can0 05C#E974E974 R
(1720633485.641739) can0 041#00 R
(1720633485.641862) can0 016#12 R
(1720633485.641973) can0 015#00 R
(1720633485.642100) can0 017#00 R
(1720633485.642210) can0 056#00 R
(1720633485.662607) can0 007#00 R
(1720633485.691563) can0 00E#EA76 R
(1720633485.691722) can0 05C#EA76EA76 R
(1720633485.691846) can0 041#00 R
(1720633485.691957) can0 016#12 R
(1720633485.692077) can0 015#00 R
(1720633485.692192) can0 017#00 R
(1720633485.692313) can0 056#00 R
(1720633485.693357) can0 00D#EA76 R
(1720633485.693490) can0 05B#EA76 R
(1720633485.693606) can0 014#00 R
(1720633485.693724) can0 008#00 R
(1720633485.693844) can0 055#00 R
(1720633485.693963) can0 05D#00 R
(1720633485.695549) can0 00E#1477 R
(1720633485.696361) can0 056#00 R
(1720633485.696492) can0 00E#1E77 R
(1720633485.696670) can0 05C#1E771E77 R
(1720633485.696775) can0 016#12 R
(1720633485.697537) can0 015#00 R
(1720633485.698470) can0 016#12 R
(1720633485.698595) can0 041#00 R
(1720633485.698755) can0 05C#32773277 R
(1720633485.723615) can0 007#00 R
(1720633485.741760) can0 00E#EC78 R
(1720633485.741910) can0 05C#EC78EC78 R
(1720633485.742043) can0 041#00 R
(1720633485.742146) can0 016#12 R
(1720633485.742269) can0 015#00 R
(1720633485.742382) can0 017#00 R
(1720633485.742507) can0 056#00 R
(1720633485.754900) can0 00D#6879 R
(1720633485.755029) can0 05B#6879 R
(1720633485.755153) can0 014#00 R
(1720633485.755266) can0 008#00 R
(1720633485.755396) can0 055#00 R
(1720633485.755503) can0 05D#00 R
(1720633485.756685) can0 056#00 R
(1720633485.757676) can0 00E#9179 R
(1720633485.757895) can0 00E#9179 R
(1720633485.758054) can0 05C#91799179 R
(1720633485.758635) can0 015#00 R
(1720633485.758822) can0 016#13 R
(1720633485.759614) can0 016#13 R
(1720633485.759813) can0 041#00 R
(1720633485.759976) can0 05C#A579A579 R
(1720633485.786036) can0 007#00 R
(1720633485.791218) can0 00E#EE7A R
(1720633485.791379) can0 05C#EE7AEE7A R
(1720633485.791502) can0 041#00 R
(1720633485.791615) can0 016#13 R
(1720633485.791736) can0 015#00 R
(1720633485.791851) can0 017#00 R
(1720633485.791972) can0 056#00 R
(1720633485.815810) can0 00D#DB7B R
(1720633485.815941) can0 05B#DB7B R
(1720633485.816056) can0 014#00 R
(1720633485.816175) can0 008#00 R
(1720633485.816294) can0 055#00 R
(1720633485.816413) can0 05D#00 R
(1720633485.817642) can0 00E#FA7B R
(1720633485.817773) can0 00E#FA7B R
(1720633485.818618) can0 056#00 R
(1720633485.818790) can0 05C#047C047C R
(1720633485.818903) can0 016#13 R
(1720633485.820639) can0 015#00 R
(1720633485.820754) can0 016#13 R
(1720633485.820884) can0 041#00 R
(1720633485.821046) can0 05C#197C197C R
(1720633485.841757) can0 00E#F17C R
(1720633485.841916) can0 05C#F17CF17C R
(1720633485.842034) can0 041#00 R
(1720633485.842151) can0 016#13 R
(1720633485.842267) can0 015#00 R
(1720633485.842385) can0 017#00 R
(1720633485.842503) can0 056#00 R
(1720633485.845877) can0 007#00 R
(1720633485.875550) can0 00D#3A7E R
(1720633485.875682) can0 05B#3A7E R
(1720633485.875795) can0 014#00 R
(1720633485.875919) can0 008#00 R
(1720633485.876033) can0 055#00 R
(1720633485.876155) can0 05D#00 R
(1720633485.877525) can0 00E#637E R
(1720633485.877936) can0 056#00 R
(1720633485.878071) can0 00E#6E7E R
(1720633485.878236) can0 05C#6E7E6D7E R
(1720633485.878350) can0 016#13 R
(1720633485.879071) can0 015#00 R
(1720633485.879184) can0 016#13 R
(1720633485.880096) can0 041#00 R
(1720633485.880266) can0 05C#827E827E R
(1720633485.891597) can0 00E#F37E R
(1720633485.891772) can0 05C#F37EF37E R
(1720633485.891888) can0 041#00 R
(1720633485.891998) can0 016#13 R
(1720633485.892120) can0 015#00 R
(1720633485.892236) can0 017#00 R
(1720633485.892355) can0 056#00 R
(1720633485.905789) can0 007#00 R
(1720633485.937127) can0 00D#B880 R
(1720633485.937267) can0 05B#B880 R
(1720633485.937376) can0 014#01 R
(1720633485.937492) can0 008#01 R
(1720633485.937610) can0 055#01 R
(1720633485.937728) can0 05D#01 R
(1720633485.939698) can0 015#01 R
(1720633485.939816) can0 016#14 R
(1720633485.939930) can0 041#01 R
(1720633485.940105) can0 05C#E180E180 R
(1720633485.940213) can0 056#01 R
(1720633485.940346) can0 00E#E180 R
(1720633485.940979) can0 00E#EC80 R
(1720633485.941147) can0 05C#EC80EC80 R
(1720633485.941258) can0 016#14 R
(1720633485.941793) can0 00E#F680 R
(1720633485.941947) can0 05C#F680F680 R
(1720633485.942065) can0 041#01 R
(1720633485.942175) can0 016#14 R
(1720633485.942293) can0 015#01 R
(1720633485.942410) can0 017#01 R
(1720633485.942526) can0 056#01 R
(1720633485.967506) can0 007#01 R
(1720633485.991248) can0 00E#F982 R
(1720633485.991417) can0 05C#F982F982 R
(1720633485.991536) can0 041#01 R
(1720633485.991647) can0 016#14 R
(1720633485.991763) can0 015#01 R
(1720633485.991880) can0 017#01 R
(1720633485.991996) can0 056#01 R
(1720633485.998429) can0 00D#2C83 R
(1720633485.998560) can0 05B#2C83 R
(1720633485.998675) can0 014#01 R
(1720633485.998790) can0 008#01 R
(1720633485.998910) can0 055#01 R
(1720633485.999040) can0 05D#01 R
(1720633486.001241) can0 015#01 R
(1720633486.001353) can0 016#14 R
(1720633486.001530) can0 05C#60836083 R
(1720633486.001642) can0 056#01 R
(1720633486.002213) can0 041#01 R
(1720633486.002344) can0 00E#6A83 R
(1720633486.002477) can0 00E#6A83 R
(1720633486.002645) can0 05C#6A836A83 R
(1720633486.003078) can0 016#14 R
(1720633486.029297) can0 007#01 R
(1720633486.041539) can0 00E#FB84 R
(1720633486.041707) can0 05C#FB84FB84 R
(1720633486.041824) can0 041#01 R
(1720633486.041935) can0 016#14 R
(1720633486.042049) can0 015#01 R
(1720633486.042168) can0 017#01 R
(1720633486.042284) can0 056#01 R
(1720633486.059784) can0 00D#AA85 R
(1720633486.059914) can0 05B#AA85 R
(1720633486.060128) can0 014#01 R
(1720633486.060242) can0 008#01 R
(1720633486.060358) can0 055#01 R
(1720633486.060477) can0 05D#01 R
(1720633486.062130) can0 015#01 R
(1720633486.062259) can0 00E#D385 R
(1720633486.062388) can0 00E#D385 R
(1720633486.063196) can0 016#14 R
(1720633486.063314) can0 041#01 R
(1720633486.063477) can0 05C#DD85DD85 R
(1720633486.063639) can0 05C#DD85DD85 R
(1720633486.063752) can0 016#14 R
(1720633486.064269) can0 056#01 R
(1720633486.090988) can0 00E#FD86 R
(1720633486.091093) can0 007#01 R
(1720633486.091256) can0 05C#FD86FD86 R
(1720633486.091369) can0 041#01 R
(1720633486.091485) can0 016#15 R
(1720633486.091601) can0 015#01 R
(1720633486.091718) can0 017#01 R
(1720633486.091835) can0 056#01 R
(1720633486.121370) can0 00D#1D88 R
(1720633486.121492) can0 05B#1D88 R
(1720633486.121734) can0 014#01 R
(1720633486.121846) can0 008#01 R
(1720633486.121963) can0 055#01 R
