(1722448884.854091) can0 00D#DDD1 R
(1722448884.854176) can0 05B#DDD1 R
(1722448884.854291) can0 014#01 R
(1722448884.854404) can0 008#01 R
(1722448884.854534) can0 055#01 R
(1722448884.854636) can0 05D#01 R
(1722448884.879659) can0 007#01 R
(1722448884.883798) can0 015#01 R
(1722448884.883916) can0 016#20 R
(1722448884.884039) can0 041#01 R
(1722448884.884195) can0 05C#10D310D3 R
(1722448884.884327) can0 00E#10D3 R
(1722448884.884455) can0 00E#10D3 R
(1722448884.884626) can0 05C#10D310D3 R
(1722448884.884757) can0 041#01 R
(1722448884.884860) can0 016#20 R
(1722448884.884971) can0 015#01 R
(1722448884.885102) can0 017#01 R
(1722448884.885209) can0 056#01 R
(1722448884.898873) can0 056#01 R
(1722448884.898980) can0 00E#85D3 R
(1722448884.899144) can0 05C#85D385D3 R
(1722448884.899258) can0 016#21 R
(1722448884.913867) can0 00D#B4D3 R
(1722448884.913996) can0 05B#B4D3 R
(1722448884.914112) can0 014#01 R
(1722448884.914235) can0 008#01 R
(1722448884.914344) can0 055#01 R
(1722448884.914462) can0 05D#01 R
(1722448884.929454) can0 007#01 R
(1722448884.943756) can0 015#01 R
(1722448884.943870) can0 016#21 R
(1722448884.944031) can0 05C#E2D4E2D4 R
(1722448884.944171) can0 00E#E2D4 R
(1722448884.944294) can0 00E#E2D4 R
(1722448884.944453) can0 05C#E2D4E2D4 R
(1722448884.944572) can0 041#01 R
(1722448884.944685) can0 016#21 R
(1722448884.944802) can0 015#01 R
(1722448884.944921) can0 017#01 R
(1722448884.945038) can0 056#01 R
(1722448884.958790) can0 041#01 R
(1722448884.958906) can0 056#01 R
(1722448884.959033) can0 00E#55D5 R
(1722448884.959199) can0 05C#55D555D5 R
(1722448884.959311) can0 016#21 R
(1722448884.973752) can0 00D#83D5 R
(1722448884.973889) can0 05B#83D5 R
(1722448884.974005) can0 014#01 R
(1722448884.974121) can0 008#01 R
(1722448884.974236) can0 055#01 R
(1722448884.974353) can0 05D#01 R
(1722448884.983639) can0 007#01 R
(1722448885.003781) can0 015#01 R
(1722448885.003923) can0 05C#ACD6ACD6 R
(1722448885.004054) can0 00E#ACD6 R
(1722448885.004216) can0 05C#ACD6ACD6 R
(1722448885.004334) can0 041#01 R
(1722448885.004447) can0 016#21 R
(1722448885.004565) can0 015#01 R
(1722448885.004682) can0 017#01 R
(1722448885.004821) can0 056#01 R
(1722448885.018801) can0 016#21 R
(1722448885.018915) can0 041#01 R
(1722448885.019031) can0 056#01 R
(1722448885.019161) can0 00E#1ED7 R
(1722448885.019292) can0 00E#1ED7 R
(1722448885.019460) can0 05C#1ED71ED7 R
(1722448885.033643) can0 007#01 R
(1722448885.033900) can0 016#21 R
(1722448885.034030) can0 00D#4BD7 R
(1722448885.034160) can0 05B#4BD7 R
(1722448885.034278) can0 014#01 R
(1722448885.034394) can0 008#01 R
(1722448885.034509) can0 055#01 R
(1722448885.034628) can0 05D#01 R
(1722448885.063744) can0 05C#6FD86FD8 R
(1722448885.063876) can0 00E#6FD8 R
(1722448885.064005) can0 00E#6FD8 R
(1722448885.064140) can0 00E#6FD8 R
(1722448885.064305) can0 05C#6FD86FD8 R
(1722448885.064423) can0 041#01 R
(1722448885.064537) can0 016#21 R
(1722448885.064654) can0 015#01 R
(1722448885.064793) can0 017#01 R
(1722448885.064894) can0 056#01 R
(1722448885.079076) can0 015#01 R
(1722448885.079192) can0 016#21 R
(1722448885.079308) can0 041#01 R
(1722448885.079425) can0 056#01 R
(1722448885.079592) can0 05C#DED8DED8 R
(1722448885.079707) can0 016#21 R
(1722448885.093721) can0 00D#0BD9 R
(1722448885.093861) can0 05B#0BD9 R
(1722448885.093968) can0 014#01 R
(1722448885.094088) can0 008#01 R
(1722448885.094200) can0 055#01 R
(1722448885.094327) can0 05D#01 R
(1722448885.094476) can0 007#01 R
(1722448885.123676) can0 05C#29DA29DA R
(1722448885.123811) can0 00E#29DA R
(1722448885.123935) can0 00E#29DA R
(1722448885.124100) can0 05C#29DA29DA R
(1722448885.124212) can0 041#01 R
(1722448885.124329) can0 016#22 R
(1722448885.124443) can0 015#01 R
(1722448885.124562) can0 017#01 R
(1722448885.124678) can0 056#01 R
(1722448885.124811) can0 015#01 R
(1722448885.124910) can0 016#22 R
(1722448885.125027) can0 041#01 R
(1722448885.125142) can0 056#01 R
(1722448885.125273) can0 00E#29DA R
(1722448885.125436) can0 05C#29DA29DA R
(1722448885.125549) can0 016#22 R
(1722448885.143792) can0 007#01 R
(1722448885.153817) can0 00D#C2DA R
(1722448885.153944) can0 05B#C2DA R
(1722448885.154061) can0 014#01 R
(1722448885.154174) can0 008#01 R
(1722448885.154293) can0 055#01 R
(1722448885.154408) can0 05D#01 R
(1722448885.183659) can0 015#01 R
(1722448885.183827) can0 016#22 R
(1722448885.183951) can0 00E#DCDB R
(1722448885.184088) can0 00E#DCDB R
(1722448885.184249) can0 05C#DCDBDCDB R
(1722448885.184367) can0 041#01 R
(1722448885.184478) can0 016#22 R
(1722448885.184600) can0 015#01 R
(1722448885.184711) can0 017#01 R
(1722448885.184835) can0 056#01 R
(1722448885.184948) can0 041#01 R
(1722448885.185117) can0 05C#DCDBDCDB R
(1722448885.185228) can0 056#01 R
(1722448885.185364) can0 00E#DCDB R
(1722448885.185520) can0 05C#DCDBDCDB R
(1722448885.185633) can0 016#22 R
(1722448885.193728) can0 007#01 R
(1722448885.213661) can0 00D#72DC R
(1722448885.213786) can0 05B#72DC R
(1722448885.213893) can0 014#01 R
(1722448885.214011) can0 008#01 R
(1722448885.214128) can0 055#01 R
(1722448885.214248) can0 05D#01 R
(1722448885.243617) can0 007#01 R
(1722448885.243743) can0 00E#86DD R
(1722448885.243909) can0 05C#86DD86DD R
(1722448885.244023) can0 041#01 R
(1722448885.244138) can0 016#22 R
(1722448885.244253) can0 015#01 R
(1722448885.244372) can0 017#01 R
(1722448885.244487) can0 056#01 R
(1722448885.258753) can0 015#01 R
(1722448885.258861) can0 016#22 R
(1722448885.258987) can0 041#01 R
(1722448885.259146) can0 05C#EFDDEFDD R
(1722448885.259262) can0 056#01 R
(1722448885.259396) can0 00E#EFDD R
(1722448885.259538) can0 00E#EFDD R
(1722448885.259698) can0 05C#EFDDEFDD R
(1722448885.273827) can0 016#22 R
(1722448885.273959) can0 00D#19DE R
(1722448885.274103) can0 05B#19DE R
(1722448885.274206) can0 014#01 R
(1722448885.274318) can0 008#01 R
(1722448885.274437) can0 055#01 R
(1722448885.274554) can0 05D#01 R
(1722448885.293656) can0 007#01 R
(1722448885.303682) can0 00E#27DF R
(1722448885.303817) can0 00E#27DF R
(1722448885.303956) can0 00E#27DF R
(1722448885.304125) can0 05C#27DF27DF R
(1722448885.304247) can0 041#01 R
(1722448885.304356) can0 016#22 R
(1722448885.304478) can0 015#01 R
(1722448885.304590) can0 017#01 R
(1722448885.304706) can0 056#01 R
(1722448885.318911) can0 015#01 R
(1722448885.318999) can0 016#22 R
(1722448885.319131) can0 041#01 R
(1722448885.319297) can0 05C#8EDF8EDF R
(1722448885.319409) can0 056#01 R
(1722448885.319579) can0 05C#8EDF8EDF R
(1722448885.319689) can0 016#22 R
(1722448885.333817) can0 00D#B7DF R
(1722448885.333951) can0 05B#B7DF R
(1722448885.334067) can0 014#01 R
(1722448885.334181) can0 008#01 R
(1722448885.334299) can0 055#01 R
(1722448885.334421) can0 05D#01 R
(1722448885.343726) can0 007#01 R
(1722448885.363777) can0 015#01 R
(1722448885.363887) can0 016#23 R
(1722448885.364007) can0 041#01 R
(1722448885.364141) can0 00E#C0E0 R
(1722448885.364274) can0 00E#C0E0 R
(1722448885.364451) can0 05C#C0E0C0E0 R
(1722448885.364566) can0 041#01 R
(1722448885.364680) can0 016#23 R
(1722448885.364809) can0 015#01 R
(1722448885.364913) can0 017#01 R
(1722448885.365030) can0 056#01 R
(1722448885.378852) can0 05C#25E124E1 R
(1722448885.378966) can0 056#01 R
(1722448885.379096) can0 00E#25E1 R
(1722448885.379261) can0 05C#25E124E1 R
(1722448885.379369) can0 016#23 R
(1722448885.393737) can0 007#01 R
(1722448885.393866) can0 00D#4DE1 R
(1722448885.394027) can0 05B#4DE1 R
(1722448885.394092) can0 014#01 R
(1722448885.394244) can0 008#01 R
(1722448885.394348) can0 055#01 R
(1722448885.394472) can0 05D#01 R
(1722448885.423740) can0 015#01 R
(1722448885.423828) can0 016#23 R
(1722448885.423970) can0 00E#50E2 R
(1722448885.424099) can0 00E#50E2 R
(1722448885.424265) can0 05C#50E250E2 R
(1722448885.424378) can0 041#01 R
(1722448885.424492) can0 016#23 R
(1722448885.424607) can0 015#01 R
(1722448885.424727) can0 017#01 R
(1722448885.424835) can0 056#01 R
(1722448885.438835) can0 041#01 R
(1722448885.439000) can0 05C#B2E2B2E2 R
(1722448885.439114) can0 056#01 R
(1722448885.439243) can0 00E#B2E2 R
(1722448885.439406) can0 05C#B2E2B2E2 R
(1722448885.439517) can0 016#23 R
(1722448885.443511) can0 007#01 R
(1722448885.453922) can0 00D#DAE2 R
(1722448885.454054) can0 05B#DAE2 R
(1722448885.454169) can0 014#01 R
(1722448885.454284) can0 008#01 R
(1722448885.454404) can0 055#01 R
(1722448885.454525) can0 05D#01 R
(1722448885.483794) can0 015#01 R
(1722448885.483923) can0 00E#D7E3 R
(1722448885.484094) can0 05C#D7E3D7E3 R
(1722448885.484210) can0 041#01 R
(1722448885.484324) can0 016#23 R
(1722448885.484440) can0 015#01 R
(1722448885.484558) can0 017#01 R
(1722448885.484676) can0 056#01 R
(1722448885.496261) can0 007#01 R
(1722448885.498863) can0 016#23 R
(1722448885.498971) can0 041#01 R
(1722448885.499135) can0 05C#37E437E4 R
(1722448885.499254) can0 056#01 R
(1722448885.499388) can0 00E#37E4 R
(1722448885.499523) can0 00E#37E4 R
(1722448885.499690) can0 05C#37E437E4 R
(1722448885.513779) can0 016#23 R
(1722448885.513907) can0 00D#5DE4 R
(1722448885.514044) can0 05B#5DE4 R
(1722448885.514152) can0 014#01 R
(1722448885.514272) can0 008#01 R
(1722448885.514387) can0 055#01 R
(1722448885.514505) can0 05D#01 R
(1722448885.543747) can0 00E#55E5 R
(1722448885.543835) can0 00E#55E5 R
(1722448885.543976) can0 00E#55E5 R
(1722448885.544131) can0 05C#55E555E5 R
(1722448885.544247) can0 041#01 R
(1722448885.544367) can0 016#23 R
(1722448885.544475) can0 015#01 R
(1722448885.544601) can0 017#01 R
(1722448885.544711) can0 056#01 R
(1722448885.545836) can0 007#01 R
(1722448885.558796) can0 015#01 R
(1722448885.558908) can0 016#23 R
(1722448885.559026) can0 041#01 R
(1722448885.559193) can0 05C#B3E5B3E5 R
(1722448885.559307) can0 056#01 R
(1722448885.559482) can0 05C#B3E5B3E5 R
(1722448885.559590) can0 016#23 R
(1722448885.573666) can0 00D#D8E5 R
(1722448885.573797) can0 05B#D8E5 R
(1722448885.573911) can0 014#01 R
(1722448885.574027) can0 008#01 R
(1722448885.574143) can0 055#01 R
(1722448885.574263) can0 05D#01 R
(1722448885.595673) can0 007#01 R
(1722448885.603793) can0 00E#C9E6 R
(1722448885.603926) can0 00E#C9E6 R
(1722448885.604087) can0 05C#C9E6C9E6 R
(1722448885.604209) can0 041#01 R
(1722448885.604322) can0 016#24 R
(1722448885.604439) can0 015#01 R
(1722448885.604557) can0 017#01 R
(1722448885.604675) can0 056#01 R
(1722448885.618675) can0 015#01 R
(1722448885.618846) can0 016#24 R
(1722448885.618961) can0 041#01 R
(1722448885.619128) can0 05C#25E725E7 R
(1722448885.619242) can0 056#01 R
(1722448885.619378) can0 00E#25E7 R
(1722448885.619537) can0 05C#25E725E7 R
(1722448885.619658) can0 016#24 R
(1722448885.633741) can0 00D#4AE7 R
(1722448885.633857) can0 05B#4AE7 R
(1722448885.633973) can0 014#01 R
(1722448885.634087) can0 008#01 R
(1722448885.634205) can0 055#01 R
(1722448885.634324) can0 05D#01 R
(1722448885.645645) can0 007#01 R
(1722448885.663622) can0 015#01 R
(1722448885.663739) can0 016#24 R
(1722448885.663856) can0 041#01 R
(1722448885.663988) can0 00E#35E8 R
(1722448885.664117) can0 00E#35E8 R
(1722448885.664286) can0 05C#35E835E8 R
(1722448885.664401) can0 041#01 R
(1722448885.664519) can0 016#24 R
(1722448885.664636) can0 015#01 R
(1722448885.664781) can0 017#01 R
(1722448885.664857) can0 056#01 R
(1722448885.678874) can0 05C#8EE88EE8 R
(1722448885.678991) can0 056#01 R
(1722448885.679119) can0 00E#8EE8 R
(1722448885.679286) can0 05C#8EE88EE8 R
(1722448885.679403) can0 016#24 R
(1722448885.693751) can0 00D#B2E8 R
(1722448885.693939) can0 05B#B2E8 R
(1722448885.694055) can0 014#01 R
(1722448885.694170) can0 008#01 R
(1722448885.694287) can0 055#01 R
(1722448885.694407) can0 05D#01 R
(1722448885.695611) can0 007#01 R
(1722448885.723636) can0 015#01 R
(1722448885.723755) can0 016#24 R
(1722448885.723887) can0 00E#97E9 R
(1722448885.724058) can0 05C#97E997E9 R
(1722448885.724171) can0 041#01 R
(1722448885.724291) can0 016#24 R
(1722448885.724406) can0 015#01 R
(1722448885.724525) can0 017#01 R
(1722448885.724640) can0 056#01 R
(1722448885.738796) can0 041#01 R
(1722448885.738943) can0 05C#EEE9EDE9 R
(1722448885.739059) can0 056#01 R
(1722448885.739189) can0 00E#EEE9 R
(1722448885.739324) can0 00E#EEE9 R
(1722448885.739479) can0 05C#EEE9EDE9 R
(1722448885.745498) can0 007#01 R
(1722448885.753717) can0 00D#10EA R
(1722448885.753833) can0 016#24 R
(1722448885.753964) can0 05B#10EA R
(1722448885.754082) can0 014#01 R
(1722448885.754196) can0 008#01 R
(1722448885.754314) can0 055#01 R
(1722448885.754436) can0 05D#01 R
(1722448885.783787) can0 015#01 R
(1722448885.783920) can0 00E#EFEA R
(1722448885.784066) can0 00E#EFEA R
(1722448885.784188) can0 00E#EFEA R
(1722448885.784356) can0 05C#EFEAEFEA R
(1722448885.784471) can0 041#01 R
(1722448885.784588) can0 016#24 R
(1722448885.784706) can0 015#01 R
(1722448885.784829) can0 017#01 R
(1722448885.784940) can0 056#01 R
(1722448885.795666) can0 007#01 R
(1722448885.798825) can0 016#24 R
(1722448885.798933) can0 041#01 R
(1722448885.799105) can0 05C#43EB43EB R
(1722448885.799216) can0 056#01 R
(1722448885.799387) can0 05C#43EB43EB R
(1722448885.799500) can0 016#24 R
(1722448885.813687) can0 00D#65EB R
(1722448885.813874) can0 05B#65EB R
(1722448885.813987) can0 014#01 R
(1722448885.814103) can0 008#01 R
(1722448885.814219) can0 055#01 R
(1722448885.814338) can0 05D#01 R
(1722448885.843681) can0 00E#3DEC R
(1722448885.843803) can0 00E#3DEC R
(1722448885.843968) can0 05C#3DEC3DEC R
(1722448885.844081) can0 041#01 R
(1722448885.844199) can0 016#24 R
(1722448885.844315) can0 015#01 R
(1722448885.844433) can0 017#01 R
(1722448885.844549) can0 056#01 R
(1722448885.845647) can0 007#01 R
(1722448885.858787) can0 015#01 R
(1722448885.858901) can0 016#24 R
(1722448885.859021) can0 041#01 R
(1722448885.859193) can0 05C#8FEC8FEC R
(1722448885.859304) can0 056#01 R
(1722448885.859437) can0 00E#90EC R
(1722448885.859607) can0 05C#8FEC8FEC R
(1722448885.859721) can0 016#24 R
(1722448885.873891) can0 00D#B0EC R
(1722448885.874019) can0 05B#B0EC R
(1722448885.874133) can0 014#01 R
(1722448885.874248) can0 008#01 R
(1722448885.874366) can0 055#01 R
(1722448885.874483) can0 05D#01 R
(1722448885.895626) can0 007#01 R
(1722448885.903731) can0 00E#82ED R
(1722448885.903863) can0 00E#82ED R
(1722448885.904030) can0 05C#82ED82ED R
(1722448885.904145) can0 041#01 R
(1722448885.904259) can0 016#25 R
(1722448885.904375) can0 015#01 R
(1722448885.904493) can0 017#01 R
(1722448885.904609) can0 056#01 R
(1722448885.918812) can0 015#01 R
(1722448885.918921) can0 016#25 R
(1722448885.919041) can0 041#01 R
(1722448885.919202) can0 05C#D2EDD2ED R
(1722448885.919317) can0 056#01 R
(1722448885.919453) can0 00E#D2ED R
(1722448885.919615) can0 05C#D2EDD2ED R
(1722448885.919729) can0 016#25 R
(1722448885.933778) can0 00D#F1ED R
(1722448885.933962) can0 05B#F1ED R
(1722448885.934077) can0 014#01 R
(1722448885.934194) can0 008#01 R
(1722448885.934310) can0 055#01 R
(1722448885.934428) can0 05D#01 R
(1722448885.945721) can0 007#01 R
(1722448885.963631) can0 015#01 R
(1722448885.963741) can0 016#25 R
(1722448885.963860) can0 041#01 R
(1722448885.963989) can0 00E#BDEE R
(1722448885.964157) can0 05C#BDEEBDEE R
(1722448885.964268) can0 041#01 R
(1722448885.964383) can0 016#25 R
(1722448885.964499) can0 015#01 R
(1722448885.964617) can0 017#01 R
(1722448885.964755) can0 056#01 R
(1722448885.978796) can0 05C#0AEF0AEF R
(1722448885.978906) can0 056#01 R
(1722448885.979044) can0 00E#0AEF R
(1722448885.979188) can0 00E#0AEF R
(1722448885.979346) can0 05C#0AEF0AEF R
(1722448885.993735) can0 016#25 R
(1722448885.993863) can0 00D#29EF R
(1722448885.993998) can0 05B#29EF R
(1722448885.994107) can0 014#01 R
(1722448885.994226) can0 008#01 R
(1722448885.994341) can0 055#01 R
(1722448885.994473) can0 05D#01 R
(1722448885.995705) can0 007#01 R
(1722448886.023689) can0 015#01 R
(1722448886.023770) can0 016#25 R
(1722448886.023930) can0 00E#EEEF R
(1722448886.024068) can0 00E#EEEF R
(1722448886.024192) can0 00E#EEEF R
(1722448886.024368) can0 05C#EEEFEDEF R
(1722448886.024477) can0 041#01 R
(1722448886.024599) can0 016#25 R
(1722448886.024710) can0 015#01 R
(1722448886.024833) can0 017#01 R
(1722448886.024945) can0 056#01 R
(1722448886.038789) can0 041#01 R
(1722448886.038955) can0 05C#38F038F0 R
(1722448886.039063) can0 056#01 R
(1722448886.039239) can0 05C#38F038F0 R
(1722448886.039343) can0 016#25 R
(1722448886.045672) can0 007#01 R
(1722448886.053813) can0 00D#56F0 R
(1722448886.053943) can0 05B#56F0 R
(1722448886.054060) can0 014#01 R
(1722448886.054176) can0 008#01 R
(1722448886.054291) can0 055#01 R
(1722448886.054411) can0 05D#01 R
(1722448886.083877) can0 015#01 R
(1722448886.084000) can0 00E#14F1 R
(1722448886.084132) can0 00E#14F1 R
(1722448886.084302) can0 05C#14F114F1 R
(1722448886.084413) can0 041#01 R
(1722448886.084530) can0 016#25 R
(1722448886.084645) can0 015#01 R
(1722448886.084785) can0 017#01 R
(1722448886.084884) can0 056#01 R
(1722448886.095634) can0 007#01 R
(1722448886.098768) can0 016#25 R
(1722448886.098882) can0 041#01 R
(1722448886.099045) can0 05C#5CF15CF1 R
(1722448886.099163) can0 056#01 R
(1722448886.099298) can0 00E#5CF1 R
(1722448886.099464) can0 05C#5CF15CF1 R
(1722448886.099574) can0 016#25 R
(1722448886.113870) can0 00D#79F1 R
(1722448886.114001) can0 05B#79F1 R
(1722448886.114115) can0 014#01 R
(1722448886.114232) can0 008#01 R
(1722448886.114347) can0 055#01 R
(1722448886.114466) can0 05D#01 R
(1722448886.143747) can0 00E#30F2 R
(1722448886.143880) can0 00E#30F2 R
(1722448886.144039) can0 05C#30F230F2 R
(1722448886.144152) can0 041#01 R
(1722448886.144268) can0 016#25 R
(1722448886.144383) can0 015#01 R
(1722448886.144502) can0 017#01 R
(1722448886.144623) can0 056#01 R
(1722448886.145494) can0 007#01 R
(1722448886.158768) can0 015#01 R
(1722448886.158856) can0 016#25 R
(1722448886.158984) can0 041#01 R
(1722448886.159145) can0 05C#76F276F2 R
(1722448886.159261) can0 056#01 R
(1722448886.159394) can0 00E#76F2 R
(1722448886.159559) can0 05C#76F276F2 R
(1722448886.159671) can0 016#25 R
(1722448886.173771) can0 00D#91F2 R
(1722448886.173903) can0 05B#91F2 R
(1722448886.174017) can0 014#01 R
(1722448886.174134) can0 008#01 R
(1722448886.174251) can0 055#01 R
(1722448886.174396) can0 05D#01 R
(1722448886.196604) can0 007#01 R
(1722448886.203704) can0 00E#42F3 R
(1722448886.203887) can0 05C#42F342F3 R
(1722448886.204006) can0 041#01 R
(1722448886.204126) can0 016#26 R
(1722448886.204235) can0 015#01 R
(1722448886.204355) can0 017#01 R
(1722448886.204470) can0 056#01 R
(1722448886.218727) can0 015#01 R
(1722448886.218845) can0 016#26 R
(1722448886.218964) can0 041#01 R
(1722448886.219136) can0 05C#85F385F3 R
(1722448886.219246) can0 056#01 R
(1722448886.219386) can0 00E#85F3 R
(1722448886.219520) can0 00E#85F3 R
(1722448886.219692) can0 05C#85F385F3 R
(1722448886.233781) can0 016#26 R
(1722448886.233913) can0 00D#9FF3 R
(1722448886.234049) can0 05B#9FF3 R
(1722448886.234163) can0 014#01 R
(1722448886.234280) can0 008#01 R
(1722448886.234396) can0 055#01 R
(1722448886.234514) can0 05D#01 R
(1722448886.246603) can0 007#01 R
(1722448886.263675) can0 015#01 R
(1722448886.263777) can0 016#26 R
(1722448886.263896) can0 041#01 R
(1722448886.264028) can0 00E#49F4 R
(1722448886.264160) can0 00E#49F4 R
(1722448886.264292) can0 00E#49F4 R
(1722448886.264460) can0 05C#49F449F4 R
(1722448886.264578) can0 041#01 R
(1722448886.264695) can0 016#26 R
(1722448886.264818) can0 015#01 R
(1722448886.264927) can0 017#01 R
(1722448886.265045) can0 056#01 R
(1722448886.278849) can0 05C#8AF489F4 R
(1722448886.278961) can0 056#01 R
(1722448886.279132) can0 05C#8AF489F4 R
(1722448886.279248) can0 016#26 R
(1722448886.294332) can0 00D#A3F4 R
(1722448886.294477) can0 05B#A3F4 R
(1722448886.294577) can0 014#01 R
(1722448886.294700) can0 008#01 R
(1722448886.294812) can0 055#01 R
(1722448886.294930) can0 05D#01 R
(1722448886.296617) can0 007#01 R
(1722448886.323635) can0 015#01 R
(1722448886.323748) can0 016#26 R
(1722448886.323883) can0 00E#46F5 R
(1722448886.324018) can0 00E#46F5 R
(1722448886.324183) can0 05C#46F546F5 R
(1722448886.324296) can0 041#01 R
(1722448886.324414) can0 016#26 R
(1722448886.324528) can0 015#01 R
(1722448886.324646) can0 017#01 R
(1722448886.324777) can0 056#01 R
(1722448886.338797) can0 041#01 R
(1722448886.338965) can0 05C#84F584F5 R
(1722448886.339075) can0 056#01 R
(1722448886.339209) can0 00E#84F5 R
(1722448886.339372) can0 05C#84F584F5 R
(1722448886.339485) can0 016#26 R
(1722448886.346559) can0 007#01 R
(1722448886.353746) can0 00D#9CF5 R
(1722448886.353873) can0 05B#9CF5 R
(1722448886.353990) can0 014#01 R
(1722448886.354106) can0 008#01 R
(1722448886.354230) can0 055#01 R
(1722448886.354339) can0 05D#01 R
(1722448886.383600) can0 015#01 R
(1722448886.383758) can0 00E#38F6 R
(1722448886.383886) can0 00E#38F6 R
(1722448886.384051) can0 05C#38F638F6 R
(1722448886.384167) can0 041#01 R
(1722448886.384285) can0 016#26 R
(1722448886.384399) can0 015#01 R
(1722448886.384518) can0 017#01 R
(1722448886.384633) can0 056#01 R
(1722448886.398845) can0 016#26 R
(1722448886.398958) can0 041#01 R
(1722448886.399131) can0 05C#73F673F6 R
(1722448886.399242) can0 056#01 R
(1722448886.399386) can0 00E#73F6 R
(1722448886.399551) can0 05C#73F673F6 R
(1722448886.399663) can0 016#26 R
(1722448886.402972) can0 007#01 R
(1722448886.413834) can0 00D#8AF6 R
(1722448886.413964) can0 05B#8AF6 R
(1722448886.414077) can0 014#01 R
(1722448886.414194) can0 008#01 R
(1722448886.414310) can0 055#01 R
(1722448886.414429) can0 05D#01 R
(1722448886.443713) can0 00E#20F7 R
(1722448886.443883) can0 05C#20F720F7 R
(1722448886.443998) can0 041#01 R
(1722448886.444120) can0 016#26 R
(1722448886.444230) can0 015#01 R
(1722448886.444354) can0 017#01 R
(1722448886.444464) can0 056#01 R
(1722448886.452630) can0 007#01 R
(1722448886.458778) can0 015#01 R
(1722448886.458894) can0 016#26 R
(1722448886.459012) can0 041#01 R
(1722448886.459182) can0 05C#58F758F7 R
(1722448886.459293) can0 056#01 R
(1722448886.459427) can0 00E#58F7 R
(1722448886.459555) can0 00E#58F7 R
(1722448886.459723) can0 05C#58F758F7 R
(1722448886.473715) can0 016#26 R
(1722448886.473848) can0 00D#6EF7 R
(1722448886.473989) can0 05B#6EF7 R
(1722448886.474092) can0 014#01 R
(1722448886.474212) can0 008#01 R
(1722448886.474327) can0 055#01 R
(1722448886.474450) can0 05D#01 R
(1722448886.502687) can0 007#01 R
(1722448886.503755) can0 00E#FCF7 R
(1722448886.503890) can0 00E#FCF7 R
(1722448886.504034) can0 00E#FCF7 R
(1722448886.504187) can0 05C#FCF7FCF7 R
(1722448886.504305) can0 041#01 R
(1722448886.504423) can0 016#26 R
(1722448886.504538) can0 015#01 R
(1722448886.504657) can0 017#01 R
(1722448886.504804) can0 056#01 R
(1722448886.518739) can0 015#01 R
(1722448886.518856) can0 016#26 R
(1722448886.518971) can0 041#01 R
(1722448886.519145) can0 05C#31F831F8 R
(1722448886.519260) can0 056#01 R
(1722448886.519427) can0 05C#31F831F8 R
(1722448886.519538) can0 016#26 R
(1722448886.533773) can0 00D#47F8 R
(1722448886.533903) can0 05B#47F8 R
(1722448886.534019) can0 014#01 R
(1722448886.534134) can0 008#01 R
(1722448886.534253) can0 055#01 R
(1722448886.534375) can0 05D#01 R
(1722448886.552638) can0 007#01 R
(1722448886.564054) can0 015#01 R
(1722448886.564168) can0 016#26 R
(1722448886.564285) can0 041#01 R
(1722448886.564419) can0 00E#CEF8 R
(1722448886.564553) can0 00E#CEF8 R
(1722448886.564723) can0 05C#CEF8CEF8 R
(1722448886.564815) can0 041#01 R
(1722448886.564957) can0 016#26 R
(1722448886.565072) can0 015#01 R
(1722448886.565188) can0 017#01 R
(1722448886.565306) can0 056#01 R
(1722448886.578973) can0 05C#00F900F9 R
(1722448886.579088) can0 056#01 R
(1722448886.579224) can0 00E#00F9 R
(1722448886.579397) can0 05C#00F900F9 R
(1722448886.579509) can0 016#26 R
(1722448886.593714) can0 00D#15F9 R
(1722448886.593828) can0 05B#15F9 R
(1722448886.593953) can0 014#01 R
(1722448886.594064) can0 008#01 R
(1722448886.594181) can0 055#01 R
(1722448886.594299) can0 05D#01 R
(1722448886.602581) can0 007#01 R
(1722448886.623650) can0 015#01 R
(1722448886.623760) can0 016#26 R
(1722448886.623898) can0 00E#94F9 R
(1722448886.624044) can0 00E#94F9 R
(1722448886.624203) can0 05C#94F994F9 R
(1722448886.624316) can0 041#01 R
(1722448886.624435) can0 016#26 R
(1722448886.624552) can0 015#01 R
(1722448886.624671) can0 017#01 R
(1722448886.624814) can0 056#01 R
(1722448886.638775) can0 041#01 R
(1722448886.638940) can0 05C#C4F9C4F9 R
(1722448886.639051) can0 056#01 R
(1722448886.639188) can0 00E#C4F9 R
(1722448886.639354) can0 05C#C4F9C4F9 R
(1722448886.639468) can0 016#27 R
(1722448886.652684) can0 007#01 R
(1722448886.653729) can0 00D#D7F9 R
(1722448886.653865) can0 05B#D7F9 R
(1722448886.653975) can0 014#01 R
(1722448886.654091) can0 008#01 R
(1722448886.654208) can0 055#01 R
(1722448886.654328) can0 05D#01 R
(1722448886.683669) can0 015#01 R
(1722448886.683800) can0 00E#50FA R
(1722448886.683974) can0 05C#50FA50FA R
(1722448886.684081) can0 041#01 R
(1722448886.684203) can0 016#27 R
(1722448886.684314) can0 015#01 R
(1722448886.684435) can0 017#01 R
(1722448886.684551) can0 056#01 R
(1722448886.698747) can0 016#27 R
(1722448886.698849) can0 041#01 R
(1722448886.699013) can0 05C#7DFA7DFA R
(1722448886.699132) can0 056#01 R
(1722448886.699264) can0 00E#7DFA R
(1722448886.699400) can0 00E#7DFA R
(1722448886.699571) can0 05C#7DFA7DFA R
(1722448886.702456) can0 007#01 R
(1722448886.713929) can0 00D#8FFA R
(1722448886.714042) can0 016#27 R
(1722448886.714176) can0 05B#8FFA R
(1722448886.714291) can0 014#01 R
(1722448886.714407) can0 008#01 R
(1722448886.714523) can0 055#01 R
(1722448886.714641) can0 05D#01 R
(1722448886.743761) can0 00E#00FB R
(1722448886.743895) can0 00E#00FB R
(1722448886.744030) can0 00E#00FB R
(1722448886.744204) can0 05C#00FB00FB R
(1722448886.744316) can0 041#01 R
(1722448886.744433) can0 016#27 R
(1722448886.744548) can0 015#01 R
(1722448886.744667) can0 017#01 R
(1722448886.744809) can0 056#01 R
(1722448886.752603) can0 007#01 R
(1722448886.758734) can0 015#01 R
(1722448886.758844) can0 016#27 R
(1722448886.758965) can0 041#01 R
(1722448886.759142) can0 05C#2BFB2BFB R
(1722448886.759246) can0 056#01 R
(1722448886.759421) can0 05C#2BFB2BFB R
(1722448886.759530) can0 016#27 R
(1722448886.773799) can0 00D#3BFB R
(1722448886.773932) can0 05B#3BFB R
(1722448886.774046) can0 014#01 R
(1722448886.774163) can0 008#01 R
(1722448886.774278) can0 055#01 R
(1722448886.774398) can0 05D#01 R
(1722448886.802639) can0 007#01 R
(1722448886.803667) can0 00E#A6FB R
(1722448886.803799) can0 00E#A6FB R
(1722448886.803968) can0 05C#A5FBA5FB R
(1722448886.804080) can0 041#01 R
(1722448886.804199) can0 016#27 R
(1722448886.804314) can0 015#01 R
(1722448886.804434) can0 017#01 R
(1722448886.804548) can0 056#01 R
(1722448886.818855) can0 015#01 R
(1722448886.818962) can0 016#27 R
(1722448886.819085) can0 041#01 R
(1722448886.819255) can0 05C#CDFBCDFB R
(1722448886.819372) can0 056#01 R
(1722448886.819501) can0 00E#CDFB R
(1722448886.819670) can0 05C#CDFBCDFB R
(1722448886.819784) can0 016#27 R
(1722448886.833744) can0 00D#DDFB R
(1722448886.833899) can0 05B#DDFB R
(1722448886.834008) can0 014#01 R
(1722448886.834125) can0 008#01 R
(1722448886.834242) can0 055#01 R
(1722448886.834359) can0 05D#01 R
(1722448886.852470) can0 007#01 R
(1722448886.863722) can0 015#01 R
(1722448886.863835) can0 016#27 R
(1722448886.863953) can0 041#01 R
(1722448886.864089) can0 00E#40FC R
(1722448886.864226) can0 00E#40FC R
(1722448886.864400) can0 05C#3FFC3FFC R
(1722448886.864516) can0 041#01 R
(1722448886.864631) can0 016#27 R
(1722448886.864759) can0 015#01 R
(1722448886.864870) can0 017#01 R
(1722448886.864981) can0 056#01 R
(1722448886.878795) can0 05C#64FC64FC R
(1722448886.878908) can0 056#01 R
(1722448886.879043) can0 00E#64FC R
(1722448886.879211) can0 05C#64FC64FC R
(1722448886.879324) can0 016#27 R
(1722448886.893708) can0 00D#73FC R
(1722448886.893839) can0 05B#73FC R
(1722448886.893956) can0 014#01 R
(1722448886.894071) can0 008#01 R
(1722448886.894187) can0 055#01 R
(1722448886.894305) can0 05D#01 R
(1722448886.902618) can0 007#01 R
(1722448886.923812) can0 015#01 R
(1722448886.923925) can0 016#27 R
(1722448886.924060) can0 00E#CEFC R
(1722448886.924224) can0 05C#CEFCCEFC R
(1722448886.924343) can0 041#01 R
(1722448886.924459) can0 016#27 R
(1722448886.924579) can0 015#01 R
(1722448886.924693) can0 017#01 R
(1722448886.924819) can0 056#01 R
(1722448886.938725) can0 041#01 R
(1722448886.938892) can0 05C#F0FCF0FC R
(1722448886.939003) can0 056#01 R
(1722448886.939137) can0 00E#F0FC R
(1722448886.939281) can0 00E#F0FC R
(1722448886.939440) can0 05C#F0FCF0FC R
(1722448886.952659) can0 007#01 R
(1722448886.953726) can0 016#27 R
(1722448886.953925) can0 00D#FDFC R
(1722448886.954062) can0 05B#FDFC R
(1722448886.954170) can0 014#01 R
(1722448886.954290) can0 008#01 R
(1722448886.954405) can0 055#01 R
(1722448886.954528) can0 05D#01 R
(1722448886.983624) can0 015#01 R
(1722448886.983754) can0 00E#52FD R
(1722448886.983891) can0 00E#52FD R
(1722448886.984018) can0 00E#52FD R
(1722448886.984185) can0 05C#51FD51FD R
(1722448886.984302) can0 041#01 R
(1722448886.984419) can0 016#27 R
(1722448886.984535) can0 015#01 R
(1722448886.984654) can0 017#01 R
(1722448886.984797) can0 056#01 R
(1722448886.998853) can0 016#27 R
(1722448886.998973) can0 041#01 R
(1722448886.999142) can0 05C#70FD70FD R
(1722448886.999252) can0 056#01 R
(1722448886.999414) can0 05C#70FD70FD R
(1722448886.999532) can0 016#27 R
(1722448887.002512) can0 007#01 R
(1722448887.013748) can0 00D#7DFD R
(1722448887.013885) can0 05B#7DFD R
(1722448887.013996) can0 014#01 R
(1722448887.014111) can0 008#01 R
(1722448887.014228) can0 055#01 R
(1722448887.014345) can0 05D#01 R
(1722448887.043659) can0 00E#C9FD R
(1722448887.043790) can0 00E#C9FD R
(1722448887.043956) can0 05C#C9FDC9FD R
(1722448887.044074) can0 041#01 R
(1722448887.044190) can0 016#27 R
(1722448887.044306) can0 015#01 R
(1722448887.044422) can0 017#01 R
(1722448887.044539) can0 056#01 R
(1722448887.052544) can0 007#01 R
(1722448887.058860) can0 015#01 R
(1722448887.058970) can0 016#27 R
(1722448887.059092) can0 041#01 R
(1722448887.059269) can0 05C#E6FDE6FD R
(1722448887.059374) can0 056#01 R
(1722448887.059507) can0 00E#E6FD R
(1722448887.059676) can0 05C#E6FDE6FD R
(1722448887.059787) can0 016#27 R
(1722448887.073967) can0 00D#F1FD R
(1722448887.074100) can0 05B#F1FD R
(1722448887.074215) can0 014#01 R
(1722448887.074330) can0 008#01 R
(1722448887.074445) can0 055#01 R
(1722448887.074563) can0 05D#01 R
(1722448887.102692) can0 007#01 R
(1722448887.103688) can0 00E#36FE R
(1722448887.103818) can0 00E#36FE R
(1722448887.103989) can0 05C#36FE36FE R
(1722448887.104103) can0 041#01 R
(1722448887.104220) can0 016#27 R
(1722448887.104336) can0 015#01 R
(1722448887.104454) can0 017#01 R
(1722448887.104569) can0 056#01 R
(1722448887.118746) can0 015#01 R
(1722448887.118814) can0 016#27 R
(1722448887.118961) can0 041#01 R
(1722448887.119132) can0 05C#4FFE4FFE R
(1722448887.119244) can0 056#01 R
(1722448887.119381) can0 00E#4FFE R
(1722448887.119552) can0 05C#4FFE4FFE R
(1722448887.119663) can0 016#27 R
(1722448887.133842) can0 00D#59FE R
(1722448887.133969) can0 05B#59FE R
(1722448887.134087) can0 014#01 R
(1722448887.134201) can0 008#01 R
(1722448887.134318) can0 055#01 R
(1722448887.134439) can0 05D#01 R
(1722448887.152660) can0 007#01 R
(1722448887.163662) can0 015#01 R
(1722448887.163776) can0 016#27 R
(1722448887.163893) can0 041#01 R
(1722448887.164031) can0 00E#97FE R
(1722448887.164204) can0 05C#97FE97FE R
(1722448887.164319) can0 041#01 R
(1722448887.164435) can0 016#27 R
(1722448887.164552) can0 015#01 R
(1722448887.164669) can0 017#01 R
(1722448887.164811) can0 056#01 R
(1722448887.178799) can0 05C#ADFEADFE R
(1722448887.178912) can0 056#01 R
(1722448887.179044) can0 00E#ADFE R
(1722448887.179176) can0 00E#ADFE R
(1722448887.179344) can0 05C#ADFEADFE R
(1722448887.193755) can0 016#27 R
(1722448887.193883) can0 00D#B6FE R
(1722448887.194014) can0 05B#B6FE R
(1722448887.194132) can0 014#01 R
(1722448887.194251) can0 008#01 R
(1722448887.194362) can0 055#01 R
(1722448887.194482) can0 05D#01 R
(1722448887.202608) can0 007#01 R
(1722448887.223620) can0 015#01 R
(1722448887.223722) can0 016#27 R
(1722448887.223857) can0 00E#ECFE R
(1722448887.223989) can0 00E#ECFE R
(1722448887.224119) can0 00E#ECFE R
(1722448887.224291) can0 05C#ECFEECFE R
(1722448887.224406) can0 041#01 R
(1722448887.224522) can0 016#27 R
(1722448887.224638) can0 015#01 R
(1722448887.224785) can0 017#01 R
(1722448887.224861) can0 056#01 R
(1722448887.238889) can0 041#01 R
(1722448887.239119) can0 05C#00FF00FF R
(1722448887.239233) can0 056#01 R
(1722448887.239410) can0 05C#00FF00FF R
(1722448887.239522) can0 016#27 R
(1722448887.252688) can0 007#01 R
(1722448887.253761) can0 00D#08FF R
(1722448887.253893) can0 05B#08FF R
(1722448887.254009) can0 014#01 R
(1722448887.254130) can0 008#01 R
(1722448887.254240) can0 055#01 R
(1722448887.254363) can0 05D#01 R
(1722448887.283664) can0 015#01 R
(1722448887.283795) can0 00E#36FF R
(1722448887.283933) can0 00E#36FF R
(1722448887.284099) can0 05C#36FF36FF R
(1722448887.284216) can0 041#01 R
(1722448887.284332) can0 016#27 R
(1722448887.284454) can0 015#01 R
(1722448887.284566) can0 017#01 R
(1722448887.284682) can0 056#01 R
(1722448887.298763) can0 016#27 R
(1722448887.298877) can0 041#01 R
(1722448887.299050) can0 05C#47FF47FF R
(1722448887.299163) can0 056#01 R
(1722448887.299300) can0 00E#47FF R
(1722448887.299478) can0 05C#47FF47FF R
(1722448887.299583) can0 016#27 R
(1722448887.302689) can0 007#01 R
(1722448887.313869) can0 00D#4EFF R
(1722448887.314005) can0 05B#4EFF R
(1722448887.314114) can0 014#01 R
(1722448887.314232) can0 008#01 R
(1722448887.314347) can0 055#01 R
(1722448887.314465) can0 05D#01 R
(1722448887.343715) can0 00E#75FF R
(1722448887.343842) can0 00E#75FF R
(1722448887.344015) can0 05C#75FF75FF R
(1722448887.344126) can0 041#01 R
(1722448887.344244) can0 016#27 R
(1722448887.344359) can0 015#01 R
(1722448887.344478) can0 017#01 R
(1722448887.344593) can0 056#01 R
(1722448887.352667) can0 007#01 R
(1722448887.358732) can0 015#01 R
(1722448887.358840) can0 016#27 R
(1722448887.358959) can0 041#01 R
(1722448887.359136) can0 05C#82FF82FF R
(1722448887.359252) can0 056#01 R
(1722448887.359387) can0 00E#83FF R
(1722448887.359559) can0 05C#82FF82FF R
(1722448887.359673) can0 016#27 R
(1722448887.373799) can0 00D#88FF R
(1722448887.373930) can0 05B#88FF R
(1722448887.374049) can0 014#01 R
(1722448887.374164) can0 008#01 R
(1722448887.374280) can0 055#01 R
(1722448887.374404) can0 05D#01 R
(1722448887.402499) can0 007#01 R
(1722448887.403766) can0 00E#A8FF R
(1722448887.403937) can0 05C#A7FFA7FF R
(1722448887.404052) can0 041#01 R
(1722448887.404170) can0 016#27 R
(1722448887.404286) can0 015#01 R
(1722448887.404404) can0 017#01 R
(1722448887.404520) can0 056#01 R
(1722448887.418783) can0 015#01 R
(1722448887.418897) can0 016#27 R
(1722448887.419015) can0 041#01 R
(1722448887.419182) can0 05C#B2FFB2FF R
(1722448887.419295) can0 056#01 R
(1722448887.419430) can0 00E#B2FF R
(1722448887.419573) can0 00E#B2FF R
(1722448887.419726) can0 05C#B2FFB2FF R
(1722448887.433766) can0 00D#B7FF R
(1722448887.433883) can0 016#27 R
(1722448887.434017) can0 05B#B7FF R
(1722448887.434133) can0 014#01 R
(1722448887.434254) can0 008#01 R
(1722448887.434365) can0 055#01 R
(1722448887.434488) can0 05D#01 R
(1722448887.452469) can0 007#01 R
(1722448887.463691) can0 015#01 R
(1722448887.463802) can0 016#27 R
(1722448887.463922) can0 041#01 R
(1722448887.464063) can0 00E#CFFF R
(1722448887.464205) can0 00E#CFFF R
(1722448887.464343) can0 00E#CFFF R
(1722448887.464512) can0 05C#CFFFCFFF R
(1722448887.464629) can0 041#01 R
(1722448887.464759) can0 016#27 R
(1722448887.464860) can0 015#01 R
(1722448887.464983) can0 017#01 R
(1722448887.465097) can0 056#01 R
(1722448887.478851) can0 05C#D7FFD7FF R
(1722448887.478963) can0 056#01 R
(1722448887.479136) can0 05C#D7FFD7FF R
(1722448887.479251) can0 016#27 R
(1722448887.493711) can0 00D#DAFF R
(1722448887.493863) can0 05B#DAFF R
(1722448887.493980) can0 014#01 R
(1722448887.494091) can0 008#01 R
(1722448887.494209) can0 055#01 R
(1722448887.494327) can0 05D#01 R
(1722448887.502652) can0 007#01 R
(1722448887.523663) can0 015#01 R
(1722448887.523756) can0 016#27 R
(1722448887.523909) can0 00E#EAFF R
(1722448887.524059) can0 00E#EAFF R
(1722448887.524210) can0 05C#EAFFEAFF R
(1722448887.524330) can0 041#01 R
(1722448887.524447) can0 016#27 R
(1722448887.524562) can0 015#01 R
(1722448887.524681) can0 017#01 R
(1722448887.524820) can0 056#01 R
(1722448887.538708) can0 041#01 R
(1722448887.538869) can0 05C#EFFFEFFF R
(1722448887.538977) can0 056#01 R
(1722448887.539116) can0 00E#EFFF R
(1722448887.539291) can0 05C#EFFFEFFF R
(1722448887.539406) can0 016#27 R
(1722448887.552707) can0 007#01 R
(1722448887.553729) can0 00D#F1FF R
(1722448887.553857) can0 05B#F1FF R
(1722448887.553978) can0 014#01 R
(1722448887.554088) can0 008#01 R
(1722448887.554207) can0 055#01 R
(1722448887.554326) can0 05D#01 R
(1722448887.583637) can0 015#01 R
(1722448887.583835) can0 00E#FAFF R
(1722448887.583973) can0 00E#FAFF R
(1722448887.584140) can0 05C#FAFFFAFF R
(1722448887.584260) can0 041#01 R
(1722448887.584378) can0 016#27 R
(1722448887.584488) can0 015#01 R
(1722448887.584615) can0 017#01 R
(1722448887.584724) can0 056#01 R
(1722448887.598707) can0 016#27 R
(1722448887.598820) can0 041#01 R
(1722448887.598994) can0 05C#FCFFFCFF R
(1722448887.599106) can0 056#01 R
(1722448887.599244) can0 00E#FCFF R
(1722448887.599413) can0 05C#FCFFFCFF R
(1722448887.599528) can0 016#27 R
(1722448887.602469) can0 007#01 R
(1722448887.614136) can0 00D#FDFF R
(1722448887.614264) can0 05B#FDFF R
(1722448887.614381) can0 014#01 R
(1722448887.614519) can0 008#01 R
(1722448887.614614) can0 055#01 R
(1722448887.614733) can0 05D#01 R
(1722448887.644998) can0 00E#FEFF R
(1722448887.645164) can0 05C#FEFFFEFF R
(1722448887.645276) can0 041#01 R
(1722448887.645393) can0 016#27 R
(1722448887.645511) can0 015#01 R
(1722448887.645629) can0 017#01 R
(1722448887.645743) can0 056#01 R
(1722448887.652584) can0 007#01 R
(1722448887.658762) can0 015#01 R
(1722448887.658873) can0 016#27 R
(1722448887.658994) can0 041#01 R
(1722448887.659170) can0 05C#FEFFFEFF R
(1722448887.659283) can0 056#01 R
(1722448887.659421) can0 00E#FEFF R
(1722448887.659557) can0 00E#FEFF R
(1722448887.659733) can0 05C#FEFFFEFF R
(1722448887.673711) can0 00D#FDFF R
(1722448887.673822) can0 016#27 R
(1722448887.673962) can0 05B#FDFF R
(1722448887.674074) can0 014#01 R
(1722448887.674191) can0 008#01 R
(1722448887.674306) can0 055#01 R
(1722448887.674425) can0 05D#01 R
(1722448887.703783) can0 00E#F7FF R
(1722448887.703915) can0 00E#F7FF R
(1722448887.704055) can0 00E#F7FF R
(1722448887.704229) can0 05C#F7FFF7FF R
(1722448887.704344) can0 041#01 R
(1722448887.704460) can0 016#27 R
(1722448887.704577) can0 015#01 R
(1722448887.704694) can0 017#01 R
(1722448887.704816) can0 056#01 R
(1722448887.706666) can0 007#01 R
(1722448887.718859) can0 015#01 R
(1722448887.718973) can0 016#27 R
(1722448887.719091) can0 041#01 R
(1722448887.719267) can0 05C#F3FFF3FF R
(1722448887.719378) can0 056#01 R
(1722448887.719555) can0 05C#F3FFF3FF R
(1722448887.719667) can0 016#27 R
(1722448887.733766) can0 00D#F2FF R
(1722448887.733897) can0 05B#F2FF R
(1722448887.734011) can0 014#01 R
(1722448887.734127) can0 008#01 R
(1722448887.734244) can0 055#01 R
(1722448887.734360) can0 05D#01 R
(1722448887.756631) can0 007#01 R
(1722448887.763695) can0 015#01 R
(1722448887.763808) can0 016#27 R
(1722448887.763927) can0 041#01 R
(1722448887.764063) can0 00E#E4FF R
(1722448887.764199) can0 00E#E4FF R
(1722448887.764374) can0 05C#E4FFE4FF R
(1722448887.764484) can0 041#01 R
(1722448887.764606) can0 016#27 R
(1722448887.764717) can0 015#01 R
(1722448887.764834) can0 017#01 R
(1722448887.764951) can0 056#01 R
(1722448887.778817) can0 05C#DDFFDDFF R
(1722448887.778930) can0 056#01 R
(1722448887.779063) can0 00E#DEFF R
(1722448887.779241) can0 05C#DDFFDDFF R
(1722448887.779346) can0 016#27 R
(1722448887.793762) can0 00D#DBFF R
(1722448887.793893) can0 05B#DBFF R
(1722448887.794009) can0 014#01 R
(1722448887.794130) can0 008#01 R
(1722448887.794243) can0 055#01 R
(1722448887.794366) can0 05D#01 R
(1722448887.806668) can0 007#01 R
(1722448887.823660) can0 015#01 R
(1722448887.823777) can0 016#27 R
(1722448887.823915) can0 00E#C5FF R
(1722448887.824056) can0 00E#C5FF R
(1722448887.824222) can0 05C#C5FFC5FF R
(1722448887.824339) can0 041#01 R
(1722448887.824454) can0 016#27 R
(1722448887.824571) can0 015#01 R
(1722448887.824689) can0 017#01 R
(1722448887.824809) can0 056#01 R
(1722448887.838788) can0 041#01 R
(1722448887.838957) can0 05C#BCFFBCFF R
(1722448887.839068) can0 056#01 R
(1722448887.839200) can0 00E#BCFF R
(1722448887.839376) can0 05C#BCFFBCFF R
(1722448887.839483) can0 016#27 R
(1722448887.853742) can0 00D#B8FF R
(1722448887.853873) can0 05B#B8FF R
(1722448887.853989) can0 014#01 R
(1722448887.854104) can0 008#01 R
(1722448887.854222) can0 055#01 R
(1722448887.854338) can0 05D#01 R
(1722448887.856684) can0 007#01 R
(1722448887.883624) can0 015#01 R
(1722448887.883764) can0 00E#9BFF R
(1722448887.883932) can0 05C#9BFF9BFF R
(1722448887.884051) can0 041#01 R
(1722448887.884165) can0 016#27 R
(1722448887.884283) can0 015#01 R
(1722448887.884399) can0 017#01 R
(1722448887.884522) can0 056#01 R
(1722448887.898803) can0 016#27 R
(1722448887.898919) can0 041#01 R
(1722448887.899091) can0 05C#8FFF8FFF R
(1722448887.899206) can0 056#01 R
(1722448887.899343) can0 00E#8FFF R
(1722448887.899478) can0 00E#8FFF R
(1722448887.899653) can0 05C#8FFF8FFF R
(1722448887.906590) can0 007#01 R
(1722448887.913725) can0 016#27 R
(1722448887.913864) can0 00D#8AFF R
(1722448887.913989) can0 05B#8AFF R
(1722448887.914113) can0 014#01 R
(1722448887.914222) can0 008#01 R
(1722448887.914341) can0 055#01 R
(1722448887.914456) can0 05D#01 R
(1722448887.943629) can0 00E#65FF R
(1722448887.943751) can0 00E#65FF R
(1722448887.943883) can0 00E#65FF R
(1722448887.944052) can0 05C#65FF65FF R
(1722448887.944168) can0 041#01 R
(1722448887.944285) can0 016#27 R
(1722448887.944400) can0 015#01 R
(1722448887.944519) can0 017#01 R
(1722448887.944635) can0 056#01 R
(1722448887.956672) can0 007#01 R
(1722448887.958796) can0 015#01 R
(1722448887.958909) can0 016#27 R
(1722448887.959028) can0 041#01 R
(1722448887.959192) can0 05C#56FF56FF R
(1722448887.959310) can0 056#01 R
(1722448887.959474) can0 05C#56FF56FF R
(1722448887.959594) can0 016#27 R
(1722448887.973771) can0 00D#50FF R
(1722448887.973904) can0 05B#50FF R
(1722448887.974019) can0 014#01 R
(1722448887.974136) can0 008#01 R
(1722448887.974256) can0 055#01 R
(1722448887.974370) can0 05D#01 R
(1722448888.003677) can0 00E#24FF R
(1722448888.003800) can0 00E#24FF R
(1722448888.003966) can0 05C#24FF24FF R
(1722448888.004082) can0 041#01 R
(1722448888.004205) can0 016#27 R
(1722448888.004314) can0 015#01 R
(1722448888.004434) can0 017#01 R
(1722448888.004548) can0 056#01 R
(1722448888.006824) can0 007#01 R
(1722448888.018752) can0 015#01 R
(1722448888.018866) can0 016#27 R
(1722448888.018983) can0 041#01 R
(1722448888.019157) can0 05C#12FF12FF R
(1722448888.019272) can0 056#01 R
(1722448888.020006) can0 00E#12FF R
(1722448888.020178) can0 05C#12FF12FF R
(1722448888.020293) can0 016#27 R
(1722448888.033807) can0 00D#0AFF R
(1722448888.033941) can0 05B#0AFF R
(1722448888.034055) can0 014#01 R
(1722448888.034173) can0 008#01 R
(1722448888.034287) can0 055#01 R
(1722448888.034409) can0 05D#01 R
(1722448888.056625) can0 007#01 R
(1722448888.063756) can0 015#01 R
(1722448888.063852) can0 016#27 R
(1722448888.063984) can0 041#01 R
(1722448888.064108) can0 00E#D7FE R
(1722448888.064253) can0 00E#D7FE R
(1722448888.064420) can0 05C#D7FED7FE R
(1722448888.064538) can0 041#01 R
(1722448888.064654) can0 016#27 R
(1722448888.064793) can0 015#01 R
(1722448888.064885) can0 017#01 R
(1722448888.065007) can0 056#01 R
(1722448888.079010) can0 05C#C2FEC2FE R
(1722448888.079123) can0 056#01 R
(1722448888.079258) can0 00E#C2FE R
(1722448888.079423) can0 05C#C2FEC2FE R
(1722448888.079537) can0 016#27 R
(1722448888.094116) can0 00D#B9FE R
(1722448888.094250) can0 05B#B9FE R
(1722448888.094365) can0 014#01 R
(1722448888.094495) can0 008#01 R
(1722448888.094599) can0 055#01 R
(1722448888.094718) can0 05D#01 R
(1722448888.106600) can0 007#01 R
(1722448888.123643) can0 015#01 R
(1722448888.123760) can0 016#27 R
(1722448888.123893) can0 00E#7EFE R
(1722448888.124064) can0 05C#7EFE7EFE R
(1722448888.124181) can0 041#01 R
(1722448888.124298) can0 016#27 R
(1722448888.124413) can0 015#01 R
(1722448888.124532) can0 017#01 R
(1722448888.124647) can0 056#01 R
(1722448888.138774) can0 041#01 R
(1722448888.138938) can0 05C#66FE66FE R
(1722448888.139055) can0 056#01 R
(1722448888.139186) can0 00E#66FE R
(1722448888.139319) can0 00E#66FE R
(1722448888.139484) can0 05C#66FE66FE R
(1722448888.153696) can0 016#27 R
(1722448888.153835) can0 00D#5DFE R
(1722448888.153968) can0 05B#5DFE R
(1722448888.154082) can0 014#01 R
(1722448888.154198) can0 008#01 R
(1722448888.154314) can0 055#01 R
(1722448888.154434) can0 05D#01 R
(1722448888.156457) can0 007#01 R
(1722448888.183620) can0 015#01 R
(1722448888.183752) can0 00E#1AFE R
(1722448888.183891) can0 00E#1AFE R
(1722448888.184018) can0 00E#1AFE R
(1722448888.184188) can0 05C#1AFE1AFE R
(1722448888.184303) can0 041#01 R
(1722448888.184419) can0 016#27 R
(1722448888.184535) can0 015#01 R
(1722448888.184656) can0 017#01 R
(1722448888.184796) can0 056#01 R
(1722448888.198750) can0 016#27 R
(1722448888.198869) can0 041#01 R
(1722448888.199040) can0 05C#FFFDFFFD R
(1722448888.199151) can0 056#01 R
(1722448888.199328) can0 05C#FFFDFFFD R
(1722448888.199438) can0 016#27 R
(1722448888.206549) can0 007#01 R
(1722448888.213792) can0 00D#F5FD R
(1722448888.213925) can0 05B#F5FD R
(1722448888.214042) can0 014#01 R
(1722448888.214158) can0 008#01 R
(1722448888.214274) can0 055#01 R
(1722448888.214392) can0 05D#01 R
(1722448888.243859) can0 00E#ABFD R
(1722448888.243989) can0 00E#ABFD R
(1722448888.244156) can0 05C#ABFDABFD R
(1722448888.244272) can0 041#01 R
(1722448888.244387) can0 016#27 R
(1722448888.244507) can0 015#01 R
(1722448888.244629) can0 017#01 R
(1722448888.244758) can0 056#01 R
(1722448888.256602) can0 007#01 R
(1722448888.258691) can0 015#01 R
(1722448888.258802) can0 016#27 R
(1722448888.258923) can0 041#01 R
(1722448888.259095) can0 05C#8DFD8DFD R
(1722448888.259208) can0 056#01 R
(1722448888.259342) can0 00E#8DFD R
(1722448888.259513) can0 05C#8DFD8DFD R
(1722448888.259627) can0 016#27 R
(1722448888.273817) can0 00D#81FD R
(1722448888.273960) can0 05B#81FD R
(1722448888.274075) can0 014#01 R
(1722448888.274191) can0 008#01 R
(1722448888.274308) can0 055#01 R
(1722448888.274426) can0 05D#01 R
(1722448888.303623) can0 00E#30FD R
(1722448888.303754) can0 00E#30FD R
(1722448888.303920) can0 05C#30FD30FD R
(1722448888.304040) can0 041#01 R
(1722448888.304155) can0 016#27 R
(1722448888.304272) can0 015#01 R
(1722448888.304390) can0 017#01 R
(1722448888.304510) can0 056#01 R
(1722448888.306443) can0 007#01 R
(1722448888.318764) can0 015#01 R
(1722448888.318876) can0 016#27 R
(1722448888.318997) can0 041#01 R
(1722448888.319178) can0 05C#0FFD0FFD R
(1722448888.319288) can0 056#01 R
(1722448888.319427) can0 00E#0FFD R
(1722448888.319609) can0 05C#0FFD0FFD R
(1722448888.319716) can0 016#27 R
(1722448888.333853) can0 00D#02FD R
(1722448888.333990) can0 05B#02FD R
(1722448888.334099) can0 014#01 R
(1722448888.334216) can0 008#01 R
(1722448888.334332) can0 055#01 R
(1722448888.334449) can0 05D#01 R
(1722448888.363766) can0 015#01 R
(1722448888.363878) can0 016#27 R
(1722448888.363997) can0 041#01 R
(1722448888.364132) can0 00E#A9FC R
(1722448888.364302) can0 05C#A9FCA9FC R
(1722448888.364417) can0 041#01 R
(1722448888.364534) can0 016#27 R
(1722448888.364650) can0 015#01 R
(1722448888.364791) can0 017#01 R
(1722448888.364893) can0 056#01 R
(1722448888.369590) can0 007#01 R
(1722448888.378982) can0 05C#86FC86FC R
(1722448888.379083) can0 056#01 R
(1722448888.379215) can0 00E#86FC R
(1722448888.379346) can0 00E#86FC R
(1722448888.379515) can0 05C#86FC86FC R
(1722448888.394186) can0 00D#78FC R
(1722448888.394296) can0 016#27 R
(1722448888.394431) can0 05B#78FC R
(1722448888.394545) can0 014#01 R
(1722448888.394662) can0 008#01 R
(1722448888.394778) can0 055#01 R
(1722448888.394897) can0 05D#01 R
(1722448888.419625) can0 007#01 R
(1722448888.423774) can0 015#01 R
(1722448888.423889) can0 016#27 R
(1722448888.424021) can0 00E#18FC R
(1722448888.424152) can0 00E#18FC R
(1722448888.424287) can0 00E#18FC R
(1722448888.424457) can0 05C#18FC18FC R
(1722448888.424579) can0 041#01 R
(1722448888.424689) can0 016#27 R
(1722448888.424813) can0 015#01 R
(1722448888.424926) can0 017#01 R
(1722448888.425042) can0 056#01 R
(1722448888.438774) can0 041#01 R
(1722448888.438942) can0 05C#F1FBF1FB R
(1722448888.439055) can0 056#01 R
(1722448888.439224) can0 05C#F1FBF1FB R
(1722448888.439339) can0 016#27 R
(1722448888.453740) can0 00D#E2FB R
(1722448888.453897) can0 05B#E2FB R
(1722448888.454015) can0 014#01 R
(1722448888.454131) can0 008#01 R
(1722448888.454245) can0 055#01 R
(1722448888.454390) can0 05D#01 R
(1722448888.469712) can0 007#01 R
(1722448888.483670) can0 015#01 R
(1722448888.483785) can0 00E#7BFB R
(1722448888.483924) can0 00E#7BFB R
(1722448888.484090) can0 05C#7BFB7BFB R
(1722448888.484207) can0 041#01 R
(1722448888.484324) can0 016#27 R
(1722448888.484439) can0 015#01 R
(1722448888.484558) can0 017#01 R
(1722448888.484674) can0 056#01 R
(1722448888.498832) can0 016#27 R
(1722448888.498940) can0 041#01 R
(1722448888.499117) can0 05C#52FB52FB R
(1722448888.499222) can0 056#01 R
(1722448888.499360) can0 00E#52FB R
(1722448888.499549) can0 05C#52FB52FB R
(1722448888.499618) can0 016#27 R
(1722448888.513733) can0 00D#41FB R
(1722448888.513922) can0 05B#41FB R
(1722448888.514033) can0 014#01 R
(1722448888.514152) can0 008#01 R
(1722448888.514266) can0 055#01 R
(1722448888.514385) can0 05D#01 R
(1722448888.519652) can0 007#01 R
(1722448888.543828) can0 00E#D3FA R
(1722448888.543962) can0 00E#D3FA R
(1722448888.544127) can0 05C#D2FAD2FA R
(1722448888.544243) can0 041#01 R
(1722448888.544359) can0 016#27 R
(1722448888.544476) can0 015#01 R
(1722448888.544593) can0 017#01 R
(1722448888.544711) can0 056#01 R
(1722448888.558655) can0 015#01 R
(1722448888.558768) can0 016#27 R
(1722448888.558886) can0 041#01 R
(1722448888.559054) can0 05C#A7FAA7FA R
(1722448888.559166) can0 056#01 R
(1722448888.559301) can0 00E#A7FA R
(1722448888.559468) can0 05C#A7FAA7FA R
(1722448888.559581) can0 016#27 R
(1722448888.569676) can0 007#01 R
(1722448888.573749) can0 00D#95FA R
(1722448888.573879) can0 05B#95FA R
(1722448888.573994) can0 014#01 R
(1722448888.574109) can0 008#01 R
(1722448888.574226) can0 055#01 R
(1722448888.574344) can0 05D#01 R
(1722448888.603692) can0 00E#1FFA R
(1722448888.603852) can0 05C#1FFA1FFA R
(1722448888.603963) can0 041#01 R
(1722448888.604081) can0 016#27 R
(1722448888.604195) can0 015#01 R
(1722448888.604314) can0 017#01 R
(1722448888.604429) can0 056#01 R
(1722448888.618742) can0 015#01 R
(1722448888.618848) can0 016#27 R
(1722448888.618968) can0 041#01 R
(1722448888.619143) can0 05C#F0F9F0F9 R
(1722448888.619258) can0 056#01 R
(1722448888.619388) can0 00E#F1F9 R
(1722448888.619519) can0 00E#F1F9 R
(1722448888.619638) can0 007#01 R
(1722448888.619812) can0 05C#F0F9F0F9 R
(1722448888.633802) can0 00D#DEF9 R
(1722448888.633914) can0 016#27 R
(1722448888.634049) can0 05B#DEF9 R
(1722448888.634167) can0 014#01 R
(1722448888.634283) can0 008#01 R
(1722448888.634400) can0 055#01 R
(1722448888.634517) can0 05D#01 R
(1722448888.648895) can0 015#01 R
(1722448888.649071) can0 016#26 R
(1722448888.649184) can0 041#01 R
(1722448888.649319) can0 00E#91F9 R
(1722448888.649450) can0 00E#91F9 R
(1722448888.663772) can0 05C#61F961F9 R
(1722448888.663885) can0 056#01 R
(1722448888.664058) can0 05C#61F961F9 R
(1722448888.664168) can0 016#26 R
(1722448888.664304) can0 00E#61F9 R
(1722448888.664479) can0 05C#61F961F9 R
(1722448888.664587) can0 041#01 R
(1722448888.664707) can0 016#26 R
(1722448888.664820) can0 015#01 R
(1722448888.664939) can0 017#01 R
(1722448888.665055) can0 056#01 R
(1722448888.669629) can0 007#01 R
(1722448888.694936) can0 00D#1BF9 R
(1722448888.695065) can0 05B#1BF9 R
(1722448888.695181) can0 014#01 R
(1722448888.695295) can0 008#01 R
(1722448888.695413) can0 055#01 R
(1722448888.695530) can0 05D#01 R
(1722448888.719582) can0 007#01 R
(1722448888.723775) can0 015#01 R
(1722448888.723942) can0 05C#97F897F8 R
(1722448888.724054) can0 056#01 R
(1722448888.724187) can0 00E#97F8 R
(1722448888.724323) can0 00E#97F8 R
(1722448888.724486) can0 05C#97F897F8 R
(1722448888.724602) can0 041#01 R
(1722448888.724717) can0 016#26 R
(1722448888.724833) can0 015#01 R
(1722448888.724953) can0 017#01 R
(1722448888.725069) can0 056#01 R
(1722448888.738793) can0 016#26 R
(1722448888.738907) can0 041#01 R
(1722448888.739041) can0 00E#63F8 R
(1722448888.739209) can0 05C#63F863F8 R
(1722448888.739321) can0 016#26 R
(1722448888.753981) can0 00D#4EF8 R
(1722448888.754110) can0 05B#4EF8 R
(1722448888.754231) can0 014#01 R
(1722448888.754340) can0 008#01 R
(1722448888.754456) can0 055#01 R
(1722448888.754581) can0 05D#01 R
(1722448888.769846) can0 007#01 R
(1722448888.783742) can0 05C#C3F7C3F7 R
(1722448888.783855) can0 056#01 R
(1722448888.783992) can0 00E#C3F7 R
(1722448888.784122) can0 00E#C3F7 R
(1722448888.784296) can0 05C#C3F7C3F7 R
(1722448888.784408) can0 041#01 R
(1722448888.784527) can0 016#26 R
(1722448888.784643) can0 015#01 R
(1722448888.784791) can0 017#01 R
(1722448888.784867) can0 056#01 R
(1722448888.798793) can0 015#01 R
(1722448888.798905) can0 016#26 R
(1722448888.799024) can0 041#01 R
(1722448888.799157) can0 00E#8CF7 R
(1722448888.799326) can0 05C#8CF78CF7 R
(1722448888.799435) can0 016#26 R
(1722448888.813739) can0 00D#76F7 R
(1722448888.813869) can0 05B#76F7 R
(1722448888.813982) can0 014#01 R
(1722448888.814098) can0 008#01 R
(1722448888.814216) can0 055#01 R
(1722448888.814356) can0 05D#01 R
(1722448888.819494) can0 007#01 R
(1722448888.843720) can0 05C#E3F6E3F6 R
(1722448888.843831) can0 056#01 R
(1722448888.843968) can0 00E#E3F6 R
(1722448888.844139) can0 05C#E3F6E3F6 R
(1722448888.844257) can0 041#01 R
(1722448888.844369) can0 016#26 R
(1722448888.844485) can0 015#01 R
(1722448888.844603) can0 017#01 R
(1722448888.844719) can0 056#01 R
(1722448888.858718) can0 015#01 R
(1722448888.858831) can0 016#26 R
(1722448888.858950) can0 041#01 R
(1722448888.859081) can0 00E#AAF6 R
(1722448888.859210) can0 00E#AAF6 R
(1722448888.859374) can0 05C#AAF6AAF6 R
(1722448888.869636) can0 007#01 R
(1722448888.873762) can0 016#26 R
(1722448888.873892) can0 00D#93F6 R
(1722448888.874037) can0 05B#93F6 R
(1722448888.874139) can0 014#01 R
(1722448888.874259) can0 008#01 R
(1722448888.874374) can0 055#01 R
(1722448888.874497) can0 05D#01 R
(1722448888.903715) can0 015#01 R
(1722448888.903826) can0 016#26 R
(1722448888.903947) can0 041#01 R
(1722448888.904116) can0 05C#F9F5F9F5 R
(1722448888.904233) can0 056#01 R
(1722448888.904370) can0 00E#F9F5 R
(1722448888.904509) can0 00E#F9F5 R
(1722448888.904652) can0 00E#F9F5 R
(1722448888.904823) can0 05C#F9F5F9F5 R
(1722448888.904936) can0 041#01 R
(1722448888.905054) can0 016#26 R
(1722448888.905169) can0 015#01 R
(1722448888.905287) can0 017#01 R
(1722448888.905403) can0 056#01 R
(1722448888.918948) can0 05C#BDF5BDF5 R
(1722448888.919059) can0 016#26 R
(1722448888.919533) can0 007#01 R
(1722448888.933765) can0 00D#A5F5 R
(1722448888.933895) can0 05B#A5F5 R
(1722448888.934011) can0 014#01 R
(1722448888.934133) can0 008#01 R
(1722448888.934243) can0 055#01 R
(1722448888.934367) can0 05D#01 R
(1722448888.963755) can0 015#01 R
(1722448888.963941) can0 016#26 R
(1722448888.964108) can0 05C#04F504F5 R
(1722448888.964222) can0 056#01 R
(1722448888.964355) can0 00E#04F5 R
(1722448888.964487) can0 00E#04F5 R
(1722448888.964657) can0 05C#04F504F5 R
(1722448888.964796) can0 041#01 R
(1722448888.964897) can0 016#26 R
(1722448888.965005) can0 015#01 R
(1722448888.965123) can0 017#01 R
(1722448888.965239) can0 056#01 R
(1722448888.969753) can0 007#01 R
(1722448888.978817) can0 041#01 R
(1722448888.978948) can0 00E#C5F4 R
(1722448888.979119) can0 05C#C5F4C5F4 R
(1722448888.979235) can0 016#26 R
(1722448888.993764) can0 00D#ACF4 R
(1722448888.993894) can0 05B#ACF4 R
(1722448888.994011) can0 014#01 R
(1722448888.994125) can0 008#01 R
(1722448888.994241) can0 055#01 R
(1722448888.994359) can0 05D#01 R
(1722448889.023694) can0 015#01 R
(1722448889.023844) can0 05C#04F404F4 R
(1722448889.023956) can0 056#01 R
(1722448889.024092) can0 00E#05F4 R
(1722448889.024225) can0 00E#05F4 R
(1722448889.024398) can0 05C#04F404F4 R
(1722448889.024513) can0 041#01 R
(1722448889.024628) can0 016#26 R
(1722448889.024761) can0 015#01 R
(1722448889.024861) can0 017#01 R
(1722448889.024978) can0 056#01 R
(1722448889.031847) can0 007#01 R
(1722448889.038897) can0 016#26 R
(1722448889.039010) can0 041#01 R
(1722448889.039150) can0 00E#C3F3 R
(1722448889.039320) can0 05C#C3F3C3F3 R
(1722448889.039434) can0 016#26 R
(1722448889.053719) can0 00D#A9F3 R
(1722448889.053848) can0 05B#A9F3 R
(1722448889.053963) can0 014#01 R
(1722448889.054079) can0 008#01 R
(1722448889.054195) can0 055#01 R
(1722448889.054313) can0 05D#01 R
(1722448889.081659) can0 007#01 R
(1722448889.083754) can0 05C#FAF2FAF2 R
(1722448889.083833) can0 056#01 R
(1722448889.083995) can0 00E#FAF2 R
(1722448889.084160) can0 05C#FAF2FAF2 R
(1722448889.084275) can0 041#01 R
(1722448889.084388) can0 016#25 R
(1722448889.084506) can0 015#01 R
(1722448889.084633) can0 017#01 R
(1722448889.084781) can0 056#01 R
(1722448889.099019) can0 015#01 R
(1722448889.099128) can0 016#25 R
(1722448889.099247) can0 041#01 R
(1722448889.099378) can0 00E#B6F2 R
(1722448889.099506) can0 00E#B6F2 R
(1722448889.099672) can0 05C#B6F2B6F2 R
(1722448889.113820) can0 016#25 R
(1722448889.113946) can0 00D#9BF2 R
(1722448889.114083) can0 05B#9BF2 R
(1722448889.114193) can0 014#01 R
(1722448889.114328) can0 008#01 R
(1722448889.114426) can0 055#01 R
(1722448889.114544) can0 05D#01 R
(1722448889.131683) can0 007#01 R
(1722448889.143759) can0 05C#E6F1E6F1 R
(1722448889.143866) can0 056#01 R
(1722448889.144001) can0 00E#E6F1 R
(1722448889.144126) can0 00E#E6F1 R
(1722448889.144260) can0 00E#E6F1 R
(1722448889.144422) can0 05C#E6F1E6F1 R
(1722448889.144536) can0 041#01 R
(1722448889.144654) can0 016#25 R
(1722448889.144797) can0 015#01 R
(1722448889.144892) can0 017#01 R
(1722448889.145009) can0 056#01 R
(1722448889.158766) can0 015#01 R
(1722448889.158879) can0 016#25 R
(1722448889.158996) can0 041#01 R
(1722448889.159164) can0 05C#9FF19FF1 R
(1722448889.159274) can0 016#25 R
(1722448889.173798) can0 00D#83F1 R
(1722448889.173932) can0 05B#83F1 R
(1722448889.174048) can0 014#01 R
(1722448889.174163) can0 008#01 R
(1722448889.174279) can0 055#01 R
(1722448889.174408) can0 05D#01 R
(1722448889.181723) can0 007#01 R
(1722448889.203663) can0 015#01 R
(1722448889.203778) can0 016#25 R
(1722448889.203895) can0 041#01 R
(1722448889.204068) can0 05C#C7F0C7F0 R
(1722448889.204179) can0 056#01 R
(1722448889.204324) can0 00E#C7F0 R
(1722448889.204453) can0 00E#C7F0 R
(1722448889.204626) can0 05C#C7F0C7F0 R
(1722448889.204756) can0 041#01 R
(1722448889.204855) can0 016#25 R
(1722448889.204972) can0 015#01 R
(1722448889.205090) can0 017#01 R
(1722448889.205205) can0 056#01 R
(1722448889.218863) can0 00E#7EF0 R
(1722448889.219042) can0 05C#7DF07DF0 R
(1722448889.219152) can0 016#25 R
(1722448889.231746) can0 007#01 R
(1722448889.233733) can0 00D#60F0 R
(1722448889.233873) can0 05B#60F0 R
(1722448889.233980) can0 014#01 R
(1722448889.234098) can0 008#01 R
(1722448889.234214) can0 055#01 R
(1722448889.234334) can0 05D#01 R
(1722448889.263640) can0 015#01 R
(1722448889.263752) can0 016#25 R
(1722448889.263916) can0 05C#9EEF9EEF R
(1722448889.264033) can0 056#01 R
(1722448889.264164) can0 00E#9EEF R
(1722448889.264298) can0 00E#9EEF R
(1722448889.264460) can0 05C#9EEF9EEF R
(1722448889.264579) can0 041#01 R
(1722448889.264693) can0 016#25 R
(1722448889.264811) can0 015#01 R
(1722448889.264937) can0 017#01 R
(1722448889.265044) can0 056#01 R
(1722448889.278796) can0 041#01 R
(1722448889.278925) can0 00E#52EF R
(1722448889.279094) can0 05C#52EF52EF R
(1722448889.279202) can0 016#25 R
(1722448889.281487) can0 007#01 R
(1722448889.293796) can0 00D#33EF R
(1722448889.293925) can0 05B#33EF R
(1722448889.294039) can0 014#01 R
(1722448889.294155) can0 008#01 R
(1722448889.294272) can0 055#01 R
(1722448889.294389) can0 05D#01 R
(1722448889.323608) can0 015#01 R
(1722448889.323763) can0 05C#6AEE6AEE R
(1722448889.323878) can0 056#01 R
(1722448889.324005) can0 00E#6AEE R
(1722448889.324171) can0 05C#6AEE6AEE R
(1722448889.324283) can0 041#01 R
(1722448889.324398) can0 016#25 R
(1722448889.324513) can0 015#01 R
(1722448889.324635) can0 017#01 R
(1722448889.324759) can0 056#01 R
(1722448889.338910) can0 016#25 R
(1722448889.339025) can0 041#01 R
(1722448889.339142) can0 007#01 R
(1722448889.339275) can0 00E#1CEE R
(1722448889.339405) can0 00E#1CEE R
(1722448889.339574) can0 05C#1CEE1CEE R
(1722448889.353821) can0 00D#FCED R
(1722448889.353935) can0 016#25 R
(1722448889.354066) can0 05B#FCED R
(1722448889.354182) can0 014#01 R
(1722448889.354297) can0 008#01 R
(1722448889.354414) can0 055#01 R
(1722448889.354531) can0 05D#01 R
(1722448889.383746) can0 05C#2DED2DED R
(1722448889.383858) can0 056#01 R
(1722448889.383989) can0 00E#2DED R
(1722448889.384116) can0 00E#2DED R
(1722448889.384247) can0 00E#2DED R
(1722448889.384415) can0 05C#2DED2DED R
(1722448889.384530) can0 041#01 R
(1722448889.384643) can0 016#25 R
(1722448889.384786) can0 015#01 R
(1722448889.384889) can0 017#01 R
(1722448889.384994) can0 056#01 R
(1722448889.388479) can0 007#01 R
(1722448889.398815) can0 015#01 R
(1722448889.398927) can0 016#25 R
(1722448889.399044) can0 041#01 R
(1722448889.399209) can0 05C#DCECDCEC R
(1722448889.399319) can0 016#25 R
(1722448889.413822) can0 00D#BBEC R
(1722448889.413953) can0 05B#BBEC R
(1722448889.414068) can0 014#01 R
(1722448889.414183) can0 008#01 R
(1722448889.414300) can0 055#01 R
(1722448889.414420) can0 05D#01 R
(1722448889.438707) can0 007#01 R
(1722448889.443758) can0 05C#E5EBE5EB R
(1722448889.443878) can0 056#01 R
(1722448889.444008) can0 00E#E6EB R
(1722448889.444143) can0 00E#E6EB R
(1722448889.444306) can0 05C#E5EBE5EB R
(1722448889.444423) can0 041#01 R
(1722448889.444542) can0 016#24 R
(1722448889.444657) can0 015#01 R
(1722448889.444798) can0 017#01 R
(1722448889.444892) can0 056#01 R
(1722448889.458738) can0 015#01 R
(1722448889.458851) can0 016#24 R
(1722448889.458971) can0 041#01 R
(1722448889.459101) can0 00E#92EB R
(1722448889.459265) can0 05C#92EB92EB R
(1722448889.459380) can0 016#24 R
(1722448889.473797) can0 00D#71EB R
(1722448889.473925) can0 05B#71EB R
(1722448889.474040) can0 014#01 R
(1722448889.474156) can0 008#01 R
(1722448889.474272) can0 055#01 R
(1722448889.474390) can0 05D#01 R
(1722448889.488571) can0 007#01 R
(1722448889.503667) can0 015#01 R
(1722448889.503787) can0 016#24 R
(1722448889.503898) can0 041#01 R
(1722448889.504067) can0 05C#94EA94EA R
(1722448889.504175) can0 056#01 R
(1722448889.504307) can0 00E#94EA R
(1722448889.504436) can0 00E#94EA R
(1722448889.504596) can0 05C#94EA94EA R
(1722448889.504717) can0 041#01 R
(1722448889.504812) can0 016#24 R
(1722448889.504954) can0 015#01 R
(1722448889.505068) can0 017#01 R
(1722448889.505185) can0 056#01 R
(1722448889.518775) can0 00E#3FEA R
(1722448889.518942) can0 05C#3FEA3EEA R
(1722448889.519060) can0 016#24 R
(1722448889.533751) can0 00D#1CEA R
(1722448889.533878) can0 05B#1CEA R
(1722448889.533994) can0 014#01 R
(1722448889.534110) can0 008#01 R
(1722448889.534228) can0 055#01 R
(1722448889.534343) can0 05D#01 R
(1722448889.538610) can0 007#01 R
(1722448889.563617) can0 015#01 R
(1722448889.563735) can0 016#24 R
(1722448889.563905) can0 05C#39E939E9 R
(1722448889.564014) can0 056#01 R
(1722448889.564145) can0 00E#3AE9 R
(1722448889.564308) can0 05C#39E939E9 R
(1722448889.564424) can0 041#01 R
(1722448889.564542) can0 016#24 R
(1722448889.564658) can0 015#01 R
(1722448889.564801) can0 017#01 R
(1722448889.564899) can0 056#01 R
(1722448889.578806) can0 041#01 R
(1722448889.578939) can0 00E#E1E8 R
(1722448889.579077) can0 00E#E1E8 R
(1722448889.579242) can0 05C#E1E8E1E8 R
(1722448889.588614) can0 007#01 R
(1722448889.593674) can0 016#24 R
(1722448889.593807) can0 00D#BEE8 R
(1722448889.593944) can0 05B#BEE8 R
(1722448889.594055) can0 014#01 R
(1722448889.594172) can0 008#01 R
(1722448889.594289) can0 055#01 R
(1722448889.594407) can0 05D#01 R
(1722448889.623719) can0 015#01 R
(1722448889.623882) can0 05C#D5E7D5E7 R
(1722448889.623997) can0 056#01 R
(1722448889.624132) can0 00E#D5E7 R
(1722448889.624288) can0 00E#D5E7 R
(1722448889.624394) can0 00E#D5E7 R
(1722448889.624557) can0 05C#D5E7D5E7 R
(1722448889.624677) can0 041#01 R
(1722448889.624813) can0 016#24 R
(1722448889.624908) can0 015#01 R
(1722448889.625028) can0 017#01 R
(1722448889.625144) can0 056#01 R
(1722448889.638759) can0 016#24 R
(1722448889.638862) can0 007#01 R
(1722448889.638979) can0 041#01 R
(1722448889.639149) can0 05C#7AE77AE7 R
(1722448889.639261) can0 016#24 R
(1722448889.653712) can0 00D#56E7 R
(1722448889.653844) can0 05B#56E7 R
(1722448889.653959) can0 014#01 R
(1722448889.654074) can0 008#01 R
(1722448889.654190) can0 055#01 R
(1722448889.654308) can0 05D#01 R
(1722448889.683843) can0 05C#67E667E6 R
(1722448889.683953) can0 056#01 R
(1722448889.684090) can0 00E#67E6 R
(1722448889.684218) can0 00E#67E6 R
(1722448889.684390) can0 05C#67E667E6 R
(1722448889.684503) can0 041#01 R
(1722448889.684622) can0 016#24 R
(1722448889.684758) can0 015#01 R
(1722448889.684859) can0 017#01 R
(1722448889.684974) can0 056#01 R
(1722448889.688611) can0 007#01 R
(1722448889.698765) can0 015#01 R
(1722448889.698872) can0 016#23 R
(1722448889.698991) can0 041#01 R
(1722448889.699127) can0 00E#0AE6 R
(1722448889.699296) can0 05C#0AE60AE6 R
(1722448889.699407) can0 016#23 R
(1722448889.713739) can0 00D#E5E5 R
(1722448889.713867) can0 05B#E5E5 R
(1722448889.713983) can0 014#01 R
(1722448889.714097) can0 008#01 R
(1722448889.714215) can0 055#01 R
(1722448889.714332) can0 05D#01 R
(1722448889.738623) can0 007#01 R
(1722448889.743961) can0 05C#F0E4F0E4 R
(1722448889.744071) can0 056#01 R
(1722448889.744209) can0 00E#F0E4 R
(1722448889.744333) can0 00E#F0E4 R
(1722448889.744502) can0 05C#F0E4F0E4 R
(1722448889.744611) can0 041#01 R
(1722448889.744755) can0 016#23 R
(1722448889.744852) can0 015#01 R
(1722448889.744960) can0 017#01 R
(1722448889.745077) can0 056#01 R
(1722448889.758757) can0 015#01 R
(1722448889.758863) can0 016#23 R
(1722448889.758986) can0 041#01 R
(1722448889.759115) can0 00E#91E4 R
(1722448889.759279) can0 05C#91E491E4 R
(1722448889.759389) can0 016#23 R
(1722448889.774069) can0 00D#6BE4 R
(1722448889.774201) can0 05B#6BE4 R
(1722448889.774317) can0 014#01 R
(1722448889.774435) can0 008#01 R
(1722448889.774547) can0 055#01 R
(1722448889.774669) can0 05D#01 R
(1722448889.788600) can0 007#01 R
(1722448889.803644) can0 015#01 R
(1722448889.803767) can0 016#23 R
(1722448889.803886) can0 041#01 R
(1722448889.804049) can0 05C#70E370E3 R
(1722448889.804161) can0 056#01 R
(1722448889.804295) can0 00E#70E3 R
(1722448889.804458) can0 05C#70E370E3 R
(1722448889.804574) can0 041#01 R
(1722448889.804688) can0 016#23 R
(1722448889.804817) can0 015#01 R
(1722448889.804920) can0 017#01 R
(1722448889.805040) can0 056#01 R
(1722448889.818940) can0 00E#0EE3 R
(1722448889.819068) can0 00E#0EE3 R
(1722448889.819235) can0 05C#0EE30EE3 R
(1722448889.833982) can0 00D#E7E2 R
(1722448889.834093) can0 016#23 R
(1722448889.834226) can0 05B#E7E2 R
(1722448889.834341) can0 014#01 R
(1722448889.834456) can0 008#01 R
(1722448889.834573) can0 055#01 R
(1722448889.834691) can0 05D#01 R
(1722448889.838481) can0 007#01 R
(1722448889.863799) can0 015#01 R
(1722448889.863912) can0 016#23 R
(1722448889.864084) can0 05C#E6E1E6E1 R
(1722448889.864191) can0 056#01 R
(1722448889.864325) can0 00E#E6E1 R
(1722448889.864460) can0 00E#E6E1 R
(1722448889.864588) can0 00E#E6E1 R
(1722448889.864778) can0 05C#E6E1E6E1 R
(1722448889.864844) can0 041#01 R
(1722448889.864987) can0 016#23 R
(1722448889.865107) can0 015#01 R
(1722448889.865219) can0 017#01 R
(1722448889.865336) can0 056#01 R
(1722448889.878763) can0 041#01 R
(1722448889.878935) can0 05C#83E183E1 R
(1722448889.879045) can0 016#23 R
(1722448889.888646) can0 007#01 R
(1722448889.893699) can0 00D#5BE1 R
(1722448889.893836) can0 05B#5BE1 R
(1722448889.893950) can0 014#01 R
(1722448889.894067) can0 008#01 R
(1722448889.894183) can0 055#01 R
(1722448889.894301) can0 05D#01 R
(1722448889.923660) can0 015#01 R
(1722448889.923831) can0 05C#54E054E0 R
(1722448889.923942) can0 056#01 R
(1722448889.924080) can0 00E#54E0 R
(1722448889.924220) can0 00E#54E0 R
(1722448889.924385) can0 05C#54E054E0 R
(1722448889.924505) can0 041#01 R
(1722448889.924614) can0 016#23 R
(1722448889.924756) can0 015#01 R
(1722448889.924851) can0 017#01 R
(1722448889.924965) can0 056#01 R
(1722448889.938765) can0 007#01 R
(1722448889.938877) can0 016#22 R
(1722448889.938993) can0 041#01 R
(1722448889.939126) can0 00E#EEDF R
(1722448889.939298) can0 05C#EEDFEEDF R
(1722448889.939407) can0 016#22 R
(1722448889.954041) can0 00D#C5DF R
(1722448889.954164) can0 05B#C5DF R
(1722448889.954274) can0 014#01 R
(1722448889.954391) can0 008#01 R
(1722448889.954507) can0 055#01 R
(1722448889.954625) can0 05D#01 R
(1722448889.984082) can0 05C#B9DEB9DE R
(1722448889.984196) can0 056#01 R
(1722448889.984331) can0 00E#B9DE R
(1722448889.984462) can0 00E#B9DE R
(1722448889.984624) can0 05C#B9DEB9DE R
(1722448889.984759) can0 041#01 R
(1722448889.984855) can0 016#22 R
(1722448889.984971) can0 015#01 R
(1722448889.985089) can0 017#01 R
(1722448889.985210) can0 056#01 R
(1722448889.988465) can0 007#01 R
(1722448889.998761) can0 015#01 R
(1722448889.998879) can0 016#22 R
(1722448889.998992) can0 041#01 R
(1722448889.999130) can0 00E#51DE R
(1722448889.999289) can0 05C#51DE51DE R
(1722448889.999398) can0 016#22 R
(1722448890.013868) can0 00D#27DE R
(1722448890.013993) can0 05B#27DE R
(1722448890.014110) can0 014#01 R
(1722448890.014225) can0 008#01 R
(1722448890.014360) can0 055#01 R
(1722448890.014460) can0 05D#01 R
(1722448890.039158) can0 007#01 R
(1722448890.043950) can0 05C#15DD15DD R
(1722448890.044065) can0 056#01 R
(1722448890.044195) can0 00E#15DD R
(1722448890.044364) can0 05C#15DD15DD R
(1722448890.044478) can0 041#01 R
(1722448890.044593) can0 016#22 R
(1722448890.044708) can0 015#01 R
(1722448890.044836) can0 017#01 R
(1722448890.044943) can0 056#01 R
(1722448890.058872) can0 015#01 R
(1722448890.058975) can0 016#22 R
(1722448890.059087) can0 041#01 R
(1722448890.059221) can0 00E#ABDC R
(1722448890.059352) can0 00E#ABDC R
(1722448890.059521) can0 05C#ABDCABDC R
(1722448890.073708) can0 016#22 R
(1722448890.073840) can0 00D#80DC R
(1722448890.073976) can0 05B#80DC R
(1722448890.074088) can0 014#01 R
(1722448890.074205) can0 008#01 R
(1722448890.074322) can0 055#01 R
(1722448890.074438) can0 05D#01 R
(1722448890.088610) can0 007#01 R
(1722448890.103996) can0 015#01 R
(1722448890.104103) can0 016#22 R
(1722448890.104222) can0 041#01 R
(1722448890.104384) can0 05C#69DB69DB R
(1722448890.104505) can0 056#01 R
(1722448890.104634) can0 00E#69DB R
(1722448890.104803) can0 00E#69DB R
(1722448890.104907) can0 00E#69DB R
(1722448890.105068) can0 05C#69DB69DB R
(1722448890.105179) can0 041#01 R
(1722448890.105293) can0 016#22 R
(1722448890.105410) can0 015#01 R
(1722448890.105527) can0 017#01 R
(1722448890.105644) can0 056#01 R
(1722448890.118846) can0 05C#FDDAFDDA R
(1722448890.118959) can0 016#22 R
(1722448890.133831) can0 00D#D1DA R
(1722448890.133961) can0 05B#D1DA R
(1722448890.134074) can0 014#01 R
(1722448890.134192) can0 008#01 R
(1722448890.134308) can0 055#01 R
(1722448890.134428) can0 05D#01 R
(1722448890.138454) can0 007#01 R
(1722448890.163650) can0 015#01 R
(1722448890.163823) can0 016#22 R
(1722448890.163990) can0 05C#B5D9B5D9 R
(1722448890.164101) can0 056#01 R
(1722448890.164237) can0 00E#B5D9 R
(1722448890.164381) can0 00E#B5D9 R
(1722448890.164530) can0 05C#B5D9B5D9 R
(1722448890.164647) can0 041#01 R
(1722448890.164793) can0 016#22 R
(1722448890.164856) can0 015#01 R
(1722448890.164998) can0 017#01 R
(1722448890.165113) can0 056#01 R
(1722448890.178759) can0 041#01 R
(1722448890.178889) can0 00E#46D9 R
(1722448890.179055) can0 05C#46D946D9 R
(1722448890.179164) can0 016#21 R
(1722448890.188632) can0 007#01 R
(1722448890.193751) can0 00D#1AD9 R
(1722448890.193880) can0 05B#1AD9 R
(1722448890.193996) can0 014#01 R
(1722448890.194110) can0 008#01 R
(1722448890.194227) can0 055#01 R
(1722448890.194345) can0 05D#01 R
(1722448890.223637) can0 015#01 R
(1722448890.223804) can0 05C#F8D7F8D7 R
(1722448890.223916) can0 056#01 R
(1722448890.224050) can0 00E#F8D7 R
(1722448890.224181) can0 00E#F8D7 R
(1722448890.224352) can0 05C#F8D7F8D7 R
(1722448890.224466) can0 041#01 R
(1722448890.224582) can0 016#21 R
(1722448890.224697) can0 015#01 R
(1722448890.224818) can0 017#01 R
(1722448890.224931) can0 056#01 R
(1722448890.238622) can0 007#01 R
(1722448890.238817) can0 016#21 R
(1722448890.238932) can0 041#01 R
(1722448890.239063) can0 00E#88D7 R
(1722448890.239238) can0 05C#88D788D7 R
(1722448890.239343) can0 016#21 R
(1722448890.253815) can0 00D#5BD7 R
(1722448890.253944) can0 05B#5BD7 R
(1722448890.254058) can0 014#01 R
(1722448890.254175) can0 008#01 R
(1722448890.254291) can0 055#01 R
(1722448890.254412) can0 05D#01 R
(1722448890.283727) can0 05C#33D633D6 R
(1722448890.283839) can0 056#01 R
(1722448890.283971) can0 00E#33D6 R
(1722448890.284139) can0 05C#33D633D6 R
(1722448890.284253) can0 041#01 R
(1722448890.284372) can0 016#21 R
(1722448890.284483) can0 015#01 R
(1722448890.284607) can0 017#01 R
(1722448890.284717) can0 056#01 R
(1722448890.288629) can0 007#01 R
(1722448890.298764) can0 015#01 R
(1722448890.298878) can0 016#21 R
(1722448890.298993) can0 041#01 R
(1722448890.299133) can0 00E#C1D5 R
(1722448890.299267) can0 00E#C1D5 R
(1722448890.299430) can0 05C#C1D5C1D5 R
(1722448890.313710) can0 016#21 R
(1722448890.313834) can0 00D#93D5 R
(1722448890.313969) can0 05B#93D5 R
(1722448890.314079) can0 014#01 R
(1722448890.314195) can0 008#01 R
(1722448890.314310) can0 055#01 R
(1722448890.314430) can0 05D#01 R
(1722448890.338614) can0 007#01 R
(1722448890.344002) can0 05C#67D467D4 R
(1722448890.344121) can0 056#01 R
(1722448890.344251) can0 00E#67D4 R
(1722448890.344391) can0 00E#67D4 R
(1722448890.344519) can0 00E#67D4 R
(1722448890.344688) can0 05C#67D467D4 R
(1722448890.344797) can0 041#01 R
(1722448890.344918) can0 016#21 R
(1722448890.345035) can0 015#01 R
(1722448890.345151) can0 017#01 R
(1722448890.345268) can0 056#01 R
(1722448890.359143) can0 015#01 R
(1722448890.359254) can0 016#21 R
(1722448890.359370) can0 041#01 R
(1722448890.359537) can0 05C#F3D3F3D3 R
(1722448890.359646) can0 016#21 R
(1722448890.373826) can0 00D#C4D3 R
(1722448890.373958) can0 05B#C4D3 R
(1722448890.374073) can0 014#01 R
(1722448890.374189) can0 008#01 R
(1722448890.374306) can0 055#01 R
(1722448890.374424) can0 05D#01 R
(1722448890.388758) can0 007#01 R
(1722448890.403810) can0 015#01 R
(1722448890.403927) can0 016#20 R
(1722448890.404047) can0 041#01 R
(1722448890.404217) can0 05C#93D293D2 R
(1722448890.404324) can0 056#01 R
(1722448890.404461) can0 00E#93D2 R
(1722448890.404594) can0 00E#93D2 R
(1722448890.404782) can0 05C#93D293D2 R
(1722448890.404848) can0 041#01 R
(1722448890.404994) can0 016#20 R
(1722448890.405106) can0 015#01 R
(1722448890.405227) can0 017#01 R
(1722448890.405342) can0 056#01 R
(1722448890.418823) can0 00E#1DD2 R
(1722448890.418994) can0 05C#1DD21DD2 R
(1722448890.419107) can0 016#20 R
(1722448890.433746) can0 00D#EDD1 R
(1722448890.433873) can0 05B#EDD1 R
(1722448890.433994) can0 014#01 R
(1722448890.434105) can0 008#01 R
(1722448890.434222) can0 055#01 R
(1722448890.434340) can0 05D#01 R
(1722448890.438684) can0 007#01 R
(1722448890.463666) can0 015#01 R
(1722448890.463782) can0 016#20 R
(1722448890.463951) can0 05C#B7D0B7D0 R
(1722448890.464063) can0 056#01 R
(1722448890.464202) can0 00E#B7D0 R
(1722448890.464344) can0 00E#B7D0 R
(1722448890.464501) can0 05C#B7D0B7D0 R
(1722448890.464616) can0 041#01 R
(1722448890.464756) can0 016#20 R
(1722448890.464856) can0 015#01 R
(1722448890.464973) can0 017#01 R
(1722448890.465088) can0 056#01 R
(1722448890.478760) can0 041#01 R
(1722448890.478892) can0 00E#3FD0 R
(1722448890.479061) can0 05C#3FD03FD0 R
(1722448890.479178) can0 016#20 R
(1722448890.488668) can0 007#01 R
(1722448890.493716) can0 00D#0FD0 R
(1722448890.493857) can0 05B#0FD0 R
(1722448890.493965) can0 014#01 R
(1722448890.494085) can0 008#01 R
(1722448890.494198) can0 055#01 R
(1722448890.494316) can0 05D#01 R
(1722448890.523711) can0 015#01 R
(1722448890.523866) can0 05C#D4CED4CE R
(1722448890.523981) can0 056#01 R
(1722448890.524108) can0 00E#D4CE R
(1722448890.524279) can0 05C#D4CED4CE R
(1722448890.524392) can0 041#01 R
(1722448890.524512) can0 016#20 R
(1722448890.524626) can0 015#01 R
(1722448890.524761) can0 017#01 R
(1722448890.524859) can0 056#01 R
(1722448890.538709) can0 007#01 R
(1722448890.538826) can0 016#20 R
(1722448890.538944) can0 041#01 R
(1722448890.539075) can0 00E#5ACE R
(1722448890.539205) can0 00E#5ACE R
(1722448890.539373) can0 05C#5ACE5ACE R
(1722448890.553800) can0 00D#29CE R
(1722448890.553917) can0 016#20 R
(1722448890.554049) can0 05B#29CE R
(1722448890.554163) can0 014#01 R
(1722448890.554279) can0 008#01 R
(1722448890.554395) can0 055#01 R
(1722448890.554515) can0 05D#01 R
(1722448890.583688) can0 05C#EACCEACC R
(1722448890.583803) can0 056#01 R
(1722448890.583936) can0 00E#EACC R
(1722448890.584069) can0 00E#EACC R
(1722448890.584198) can0 00E#EACC R
(1722448890.584363) can0 05C#EACCEACC R
(1722448890.584481) can0 041#01 R
(1722448890.584602) can0 016#20 R
(1722448890.584717) can0 015#01 R
(1722448890.584835) can0 017#01 R
(1722448890.584951) can0 056#01 R
(1722448890.588676) can0 007#01 R
(1722448890.598772) can0 015#01 R
(1722448890.598886) can0 016#1F R
(1722448890.599003) can0 041#01 R
(1722448890.599167) can0 05C#6ECC6ECC R
(1722448890.599283) can0 016#1F R
(1722448890.613797) can0 00D#3DCC R
(1722448890.613982) can0 05B#3DCC R
(1722448890.614094) can0 014#01 R
(1722448890.614215) can0 008#01 R
(1722448890.614329) can0 055#01 R
(1722448890.614449) can0 05D#01 R
(1722448890.638605) can0 007#01 R
(1722448890.643696) can0 05C#F9CAF9CA R
(1722448890.643807) can0 056#01 R
(1722448890.643943) can0 00E#F9CA R
(1722448890.644073) can0 00E#F9CA R
(1722448890.644238) can0 05C#F9CAF9CA R
(1722448890.644356) can0 041#01 R
(1722448890.644473) can0 016#1F R
(1722448890.644589) can0 015#01 R
(1722448890.644710) can0 017#01 R
(1722448890.644803) can0 056#01 R
(1722448890.658717) can0 015#01 R
(1722448890.658828) can0 016#1F R
(1722448890.658947) can0 041#01 R
(1722448890.659079) can0 00E#7CCA R
(1722448890.659249) can0 05C#7BCA7BCA R
(1722448890.659355) can0 016#1F R
(1722448890.673768) can0 00D#49CA R
(1722448890.673894) can0 05B#49CA R
(1722448890.674011) can0 014#01 R
(1722448890.674131) can0 008#01 R
(1722448890.674242) can0 055#01 R
(1722448890.674364) can0 05D#01 R
(1722448890.688696) can0 007#01 R
(1722448890.703784) can0 015#01 R
(1722448890.703895) can0 016#1F R
(1722448890.704015) can0 041#01 R
(1722448890.704187) can0 05C#01C901C9 R
(1722448890.704298) can0 056#01 R
(1722448890.704431) can0 00E#01C9 R
(1722448890.704562) can0 00E#01C9 R
(1722448890.704756) can0 05C#01C901C9 R
(1722448890.704821) can0 041#01 R
(1722448890.704969) can0 016#1F R
(1722448890.705078) can0 015#01 R
(1722448890.705199) can0 017#01 R
(1722448890.705314) can0 056#01 R
(1722448890.718815) can0 00E#82C8 R
(1722448890.718987) can0 05C#82C882C8 R
(1722448890.719091) can0 016#1F R
(1722448890.733927) can0 00D#4FC8 R
(1722448890.734057) can0 05B#4FC8 R
(1722448890.734173) can0 014#01 R
(1722448890.734287) can0 008#01 R
(1722448890.734404) can0 055#01 R
(1722448890.734523) can0 05D#01 R
(1722448890.738446) can0 007#01 R
(1722448890.763651) can0 015#01 R
(1722448890.763766) can0 016#1F R
(1722448890.763938) can0 05C#02C702C7 R
(1722448890.764048) can0 056#01 R
(1722448890.764183) can0 00E#02C7 R
(1722448890.764351) can0 05C#02C702C7 R
(1722448890.764464) can0 041#01 R
(1722448890.764582) can0 016#1F R
(1722448890.764697) can0 015#01 R
(1722448890.764818) can0 017#01 R
(1722448890.764931) can0 056#01 R
(1722448890.778767) can0 041#01 R
(1722448890.778899) can0 00E#82C6 R
(1722448890.779044) can0 00E#82C6 R
(1722448890.779203) can0 05C#82C682C6 R
(1722448890.788627) can0 007#01 R
(1722448890.793762) can0 016#1E R
(1722448890.793882) can0 00D#4EC6 R
(1722448890.794016) can0 05B#4EC6 R
(1722448890.794130) can0 014#01 R
(1722448890.794246) can0 008#01 R
(1722448890.794362) can0 055#01 R
(1722448890.794480) can0 05D#01 R
(1722448890.823799) can0 015#01 R
(1722448890.823969) can0 05C#FDC4FDC4 R
(1722448890.824079) can0 056#01 R
(1722448890.824213) can0 00E#FDC4 R
(1722448890.824348) can0 00E#FDC4 R
(1722448890.824476) can0 00E#FDC4 R
(1722448890.824648) can0 05C#FDC4FDC4 R
(1722448890.824784) can0 041#01 R
(1722448890.824880) can0 016#1E R
(1722448890.824991) can0 015#01 R
(1722448890.825111) can0 017#01 R
(1722448890.825226) can0 056#01 R
(1722448890.838778) can0 007#01 R
(1722448890.838960) can0 016#1E R
(1722448890.839075) can0 041#01 R
(1722448890.839241) can0 05C#7BC47BC4 R
(1722448890.839353) can0 016#1E R
(1722448890.853744) can0 00D#47C4 R
(1722448890.853876) can0 05B#47C4 R
(1722448890.853989) can0 014#01 R
(1722448890.854106) can0 008#01 R
(1722448890.854221) can0 055#01 R
(1722448890.854360) can0 05D#01 R
(1722448890.883670) can0 05C#F2C2F2C2 R
(1722448890.883781) can0 056#01 R
(1722448890.883912) can0 00E#F2C2 R
(1722448890.884042) can0 00E#F2C2 R
(1722448890.884206) can0 05C#F2C2F2C2 R
(1722448890.884321) can0 041#01 R
(1722448890.884436) can0 016#1E R
(1722448890.884551) can0 015#01 R
(1722448890.884670) can0 017#01 R
(1722448890.884810) can0 056#01 R
(1722448890.888453) can0 007#01 R
(1722448890.898804) can0 015#01 R
(1722448890.898891) can0 016#1E R
(1722448890.899023) can0 041#01 R
(1722448890.899152) can0 00E#6EC2 R
(1722448890.899312) can0 05C#6EC26EC2 R
(1722448890.899426) can0 016#1E R
(1722448890.913731) can0 00D#39C2 R
(1722448890.913866) can0 05B#39C2 R
(1722448890.913986) can0 014#01 R
(1722448890.914096) can0 008#01 R
(1722448890.914214) can0 055#01 R
(1722448890.914331) can0 05D#01 R
(1722448890.938676) can0 007#01 R
(1722448890.943842) can0 05C#E0C0E0C0 R
(1722448890.943954) can0 056#01 R
(1722448890.944089) can0 00E#E0C0 R
(1722448890.944225) can0 00E#E0C0 R
(1722448890.944394) can0 05C#E0C0E0C0 R
(1722448890.944510) can0 041#01 R
(1722448890.944629) can0 016#1E R
(1722448890.944758) can0 015#01 R
(1722448890.944864) can0 017#01 R
(1722448890.944976) can0 056#01 R
(1722448890.958732) can0 015#01 R
(1722448890.958844) can0 016#1E R
(1722448890.958961) can0 041#01 R
(1722448890.959097) can0 00E#5BC0 R
(1722448890.959268) can0 05C#5BC05BC0 R
(1722448890.959373) can0 016#1E R
(1722448890.973688) can0 00D#26C0 R
(1722448890.973822) can0 05B#26C0 R
(1722448890.973935) can0 014#01 R
(1722448890.974052) can0 008#01 R
(1722448890.974167) can0 055#01 R
(1722448890.974287) can0 05D#01 R
(1722448890.989909) can0 007#01 R
(1722448891.003747) can0 015#01 R
(1722448891.003817) can0 016#1D R
(1722448891.003969) can0 041#01 R
(1722448891.004137) can0 05C#C9BEC9BE R
(1722448891.004249) can0 056#01 R
(1722448891.004384) can0 00E#C9BE R
(1722448891.004556) can0 05C#C9BEC9BE R
(1722448891.004671) can0 041#01 R
(1722448891.004815) can0 016#1D R
(1722448891.004874) can0 015#01 R
(1722448891.005021) can0 017#01 R
(1722448891.005138) can0 056#01 R
(1722448891.018800) can0 00E#42BE R
(1722448891.018932) can0 00E#42BE R
(1722448891.019102) can0 05C#42BE42BE R
(1722448891.033777) can0 016#1D R
(1722448891.033911) can0 00D#0CBE R
(1722448891.034046) can0 05B#0CBE R
(1722448891.034161) can0 014#01 R
(1722448891.034277) can0 008#01 R
(1722448891.034393) can0 055#01 R
(1722448891.034511) can0 05D#01 R
(1722448891.039611) can0 007#01 R
(1722448891.063644) can0 015#01 R
(1722448891.063756) can0 016#1D R
(1722448891.063917) can0 05C#ACBCACBC R
(1722448891.064028) can0 056#01 R
(1722448891.064162) can0 00E#ACBC R
(1722448891.064291) can0 00E#ACBC R
(1722448891.064422) can0 00E#ACBC R
(1722448891.064588) can0 05C#ACBCACBC R
(1722448891.064700) can0 041#01 R
(1722448891.064808) can0 016#1D R
(1722448891.064933) can0 015#01 R
(1722448891.065049) can0 017#01 R
(1722448891.065166) can0 056#01 R
(1722448891.078862) can0 041#01 R
(1722448891.079026) can0 05C#24BC24BC R
(1722448891.079140) can0 016#1D R
(1722448891.089681) can0 007#01 R
(1722448891.093767) can0 00D#EDBB R
(1722448891.093895) can0 05B#EDBB R
(1722448891.094016) can0 014#01 R
(1722448891.094134) can0 008#01 R
(1722448891.094245) can0 055#01 R
(1722448891.094365) can0 05D#01 R
(1722448891.123684) can0 015#01 R
(1722448891.123832) can0 05C#89BA89BA R
(1722448891.123946) can0 056#01 R
(1722448891.124077) can0 00E#89BA R
(1722448891.124212) can0 00E#89BA R
(1722448891.124376) can0 05C#89BA89BA R
(1722448891.124490) can0 041#01 R
(1722448891.124603) can0 016#1D R
(1722448891.124719) can0 015#01 R
(1722448891.124839) can0 017#01 R
(1722448891.124953) can0 056#01 R
(1722448891.138785) can0 016#1D R
(1722448891.138898) can0 041#01 R
(1722448891.139036) can0 00E#00BA R
(1722448891.139203) can0 05C#00BA00BA R
(1722448891.139317) can0 016#1D R
(1722448891.139675) can0 007#01 R
(1722448891.153798) can0 00D#C9B9 R
(1722448891.153926) can0 05B#C9B9 R
(1722448891.154041) can0 014#01 R
(1722448891.154157) can0 008#01 R
(1722448891.154273) can0 055#01 R
(1722448891.154391) can0 05D#01 R
(1722448891.183718) can0 05C#61B861B8 R
(1722448891.183829) can0 056#01 R
(1722448891.183964) can0 00E#62B8 R
(1722448891.184095) can0 00E#62B8 R
(1722448891.184260) can0 05C#61B861B8 R
(1722448891.184375) can0 041#01 R
(1722448891.184491) can0 016#1C R
(1722448891.184606) can0 015#01 R
(1722448891.184725) can0 017#01 R
(1722448891.184837) can0 056#01 R
(1722448891.189674) can0 007#01 R
(1722448891.198721) can0 015#01 R
(1722448891.198837) can0 016#1C R
(1722448891.198953) can0 041#01 R
(1722448891.199087) can0 00E#D7B7 R
(1722448891.199250) can0 05C#D7B7D7B7 R
(1722448891.199365) can0 016#1C R
(1722448891.213790) can0 00D#9FB7 R
(1722448891.213920) can0 05B#9FB7 R
(1722448891.214037) can0 014#01 R
(1722448891.214152) can0 008#01 R
(1722448891.214269) can0 055#01 R
(1722448891.214411) can0 05D#01 R
(1722448891.239663) can0 007#01 R
(1722448891.243718) can0 05C#34B634B6 R
(1722448891.243835) can0 056#01 R
(1722448891.243967) can0 00E#35B6 R
(1722448891.244131) can0 05C#34B634B6 R
(1722448891.244245) can0 041#01 R
(1722448891.244363) can0 016#1C R
(1722448891.244478) can0 015#01 R
(1722448891.244597) can0 017#01 R
(1722448891.244712) can0 056#01 R
(1722448891.258860) can0 015#01 R
(1722448891.258973) can0 016#1C R
(1722448891.259091) can0 041#01 R
(1722448891.259219) can0 00E#A8B5 R
(1722448891.259351) can0 00E#A8B5 R
(1722448891.259520) can0 05C#A8B5A8B5 R
(1722448891.273750) can0 016#1C R
(1722448891.273874) can0 00D#70B5 R
(1722448891.274015) can0 05B#70B5 R
(1722448891.274119) can0 014#01 R
(1722448891.274240) can0 008#01 R
(1722448891.274353) can0 055#01 R
(1722448891.274472) can0 05D#01 R
(1722448891.289574) can0 007#01 R
(1722448891.303673) can0 015#01 R
(1722448891.303788) can0 016#1C R
(1722448891.303908) can0 041#01 R
(1722448891.304078) can0 05C#03B402B4 R
(1722448891.304191) can0 056#01 R
(1722448891.304326) can0 00E#03B4 R
(1722448891.304470) can0 00E#03B4 R
(1722448891.304589) can0 00E#03B4 R
(1722448891.304780) can0 05C#03B402B4 R
(1722448891.304845) can0 041#01 R
(1722448891.304998) can0 016#1C R
(1722448891.305104) can0 015#01 R
(1722448891.305224) can0 017#01 R
(1722448891.305340) can0 056#01 R
(1722448891.318811) can0 05C#75B375B3 R
(1722448891.318926) can0 016#1C R
(1722448891.333765) can0 00D#3DB3 R
(1722448891.333875) can0 05B#3DB3 R
(1722448891.333998) can0 014#01 R
(1722448891.334107) can0 008#01 R
(1722448891.334224) can0 055#01 R
(1722448891.334341) can0 05D#01 R
(1722448891.339593) can0 007#01 R
(1722448891.363677) can0 015#01 R
(1722448891.363794) can0 016#1B R
(1722448891.363958) can0 05C#CCB1CCB1 R
(1722448891.364071) can0 056#01 R
(1722448891.364206) can0 00E#CCB1 R
(1722448891.364350) can0 00E#CCB1 R
(1722448891.364498) can0 05C#CCB1CCB1 R
(1722448891.364616) can0 041#01 R
(1722448891.364756) can0 016#1B R
(1722448891.364856) can0 015#01 R
(1722448891.364970) can0 017#01 R
(1722448891.365085) can0 056#01 R
(1722448891.378818) can0 041#01 R
(1722448891.378945) can0 00E#3DB1 R
(1722448891.379116) can0 05C#3DB13DB1 R
(1722448891.379229) can0 016#1B R
(1722448891.389656) can0 007#01 R
(1722448891.393807) can0 00D#04B1 R
(1722448891.393947) can0 05B#04B1 R
(1722448891.394055) can0 014#01 R
(1722448891.394174) can0 008#01 R
(1722448891.394289) can0 055#01 R
(1722448891.394409) can0 05D#01 R
(1722448891.423628) can0 015#01 R
(1722448891.423863) can0 05C#91AF91AF R
(1722448891.423970) can0 056#01 R
(1722448891.424110) can0 00E#91AF R
(1722448891.424241) can0 00E#91AF R
(1722448891.424403) can0 05C#91AF91AF R
(1722448891.424519) can0 041#01 R
(1722448891.424639) can0 016#1B R
(1722448891.424779) can0 015#01 R
(1722448891.424880) can0 017#01 R
(1722448891.424987) can0 056#01 R
(1722448891.438739) can0 016#1B R
(1722448891.438841) can0 041#01 R
(1722448891.438980) can0 00E#01AF R
(1722448891.439152) can0 05C#01AF01AF R
(1722448891.439266) can0 016#1B R
(1722448891.439485) can0 007#01 R
(1722448891.453830) can0 00D#C8AE R
(1722448891.453964) can0 05B#C8AE R
(1722448891.454077) can0 014#01 R
(1722448891.454194) can0 008#01 R
(1722448891.454309) can0 055#01 R
(1722448891.454430) can0 05D#01 R
(1722448891.483680) can0 05C#51AD51AD R
(1722448891.483791) can0 056#01 R
(1722448891.483926) can0 00E#51AD R
(1722448891.484091) can0 05C#51AD51AD R
(1722448891.484208) can0 041#01 R
(1722448891.484326) can0 016#1B R
(1722448891.484443) can0 015#01 R
(1722448891.484561) can0 017#01 R
(1722448891.484678) can0 056#01 R
(1722448891.492057) can0 007#01 R
(1722448891.498811) can0 015#01 R
(1722448891.498921) can0 016#1A R
(1722448891.499041) can0 041#01 R
(1722448891.499174) can0 00E#C1AC R
(1722448891.499305) can0 00E#C1AC R
(1722448891.499473) can0 05C#C1ACC0AC R
(1722448891.513755) can0 016#1A R
(1722448891.513849) can0 00D#87AC R
(1722448891.514014) can0 05B#87AC R
(1722448891.514114) can0 014#01 R
(1722448891.514230) can0 008#01 R
(1722448891.514339) can0 055#01 R
(1722448891.514456) can0 05D#01 R
(1722448891.541789) can0 007#01 R
(1722448891.543715) can0 05C#0DAB0DAB R
(1722448891.543826) can0 056#01 R
(1722448891.543962) can0 00E#0DAB R
(1722448891.544091) can0 00E#0DAB R
(1722448891.544221) can0 00E#0DAB R
(1722448891.544394) can0 05C#0DAB0DAB R
(1722448891.544510) can0 041#01 R
(1722448891.544620) can0 016#1A R
(1722448891.544764) can0 015#01 R
(1722448891.544857) can0 017#01 R
(1722448891.544966) can0 056#01 R
(1722448891.558962) can0 015#01 R
(1722448891.559076) can0 016#1A R
(1722448891.559187) can0 041#01 R
(1722448891.559356) can0 05C#7CAA7CAA R
(1722448891.559468) can0 016#1A R
(1722448891.573707) can0 00D#42AA R
(1722448891.573834) can0 05B#42AA R
(1722448891.573950) can0 014#01 R
(1722448891.574066) can0 008#01 R
(1722448891.574182) can0 055#01 R
(1722448891.574299) can0 05D#01 R
(1722448891.591726) can0 007#01 R
(1722448891.603807) can0 015#01 R
(1722448891.603922) can0 016#1A R
(1722448891.604040) can0 041#01 R
(1722448891.604202) can0 05C#C6A8C6A8 R
(1722448891.604319) can0 056#01 R
(1722448891.604448) can0 00E#C6A8 R
(1722448891.604578) can0 00E#C6A8 R
(1722448891.604758) can0 05C#C6A8C6A8 R
(1722448891.604862) can0 041#01 R
(1722448891.604973) can0 016#1A R
(1722448891.605089) can0 015#01 R
(1722448891.605207) can0 017#01 R
(1722448891.605324) can0 056#01 R
(1722448891.618784) can0 00E#33A8 R
(1722448891.618949) can0 05C#33A833A8 R
(1722448891.619061) can0 016#1A R
(1722448891.633667) can0 00D#F9A7 R
(1722448891.633796) can0 05B#F9A7 R
(1722448891.633911) can0 014#01 R
(1722448891.634025) can0 008#01 R
(1722448891.634145) can0 055#01 R
(1722448891.634260) can0 05D#01 R
(1722448891.655058) can0 007#01 R
(1722448891.663660) can0 015#01 R
(1722448891.663774) can0 016#1A R
(1722448891.663936) can0 05C#7BA67AA6 R
(1722448891.664053) can0 056#01 R
(1722448891.664184) can0 00E#7BA6 R
(1722448891.664317) can0 00E#7BA6 R
(1722448891.664478) can0 05C#7BA67AA6 R
(1722448891.664597) can0 041#01 R
(1722448891.664710) can0 016#1A R
(1722448891.664825) can0 015#01 R
(1722448891.664945) can0 017#01 R
(1722448891.665062) can0 056#01 R
(1722448891.678752) can0 041#01 R
(1722448891.678884) can0 00E#E7A5 R
(1722448891.679049) can0 05C#E7A5E7A5 R
(1722448891.679163) can0 016#19 R
(1722448891.693815) can0 00D#ACA5 R
(1722448891.693945) can0 05B#ACA5 R
(1722448891.694059) can0 014#01 R
(1722448891.694177) can0 008#01 R
(1722448891.694291) can0 055#01 R
(1722448891.694410) can0 05D#01 R
(1722448891.704616) can0 007#01 R
(1722448891.723665) can0 015#01 R
(1722448891.723829) can0 05C#2CA42CA4 R
(1722448891.723944) can0 056#01 R
(1722448891.724073) can0 00E#2CA4 R
(1722448891.724237) can0 05C#2CA42CA4 R
(1722448891.724358) can0 041#01 R
(1722448891.724474) can0 016#19 R
(1722448891.724588) can0 015#01 R
(1722448891.724705) can0 017#01 R
(1722448891.724825) can0 056#01 R
(1722448891.738811) can0 016#19 R
(1722448891.738932) can0 041#01 R
(1722448891.739062) can0 00E#98A3 R
(1722448891.739194) can0 00E#98A3 R
(1722448891.739357) can0 05C#97A397A3 R
(1722448891.753834) can0 016#19 R
(1722448891.753964) can0 00D#5CA3 R
(1722448891.754093) can0 05B#5CA3 R
(1722448891.754212) can0 014#01 R
(1722448891.754331) can0 008#01 R
(1722448891.754439) can0 055#01 R
(1722448891.754561) can0 05D#01 R
(1722448891.754675) can0 007#01 R
(1722448891.783800) can0 05C#DAA1DAA1 R
(1722448891.783899) can0 056#01 R
(1722448891.784037) can0 00E#DAA1 R
(1722448891.784168) can0 00E#DAA1 R
(1722448891.784299) can0 00E#DAA1 R
(1722448891.784463) can0 05C#DAA1DAA1 R
(1722448891.784581) can0 041#01 R
(1722448891.784691) can0 016#19 R
(1722448891.784807) can0 015#01 R
(1722448891.784925) can0 017#01 R
(1722448891.785048) can0 056#01 R
(1722448891.798766) can0 015#01 R
(1722448891.798891) can0 016#19 R
(1722448891.799005) can0 041#01 R
(1722448891.799164) can0 05C#45A145A1 R
(1722448891.799278) can0 016#19 R
(1722448891.804681) can0 007#01 R
(1722448891.813704) can0 00D#09A1 R
(1722448891.813840) can0 05B#09A1 R
(1722448891.813953) can0 014#01 R
(1722448891.814077) can0 008#01 R
(1722448891.814186) can0 055#01 R
(1722448891.814308) can0 05D#01 R
(1722448891.843700) can0 05C#849F849F R
(1722448891.843818) can0 056#01 R
(1722448891.843947) can0 00E#859F R
(1722448891.844081) can0 00E#859F R
(1722448891.844249) can0 05C#849F849F R
(1722448891.844366) can0 041#01 R
(1722448891.844484) can0 016#18 R
(1722448891.844602) can0 015#01 R
(1722448891.844714) can0 017#01 R
(1722448891.844835) can0 056#01 R
(1722448891.854590) can0 007#01 R
(1722448891.859185) can0 015#01 R
(1722448891.859300) can0 016#18 R
(1722448891.859419) can0 041#01 R
(1722448891.859551) can0 00E#EF9E R
(1722448891.859719) can0 05C#EF9EEF9E R
(1722448891.859834) can0 016#18 R
(1722448891.874472) can0 00D#B39E R
(1722448891.874601) can0 05B#B39E R
(1722448891.874717) can0 014#01 R
(1722448891.874833) can0 008#01 R
(1722448891.874949) can0 055#01 R
(1722448891.875069) can0 05D#01 R
(1722448891.903630) can0 015#01 R
(1722448891.903747) can0 016#18 R
(1722448891.903865) can0 041#01 R
(1722448891.904023) can0 05C#2C9D2C9D R
(1722448891.904146) can0 056#01 R
(1722448891.904269) can0 00E#2D9D R
(1722448891.904399) can0 00E#2D9D R
(1722448891.904560) can0 05C#2C9D2C9D R
(1722448891.904679) can0 007#01 R
(1722448891.904798) can0 041#01 R
(1722448891.904913) can0 016#18 R
(1722448891.905029) can0 015#01 R
(1722448891.905147) can0 017#01 R
(1722448891.905265) can0 056#01 R
(1722448891.918838) can0 00E#969C R
(1722448891.919003) can0 05C#969C969C R
(1722448891.919121) can0 016#18 R
(1722448891.933712) can0 00D#5A9C R
(1722448891.933840) can0 05B#5A9C R
(1722448891.933958) can0 014#01 R
(1722448891.934071) can0 008#01 R
(1722448891.934194) can0 055#01 R
(1722448891.934305) can0 05D#01 R
(1722448891.954486) can0 007#01 R
(1722448891.963746) can0 015#01 R
(1722448891.963865) can0 016#18 R
(1722448891.964021) can0 05C#D29AD29A R
(1722448891.964140) can0 056#01 R
(1722448891.964269) can0 00E#D29A R
(1722448891.964431) can0 05C#D29AD29A R
(1722448891.964549) can0 041#01 R
(1722448891.964665) can0 016#18 R
(1722448891.964785) can0 015#01 R
(1722448891.964899) can0 017#01 R
(1722448891.965016) can0 056#01 R
(1722448891.978788) can0 041#01 R
(1722448891.978915) can0 00E#3B9A R
(1722448891.979046) can0 00E#3B9A R
(1722448891.979212) can0 05C#3B9A3B9A R
(1722448891.993738) can0 016#18 R
(1722448891.993857) can0 00D#FE99 R
(1722448891.993992) can0 05B#FE99 R
(1722448891.994108) can0 014#01 R
(1722448891.994223) can0 008#01 R
(1722448891.994340) can0 055#01 R
(1722448891.994457) can0 05D#01 R
(1722448892.004536) can0 007#01 R
(1722448892.023669) can0 015#01 R
(1722448892.023825) can0 05C#75987598 R
(1722448892.023939) can0 056#01 R
(1722448892.024493) can0 00E#7598 R
(1722448892.024627) can0 00E#7598 R
(1722448892.024770) can0 00E#7598 R
(1722448892.024914) can0 05C#75987598 R
(1722448892.025032) can0 041#01 R
(1722448892.025145) can0 016#17 R
(1722448892.025269) can0 015#01 R
(1722448892.025387) can0 017#01 R
(1722448892.025504) can0 056#01 R
(1722448892.038834) can0 016#17 R
(1722448892.038949) can0 041#01 R
(1722448892.039117) can0 05C#DD97DD97 R
(1722448892.039234) can0 016#17 R
(1722448892.053844) can0 00D#A097 R
(1722448892.053981) can0 05B#A097 R
(1722448892.054094) can0 014#01 R
(1722448892.054213) can0 008#01 R
(1722448892.054327) can0 055#01 R
(1722448892.054445) can0 05D#01 R
(1722448892.057604) can0 007#01 R
(1722448892.083713) can0 05C#15961596 R
(1722448892.083827) can0 056#01 R
(1722448892.083961) can0 00E#1596 R
(1722448892.084087) can0 00E#1596 R
(1722448892.084258) can0 05C#15961596 R
(1722448892.084370) can0 041#01 R
(1722448892.084487) can0 016#17 R
(1722448892.084607) can0 015#01 R
(1722448892.084717) can0 017#01 R
(1722448892.084809) can0 056#01 R
(1722448892.098780) can0 015#01 R
(1722448892.098876) can0 016#17 R
(1722448892.099001) can0 041#01 R
(1722448892.099128) can0 00E#7D95 R
(1722448892.099295) can0 05C#7D957D95 R
(1722448892.099408) can0 016#17 R
(1722448892.108150) can0 007#01 R
(1722448892.113960) can0 00D#4095 R
(1722448892.114093) can0 05B#4095 R
(1722448892.114210) can0 014#01 R
(1722448892.114324) can0 008#01 R
(1722448892.114445) can0 055#01 R
(1722448892.114559) can0 05D#01 R
(1722448892.143851) can0 05C#B493B493 R
(1722448892.143963) can0 056#01 R
(1722448892.144096) can0 00E#B493 R
(1722448892.144227) can0 00E#B493 R
(1722448892.144393) can0 05C#B493B493 R
(1722448892.144507) can0 041#01 R
(1722448892.144621) can0 016#17 R
(1722448892.144754) can0 015#01 R
(1722448892.144857) can0 017#01 R
(1722448892.144972) can0 056#01 R
(1722448892.157550) can0 007#01 R
(1722448892.158786) can0 015#01 R
(1722448892.158898) can0 016#16 R
(1722448892.159022) can0 041#01 R
(1722448892.159149) can0 00E#1B93 R
(1722448892.159317) can0 05C#1B931B93 R
(1722448892.159429) can0 016#16 R
(1722448892.173873) can0 00D#DE92 R
(1722448892.174009) can0 05B#DE92 R
(1722448892.174128) can0 014#01 R
(1722448892.174240) can0 008#01 R
(1722448892.174356) can0 055#01 R
(1722448892.174468) can0 05D#01 R
(1722448892.203629) can0 015#01 R
(1722448892.203725) can0 016#16 R
(1722448892.203855) can0 041#01 R
(1722448892.204025) can0 05C#51915191 R
(1722448892.204124) can0 056#01 R
