(1720633569.033110) can0 00D#28EB R
(1720633569.033199) can0 05B#28EB R
(1720633569.033316) can0 014#01 R
(1720633569.033425) can0 008#01 R
(1720633569.033543) can0 055#01 R
(1720633569.033657) can0 05D#01 R
(1720633569.035043) can0 015#01 R
(1720633569.035166) can0 016#24 R
(1720633569.035277) can0 041#01 R
(1720633569.035418) can0 00E#3EEB R
(1720633569.035866) can0 00E#44EB R
(1720633569.036033) can0 05C#44EB44EB R
(1720633569.036149) can0 016#24 R
(1720633569.037076) can0 05C#49EB49EB R
(1720633569.037194) can0 056#01 R
(1720633569.058990) can0 00E#BFEB R
(1720633569.059108) can0 05C#BEEBBEEB R
(1720633569.059229) can0 041#01 R
(1720633569.059342) can0 016#24 R
(1720633569.059463) can0 015#01 R
(1720633569.059586) can0 017#01 R
(1720633569.059692) can0 056#01 R
(1720633569.064742) can0 007#01 R
(1720633569.095166) can0 00D#7FEC R
(1720633569.095294) can0 05B#7FEC R
(1720633569.095409) can0 014#01 R
(1720633569.095524) can0 008#01 R
(1720633569.095639) can0 055#01 R
(1720633569.095757) can0 05D#01 R
(1720633569.097772) can0 015#01 R
(1720633569.097888) can0 016#24 R
(1720633569.098608) can0 041#01 R
(1720633569.098776) can0 05C#A0ECA0EC R
(1720633569.098891) can0 056#01 R
(1720633569.099030) can0 00E#A0EC R
(1720633569.099166) can0 00E#A0EC R
(1720633569.099330) can0 05C#A0ECA0EC R
(1720633569.099530) can0 016#24 R
(1720633569.107910) can0 00E#D1EC R
(1720633569.108076) can0 05C#D1ECD1EC R
(1720633569.108194) can0 041#01 R
(1720633569.108308) can0 016#25 R
(1720633569.108424) can0 015#01 R
(1720633569.108544) can0 017#01 R
(1720633569.108659) can0 056#01 R
(1720633569.126672) can0 007#01 R
(1720633569.157235) can0 00D#CDED R
(1720633569.157370) can0 05B#CDED R
(1720633569.157481) can0 014#01 R
(1720633569.157600) can0 008#01 R
(1720633569.157712) can0 055#01 R
(1720633569.157829) can0 05D#01 R
(1720633569.158117) can0 00E#DDED R
(1720633569.158284) can0 05C#DCEDDCED R
(1720633569.158401) can0 041#01 R
(1720633569.158515) can0 016#25 R
(1720633569.158642) can0 015#01 R
(1720633569.158749) can0 017#01 R
(1720633569.158865) can0 056#01 R
(1720633569.159002) can0 015#01 R
(1720633569.159093) can0 016#25 R
(1720633569.159229) can0 00E#E2ED R
(1720633569.159359) can0 00E#E2ED R
(1720633569.159862) can0 041#01 R
(1720633569.160025) can0 05C#E7EDE7ED R
(1720633569.160139) can0 016#25 R
(1720633569.161026) can0 05C#ECEDECED R
(1720633569.161141) can0 056#01 R
(1720633569.188059) can0 007#01 R
(1720633569.208267) can0 00E#E1EE R
(1720633569.208429) can0 05C#E1EEE1EE R
(1720633569.208549) can0 041#01 R
(1720633569.208660) can0 016#25 R
(1720633569.208778) can0 015#01 R
(1720633569.208894) can0 017#01 R
(1720633569.209014) can0 056#01 R
(1720633569.218676) can0 00D#0FEF R
(1720633569.218810) can0 05B#0FEF R
(1720633569.218927) can0 014#01 R
(1720633569.219063) can0 008#01 R
(1720633569.219160) can0 055#01 R
(1720633569.219279) can0 05D#01 R
(1720633569.221326) can0 015#01 R
(1720633569.221444) can0 016#25 R
(1720633569.221562) can0 041#01 R
(1720633569.221723) can0 05C#29EF29EF R
(1720633569.221841) can0 056#01 R
(1720633569.221971) can0 00E#29EF R
(1720633569.222615) can0 00E#2EEF R
(1720633569.222753) can0 05C#2EEF2EEF R
(1720633569.222866) can0 016#25 R
(1720633569.248858) can0 007#01 R
(1720633569.257530) can0 00E#DFEF R
(1720633569.257703) can0 05C#DFEFDFEF R
(1720633569.257822) can0 041#01 R
(1720633569.257932) can0 016#25 R
(1720633569.258051) can0 015#01 R
(1720633569.258169) can0 017#01 R
(1720633569.258281) can0 056#01 R
(1720633569.279071) can0 00D#3DF0 R
(1720633569.279185) can0 05B#3DF0 R
(1720633569.279299) can0 014#01 R
(1720633569.279415) can0 008#01 R
(1720633569.279530) can0 055#01 R
(1720633569.279648) can0 05D#01 R
(1720633569.280771) can0 00E#51F0 R
(1720633569.281607) can0 015#01 R
(1720633569.281722) can0 016#25 R
(1720633569.281842) can0 041#01 R
(1720633569.281972) can0 00E#56F0 R
(1720633569.282141) can0 05C#56F056F0 R
(1720633569.282256) can0 016#25 R
(1720633569.282963) can0 05C#5BF05BF0 R
(1720633569.283055) can0 056#01 R
(1720633569.307669) can0 00E#D5F0 R
(1720633569.307842) can0 05C#D5F0D5F0 R
(1720633569.307957) can0 041#01 R
(1720633569.308073) can0 016#25 R
(1720633569.308188) can0 015#01 R
(1720633569.308308) can0 017#01 R
(1720633569.308421) can0 056#01 R
(1720633569.309942) can0 007#01 R
(1720633569.341184) can0 00D#6BF1 R
(1720633569.341320) can0 05B#6BF1 R
(1720633569.341437) can0 014#01 R
(1720633569.341551) can0 008#01 R
(1720633569.341669) can0 055#01 R
(1720633569.341787) can0 05D#01 R
(1720633569.343884) can0 015#01 R
(1720633569.343997) can0 016#25 R
(1720633569.344818) can0 041#01 R
(1720633569.344985) can0 05C#87F187F1 R
(1720633569.345101) can0 056#01 R
(1720633569.345236) can0 00E#87F1 R
(1720633569.345369) can0 00E#87F1 R
(1720633569.345537) can0 05C#87F187F1 R
(1720633569.345815) can0 016#25 R
(1720633569.357994) can0 00E#C5F1 R
(1720633569.358162) can0 05C#C5F1C5F1 R
(1720633569.358280) can0 041#01 R
(1720633569.358391) can0 016#25 R
(1720633569.358514) can0 015#01 R
(1720633569.358627) can0 017#01 R
(1720633569.358742) can0 056#01 R
(1720633569.370983) can0 007#01 R
(1720633569.401544) can0 00D#88F2 R
(1720633569.401681) can0 05B#88F2 R
(1720633569.401772) can0 014#01 R
(1720633569.401895) can0 008#01 R
(1720633569.402008) can0 055#01 R
(1720633569.402133) can0 05D#01 R
(1720633569.403303) can0 00E#9BF2 R
(1720633569.403439) can0 00E#9BF2 R
(1720633569.404187) can0 015#01 R
(1720633569.404303) can0 016#25 R
(1720633569.404467) can0 05C#9FF29FF2 R
(1720633569.404582) can0 016#25 R
(1720633569.405295) can0 041#01 R
(1720633569.405456) can0 05C#A4F2A4F2 R
(1720633569.405578) can0 056#01 R
(1720633569.407429) can0 00E#ADF2 R
(1720633569.407597) can0 05C#ADF2ADF2 R
(1720633569.407713) can0 041#01 R
(1720633569.407829) can0 016#25 R
(1720633569.407943) can0 015#01 R
(1720633569.408062) can0 017#01 R
(1720633569.408177) can0 056#01 R
(1720633569.432223) can0 007#01 R
(1720633569.457504) can0 00E#8EF3 R
(1720633569.457669) can0 05C#8EF38EF3 R
(1720633569.457786) can0 041#01 R
(1720633569.457902) can0 016#26 R
(1720633569.458019) can0 015#01 R
(1720633569.458138) can0 017#01 R
(1720633569.458253) can0 056#01 R
(1720633569.463082) can0 00D#9BF3 R
(1720633569.463214) can0 05B#9BF3 R
(1720633569.463330) can0 014#01 R
(1720633569.463445) can0 008#01 R
(1720633569.463559) can0 055#01 R
(1720633569.463675) can0 05D#01 R
(1720633569.465828) can0 00E#B1F3 R
(1720633569.466696) can0 015#01 R
(1720633569.466811) can0 016#26 R
(1720633569.466976) can0 041#01 R
(1720633569.467101) can0 05C#B6F3B6F3 R
(1720633569.467210) can0 056#01 R
(1720633569.467348) can0 00E#B6F3 R
(1720633569.467508) can0 05C#B6F3B6F3 R
(1720633569.467623) can0 016#26 R
(1720633569.492947) can0 007#01 R
(1720633569.507524) can0 00E#68F4 R
(1720633569.507672) can0 05C#68F467F4 R
(1720633569.507786) can0 041#01 R
(1720633569.507910) can0 016#26 R
(1720633569.508018) can0 015#01 R
(1720633569.508138) can0 017#01 R
(1720633569.508252) can0 056#01 R
(1720633569.523707) can0 00D#A3F4 R
(1720633569.523843) can0 05B#A3F4 R
(1720633569.523962) can0 014#01 R
(1720633569.524073) can0 008#01 R
(1720633569.524194) can0 055#01 R
(1720633569.524311) can0 05D#01 R
(1720633569.526586) can0 00E#B8F4 R
(1720633569.527262) can0 015#01 R
(1720633569.527376) can0 016#26 R
(1720633569.527500) can0 041#01 R
(1720633569.527663) can0 05C#BDF4BCF4 R
(1720633569.527780) can0 056#01 R
(1720633569.527913) can0 00E#BDF4 R
(1720633569.528072) can0 05C#BDF4BCF4 R
(1720633569.528191) can0 016#26 R
(1720633569.555058) can0 007#01 R
(1720633569.557993) can0 00E#3AF5 R
(1720633569.558154) can0 05C#3AF53AF5 R
(1720633569.558299) can0 041#01 R
(1720633569.558389) can0 016#26 R
(1720633569.558506) can0 015#01 R
(1720633569.558624) can0 017#01 R
(1720633569.558740) can0 056#01 R
(1720633569.585343) can0 00D#A4F5 R
(1720633569.585478) can0 05B#A4F5 R
(1720633569.585595) can0 014#01 R
(1720633569.585709) can0 008#01 R
(1720633569.585826) can0 055#01 R
(1720633569.585945) can0 05D#01 R
(1720633569.587236) can0 015#01 R
(1720633569.587358) can0 016#26 R
(1720633569.587467) can0 041#01 R
(1720633569.588273) can0 05C#B9F5B8F5 R
(1720633569.588389) can0 056#01 R
(1720633569.588524) can0 00E#B9F5 R
(1720633569.588659) can0 00E#B9F5 R
(1720633569.588826) can0 05C#B9F5B8F5 R
(1720633569.589155) can0 016#26 R
(1720633569.607559) can0 00E#05F6 R
(1720633569.607717) can0 05C#05F605F6 R
(1720633569.607844) can0 041#01 R
(1720633569.607949) can0 016#26 R
(1720633569.608072) can0 015#01 R
(1720633569.608182) can0 017#01 R
(1720633569.608305) can0 056#01 R
(1720633569.616133) can0 007#01 R
(1720633569.646635) can0 00D#96F6 R
(1720633569.646768) can0 05B#96F6 R
(1720633569.646883) can0 014#01 R
(1720633569.647013) can0 008#01 R
(1720633569.647121) can0 055#01 R
(1720633569.647239) can0 05D#01 R
(1720633569.648619) can0 00E#A6F6 R
(1720633569.648754) can0 00E#A6F6 R
(1720633569.649645) can0 05C#A9F6A9F6 R
(1720633569.649815) can0 05C#A9F6A9F6 R
(1720633569.649929) can0 016#26 R
(1720633569.650414) can0 015#01 R
(1720633569.650689) can0 016#26 R
(1720633569.650808) can0 041#01 R
(1720633569.650924) can0 056#01 R
(1720633569.658274) can0 00E#CCF6 R
(1720633569.658433) can0 05C#CCF6CCF6 R
(1720633569.658551) can0 041#01 R
(1720633569.658666) can0 016#26 R
(1720633569.658783) can0 015#01 R
(1720633569.658900) can0 017#01 R
(1720633569.659019) can0 056#01 R
(1720633569.677670) can0 007#01 R
(1720633569.708239) can0 00E#88F7 R
(1720633569.708361) can0 00D#81F7 R
(1720633569.708495) can0 05B#81F7 R
(1720633569.708609) can0 014#01 R
(1720633569.708727) can0 008#01 R
(1720633569.708848) can0 055#01 R
(1720633569.709003) can0 05C#88F788F7 R
(1720633569.709121) can0 05D#01 R
(1720633569.709240) can0 041#01 R
(1720633569.709355) can0 016#26 R
(1720633569.709478) can0 015#01 R
(1720633569.709596) can0 017#01 R
(1720633569.709712) can0 056#01 R
(1720633569.711186) can0 05C#8FF78FF7 R
(1720633569.711304) can0 056#01 R
(1720633569.711439) can0 00E#8FF7 R
(1720633569.711967) can0 015#01 R
(1720633569.712087) can0 016#26 R
(1720633569.712203) can0 041#01 R
(1720633569.712336) can0 00E#93F7 R
(1720633569.712500) can0 05C#93F793F7 R
(1720633569.712615) can0 016#26 R
(1720633569.739543) can0 007#01 R
(1720633569.758739) can0 00E#3CF8 R
(1720633569.758907) can0 05C#3CF83CF8 R
(1720633569.759026) can0 041#01 R
(1720633569.759146) can0 016#26 R
(1720633569.759253) can0 015#01 R
(1720633569.759376) can0 017#01 R
(1720633569.759487) can0 056#01 R
(1720633569.770195) can0 00D#5FF8 R
(1720633569.770329) can0 05B#5FF8 R
(1720633569.770445) can0 014#01 R
(1720633569.770560) can0 008#01 R
(1720633569.770680) can0 055#01 R
(1720633569.770797) can0 05D#01 R
(1720633569.773012) can0 015#01 R
(1720633569.773146) can0 00E#6DF8 R
(1720633569.773883) can0 016#26 R
(1720633569.774000) can0 041#01 R
(1720633569.774168) can0 05C#71F871F8 R
(1720633569.774281) can0 056#01 R
(1720633569.774418) can0 00E#71F8 R
(1720633569.774581) can0 05C#71F871F8 R
(1720633569.774695) can0 016#26 R
(1720633569.801043) can0 007#01 R
(1720633569.809985) can0 00E#ECF8 R
(1720633569.810141) can0 05C#ECF8ECF8 R
(1720633569.810255) can0 041#01 R
(1720633569.810372) can0 016#26 R
(1720633569.810487) can0 015#01 R
(1720633569.810605) can0 017#01 R
(1720633569.810723) can0 056#01 R
(1720633569.832279) can0 00D#33F9 R
(1720633569.832412) can0 05B#33F9 R
(1720633569.832530) can0 014#01 R
(1720633569.832647) can0 008#01 R
(1720633569.832762) can0 055#01 R
(1720633569.832882) can0 05D#01 R
(1720633569.835223) can0 015#01 R
(1720633569.835348) can0 016#26 R
(1720633569.835456) can0 041#01 R
(1720633569.835593) can0 00E#43F9 R
(1720633569.835726) can0 00E#43F9 R
(1720633569.835898) can0 05C#43F943F9 R
(1720633569.836128) can0 05C#43F943F9 R
(1720633569.836246) can0 056#01 R
(1720633569.836360) can0 016#26 R
(1720633569.859359) can0 00E#91F9 R
(1720633569.859526) can0 05C#91F991F9 R
(1720633569.859645) can0 041#01 R
(1720633569.859763) can0 016#26 R
(1720633569.859875) can0 015#01 R
(1720633569.859992) can0 017#01 R
(1720633569.860106) can0 056#01 R
(1720633569.862605) can0 007#01 R
(1720633569.894086) can0 00D#FAF9 R
(1720633569.894218) can0 05B#FAF9 R
(1720633569.894335) can0 014#01 R
(1720633569.894453) can0 008#01 R
(1720633569.894566) can0 055#01 R
(1720633569.894689) can0 05D#01 R
(1720633569.895893) can0 00E#03FA R
(1720633569.896031) can0 00E#03FA R
(1720633569.896941) can0 05C#06FA06FA R
(1720633569.897057) can0 016#27 R
(1720633569.897695) can0 015#01 R
(1720633569.897812) can0 016#27 R
(1720633569.897931) can0 041#01 R
(1720633569.898102) can0 05C#09FA09FA R
(1720633569.898219) can0 056#01 R
(1720633569.911096) can0 00E#31FA R
(1720633569.911254) can0 05C#31FA31FA R
(1720633569.911368) can0 041#01 R
(1720633569.911483) can0 016#27 R
(1720633569.911599) can0 015#01 R
(1720633569.911716) can0 017#01 R
(1720633569.911833) can0 056#01 R
(1720633569.924396) can0 007#01 R
(1720633569.954785) can0 00D#B2FA R
(1720633569.954914) can0 05B#B2FA R
(1720633569.955035) can0 014#01 R
(1720633569.955147) can0 008#01 R
(1720633569.955263) can0 055#01 R
(1720633569.955380) can0 05D#01 R
(1720633569.956665) can0 015#01 R
(1720633569.956789) can0 016#27 R
(1720633569.956899) can0 041#01 R
(1720633569.957033) can0 00E#BBFA R
(1720633569.957451) can0 00E#BEFA R
(1720633569.957620) can0 05C#BEFABEFA R
(1720633569.957738) can0 016#27 R
(1720633569.958477) can0 05C#C1FAC1FA R
(1720633569.958590) can0 056#01 R
(1720633569.960756) can0 00E#C7FA R
(1720633569.960924) can0 05C#C7FAC7FA R
(1720633569.961044) can0 041#01 R
(1720633569.961160) can0 016#27 R
(1720633569.961271) can0 015#01 R
(1720633569.961394) can0 017#01 R
(1720633569.961505) can0 056#01 R
(1720633569.985118) can0 007#01 R
(1720633570.010838) can0 00E#54FB R
(1720633570.011006) can0 05C#54FB54FB R
(1720633570.011117) can0 041#01 R
(1720633570.011243) can0 016#27 R
(1720633570.011352) can0 015#01 R
(1720633570.011470) can0 017#01 R
(1720633570.011585) can0 056#01 R
(1720633570.016183) can0 00D#5FFB R
(1720633570.016317) can0 05B#5FFB R
(1720633570.016436) can0 014#01 R
(1720633570.016549) can0 008#01 R
(1720633570.016667) can0 055#01 R
(1720633570.016782) can0 05D#01 R
(1720633570.018594) can0 015#01 R
(1720633570.018710) can0 016#27 R
(1720633570.018831) can0 041#01 R
(1720633570.018996) can0 05C#6AFB6AFB R
(1720633570.019130) can0 00E#6AFB R
(1720633570.019536) can0 056#01 R
(1720633570.019669) can0 00E#6DFB R
(1720633570.019834) can0 05C#6DFB6DFB R
(1720633570.019949) can0 016#27 R
(1720633570.045960) can0 007#01 R
(1720633570.060516) can0 00E#DAFB R
(1720633570.060681) can0 05C#DAFBDAFB R
(1720633570.060806) can0 041#01 R
(1720633570.060915) can0 016#27 R
(1720633570.061030) can0 015#01 R
(1720633570.061149) can0 017#01 R
(1720633570.061265) can0 056#01 R
(1720633570.076697) can0 00D#FEFB R
(1720633570.076829) can0 05B#FEFB R
(1720633570.076946) can0 014#01 R
(1720633570.077060) can0 008#01 R
(1720633570.077183) can0 055#01 R
(1720633570.077294) can0 05D#01 R
(1720633570.079635) can0 015#01 R
(1720633570.079748) can0 016#27 R
(1720633570.079867) can0 041#01 R
(1720633570.080041) can0 05C#0BFC0BFC R
(1720633570.080155) can0 056#01 R
(1720633570.080293) can0 00E#0BFC R
(1720633570.080427) can0 00E#0BFC R
(1720633570.080600) can0 05C#0BFC0BFC R
(1720633570.080715) can0 016#27 R
(1720633570.107547) can0 007#01 R
(1720633570.110608) can0 00E#58FC R
(1720633570.110774) can0 05C#58FC58FC R
(1720633570.110891) can0 041#01 R
(1720633570.111008) can0 016#27 R
(1720633570.111121) can0 015#01 R
(1720633570.111245) can0 017#01 R
(1720633570.111358) can0 056#01 R
(1720633570.138537) can0 00D#97FC R
(1720633570.138667) can0 05B#97FC R
(1720633570.138783) can0 014#01 R
(1720633570.138898) can0 008#01 R
(1720633570.139021) can0 055#01 R
(1720633570.139134) can0 05D#01 R
(1720633570.141438) can0 015#01 R
(1720633570.141553) can0 016#27 R
(1720633570.141672) can0 041#01 R
(1720633570.141837) can0 05C#A2FCA2FC R
(1720633570.141978) can0 056#01 R
(1720633570.142095) can0 00E#A2FC R
(1720633570.142222) can0 00E#A2FC R
(1720633570.142388) can0 05C#A5FCA5FC R
(1720633570.142509) can0 016#27 R
(1720633570.160248) can0 00E#CEFC R
(1720633570.160412) can0 05C#CEFCCEFC R
(1720633570.160529) can0 041#01 R
(1720633570.160645) can0 016#27 R
(1720633570.160760) can0 015#01 R
(1720633570.160880) can0 017#01 R
(1720633570.160997) can0 056#01 R
(1720633570.168852) can0 007#01 R
(1720633570.198521) can0 00D#1EFD R
(1720633570.198845) can0 05B#1EFD R
(1720633570.198977) can0 014#01 R
(1720633570.199080) can0 008#01 R
(1720633570.199196) can0 055#01 R
(1720633570.199306) can0 05D#01 R
(1720633570.200533) can0 00E#27FD R
(1720633570.201541) can0 015#01 R
(1720633570.201663) can0 016#27 R
(1720633570.201776) can0 041#01 R
(1720633570.201909) can0 00E#29FD R
(1720633570.202077) can0 05C#29FD29FD R
(1720633570.202192) can0 016#27 R
(1720633570.202355) can0 05C#2BFD2BFD R
(1720633570.202478) can0 056#01 R
(1720633570.210375) can0 00E#3CFD R
(1720633570.210544) can0 05C#3CFD3CFD R
(1720633570.210661) can0 041#01 R
(1720633570.210779) can0 016#27 R
(1720633570.210894) can0 015#01 R
(1720633570.211010) can0 017#01 R
(1720633570.211126) can0 056#01 R
(1720633570.229382) can0 007#01 R
(1720633570.259859) can0 00D#9DFD R
(1720633570.259992) can0 05B#9DFD R
(1720633570.260105) can0 014#01 R
(1720633570.260222) can0 008#01 R
(1720633570.260336) can0 055#01 R
(1720633570.260455) can0 05D#01 R
(1720633570.260658) can0 00E#A3FD R
(1720633570.260828) can0 05C#A3FDA3FD R
(1720633570.260952) can0 041#01 R
(1720633570.261061) can0 016#27 R
(1720633570.261177) can0 015#01 R
(1720633570.261295) can0 017#01 R
(1720633570.261411) can0 056#01 R
(1720633570.262620) can0 015#01 R
(1720633570.262791) can0 05C#A7FDA7FD R
(1720633570.262907) can0 056#01 R
(1720633570.263043) can0 00E#A7FD R
(1720633570.263507) can0 016#27 R
(1720633570.263626) can0 041#01 R
(1720633570.263756) can0 00E#A9FD R
(1720633570.263925) can0 05C#A9FDA9FD R
(1720633570.264041) can0 016#27 R
(1720633570.289470) can0 007#01 R
(1720633570.310673) can0 00E#01FE R
(1720633570.310842) can0 05C#01FE01FE R
(1720633570.310980) can0 041#01 R
(1720633570.311083) can0 016#27 R
(1720633570.311189) can0 015#01 R
(1720633570.311311) can0 017#01 R
(1720633570.311425) can0 056#01 R
(1720633570.320905) can0 00D#11FE R
(1720633570.321036) can0 05B#11FE R
(1720633570.321152) can0 014#01 R
(1720633570.321270) can0 008#01 R
(1720633570.321388) can0 055#01 R
(1720633570.321506) can0 05D#01 R
(1720633570.323942) can0 05C#18FE18FE R
(1720633570.324057) can0 056#01 R
(1720633570.324396) can0 015#01 R
(1720633570.324511) can0 016#27 R
(1720633570.324630) can0 041#01 R
(1720633570.324761) can0 00E#1AFE R
(1720633570.324894) can0 00E#1AFE R
(1720633570.325064) can0 05C#1AFE1AFE R
(1720633570.325442) can0 016#27 R
(1720633570.352505) can0 007#01 R
(1720633570.360853) can0 00E#59FE R
(1720633570.361024) can0 05C#59FE59FE R
(1720633570.361137) can0 041#01 R
(1720633570.361253) can0 016#27 R
(1720633570.361369) can0 015#01 R
(1720633570.361487) can0 017#01 R
(1720633570.361604) can0 056#01 R
(1720633570.382599) can0 00D#78FE R
(1720633570.382733) can0 05B#78FE R
(1720633570.382850) can0 014#01 R
(1720633570.383002) can0 008#01 R
(1720633570.383062) can0 055#01 R
(1720633570.383196) can0 05D#01 R
(1720633570.384334) can0 015#01 R
(1720633570.384472) can0 00E#7EFE R
(1720633570.384607) can0 00E#7EFE R
(1720633570.385336) can0 016#27 R
(1720633570.385459) can0 041#01 R
(1720633570.385629) can0 05C#80FE80FE R
(1720633570.385744) can0 016#27 R
(1720633570.386469) can0 05C#81FE81FE R
(1720633570.386587) can0 056#01 R
(1720633570.411078) can0 00E#A8FE R
(1720633570.411243) can0 05C#A7FEA7FE R
(1720633570.411364) can0 041#01 R
(1720633570.411471) can0 016#27 R
(1720633570.411587) can0 015#01 R
(1720633570.411704) can0 017#01 R
(1720633570.411827) can0 056#01 R
(1720633570.412991) can0 007#01 R
(1720633570.443502) can0 00D#D3FE R
(1720633570.443634) can0 05B#D3FE R
(1720633570.443751) can0 014#01 R
(1720633570.443864) can0 008#01 R
(1720633570.443986) can0 055#01 R
(1720633570.444101) can0 05D#01 R
(1720633570.445344) can0 00E#D8FE R
(1720633570.446233) can0 015#01 R
(1720633570.446351) can0 016#27 R
(1720633570.446518) can0 05C#D9FED9FE R
(1720633570.446635) can0 056#01 R
(1720633570.446766) can0 00E#DAFE R
(1720633570.446961) can0 05C#D9FED9FE R
(1720633570.447056) can0 016#27 R
(1720633570.447173) can0 041#01 R
(1720633570.460946) can0 00E#EEFE R
(1720633570.461110) can0 05C#EEFEEEFE R
(1720633570.461227) can0 041#01 R
(1720633570.461347) can0 016#27 R
(1720633570.461465) can0 015#01 R
(1720633570.461583) can0 017#01 R
(1720633570.461696) can0 056#01 R
(1720633570.475016) can0 007#01 R
(1720633570.507228) can0 00D#25FF R
(1720633570.507359) can0 05B#25FF R
(1720633570.507475) can0 014#01 R
(1720633570.507622) can0 008#01 R
(1720633570.507739) can0 055#01 R
(1720633570.507855) can0 05D#01 R
(1720633570.510461) can0 00E#2BFF R
(1720633570.510767) can0 015#01 R
(1720633570.510885) can0 016#27 R
(1720633570.510997) can0 041#01 R
(1720633570.511165) can0 05C#2CFF2CFF R
(1720633570.511278) can0 056#01 R
(1720633570.511411) can0 00E#2CFF R
(1720633570.511575) can0 05C#2CFF2CFF R
(1720633570.511697) can0 016#27 R
(1720633570.511823) can0 00E#2CFF R
(1720633570.511989) can0 05C#2CFF2CFF R
(1720633570.512107) can0 041#01 R
(1720633570.512223) can0 016#27 R
(1720633570.512338) can0 015#01 R
(1720633570.512457) can0 017#01 R
(1720633570.512573) can0 056#01 R
(1720633570.538815) can0 007#01 R
(1720633570.561431) can0 00E#62FF R
(1720633570.561594) can0 05C#62FF62FF R
(1720633570.561712) can0 041#01 R
(1720633570.561827) can0 016#27 R
(1720633570.561947) can0 015#01 R
(1720633570.562060) can0 017#01 R
(1720633570.562181) can0 056#01 R
(1720633570.570163) can0 00D#69FF R
(1720633570.570292) can0 05B#69FF R
(1720633570.570412) can0 014#01 R
(1720633570.570528) can0 008#01 R
(1720633570.570640) can0 055#01 R
(1720633570.570761) can0 05D#01 R
(1720633570.573255) can0 05C#6EFF6EFF R
(1720633570.573388) can0 00E#6EFF R
(1720633570.573522) can0 00E#6EFF R
(1720633570.573690) can0 05C#6EFF6EFF R
(1720633570.573970) can0 015#01 R
(1720633570.574086) can0 016#27 R
(1720633570.574204) can0 041#01 R
(1720633570.574320) can0 056#01 R
(1720633570.574436) can0 016#27 R
(1720633570.601218) can0 007#01 R
(1720633570.612310) can0 00E#91FF R
(1720633570.612467) can0 05C#90FF90FF R
(1720633570.612588) can0 041#01 R
(1720633570.612695) can0 016#27 R
(1720633570.612817) can0 015#01 R
(1720633570.612928) can0 017#01 R
(1720633570.613051) can0 056#01 R
(1720633570.631791) can0 00D#A0FF R
(1720633570.631925) can0 05B#A0FF R
(1720633570.632041) can0 014#01 R
(1720633570.632155) can0 008#01 R
(1720633570.632272) can0 055#01 R
(1720633570.632390) can0 05D#01 R
(1720633570.634763) can0 05C#A4FFA4FF R
(1720633570.634883) can0 056#01 R
(1720633570.635015) can0 00E#A4FF R
(1720633570.635149) can0 00E#A4FF R
(1720633570.636743) can0 015#01 R
(1720633570.636861) can0 016#27 R
(1720633570.636977) can0 041#01 R
(1720633570.637145) can0 05C#A5FFA5FF R
(1720633570.637260) can0 016#27 R
(1720633570.660881) can0 00E#B7FF R
(1720633570.661051) can0 05C#B7FFB6FF R
(1720633570.661167) can0 041#01 R
(1720633570.661283) can0 016#27 R
(1720633570.661399) can0 015#01 R
(1720633570.661517) can0 017#01 R
(1720633570.661633) can0 056#01 R
(1720633570.662964) can0 007#01 R
(1720633570.693488) can0 00D#CAFF R
(1720633570.693624) can0 05B#CAFF R
(1720633570.693740) can0 014#01 R
(1720633570.693881) can0 008#01 R
(1720633570.693971) can0 055#01 R
(1720633570.694091) can0 05D#01 R
(1720633570.696327) can0 015#01 R
(1720633570.696461) can0 00E#CDFF R
(1720633570.697281) can0 016#27 R
(1720633570.697397) can0 041#01 R
(1720633570.697570) can0 05C#CDFFCDFF R
(1720633570.697684) can0 056#01 R
(1720633570.697818) can0 00E#CDFF R
(1720633570.697985) can0 05C#CDFFCDFF R
(1720633570.698101) can0 016#27 R
(1720633570.711782) can0 00E#D5FF R
(1720633570.711964) can0 05C#D5FFD5FF R
(1720633570.712077) can0 041#01 R
(1720633570.712192) can0 016#27 R
(1720633570.712304) can0 015#01 R
(1720633570.712426) can0 017#01 R
(1720633570.712541) can0 056#01 R
(1720633570.723090) can0 007#01 R
(1720633570.753457) can0 00D#E7FF R
(1720633570.753587) can0 05B#E7FF R
(1720633570.753700) can0 014#01 R
(1720633570.753845) can0 008#01 R
(1720633570.753958) can0 055#01 R
(1720633570.754077) can0 05D#01 R
(1720633570.756145) can0 015#01 R
(1720633570.756258) can0 016#27 R
(1720633570.756374) can0 041#01 R
(1720633570.756544) can0 05C#E9FFE9FF R
(1720633570.756659) can0 056#01 R
(1720633570.756793) can0 00E#E9FF R
(1720633570.756932) can0 00E#E9FF R
(1720633570.757097) can0 05C#E9FFE9FF R
(1720633570.757206) can0 016#27 R
(1720633570.762267) can0 00E#EBFF R
(1720633570.762437) can0 05C#EBFFEBFF R
(1720633570.762559) can0 041#01 R
(1720633570.762670) can0 016#27 R
(1720633570.762792) can0 015#01 R
(1720633570.762903) can0 017#01 R
(1720633570.763026) can0 056#01 R
(1720633570.783408) can0 007#01 R
(1720633570.812589) can0 00E#F9FF R
(1720633570.812745) can0 05C#F9FFF9FF R
(1720633570.812864) can0 041#01 R
(1720633570.812977) can0 016#27 R
(1720633570.813094) can0 015#01 R
(1720633570.813211) can0 017#01 R
(1720633570.813329) can0 056#01 R
(1720633570.814767) can0 00D#F9FF R
(1720633570.814901) can0 05B#F9FF R
(1720633570.815036) can0 014#01 R
(1720633570.815130) can0 008#01 R
(1720633570.815248) can0 055#01 R
(1720633570.815366) can0 05D#01 R
(1720633570.817253) can0 015#01 R
(1720633570.817365) can0 016#27 R
(1720633570.817486) can0 041#01 R
(1720633570.818514) can0 05C#FAFFFAFF R
(1720633570.818623) can0 056#01 R
(1720633570.818765) can0 00E#FAFF R
(1720633570.818899) can0 00E#FAFF R
(1720633570.819068) can0 05C#FAFFFAFF R
(1720633570.819325) can0 016#27 R
(1720633570.844877) can0 007#01 R
(1720633570.862249) can0 00E#FEFF R
(1720633570.862421) can0 05C#FEFFFEFF R
(1720633570.862537) can0 041#01 R
(1720633570.862653) can0 016#27 R
(1720633570.862770) can0 015#01 R
(1720633570.862886) can0 017#01 R
(1720633570.863012) can0 056#01 R
(1720633570.875499) can0 00D#FFFF R
(1720633570.875637) can0 05B#FFFF R
(1720633570.875923) can0 014#01 R
(1720633570.876036) can0 008#01 R
(1720633570.876153) can0 055#01 R
(1720633570.876271) can0 05D#01 R
(1720633570.878578) can0 015#01 R
(1720633570.878690) can0 016#27 R
(1720633570.878832) can0 00E#FFFF R
(1720633570.878988) can0 00E#FFFF R
(1720633570.879083) can0 041#01 R
(1720633570.879264) can0 05C#FEFFFEFF R
(1720633570.879374) can0 056#01 R
(1720633570.879550) can0 05C#FEFFFEFF R
(1720633570.879663) can0 016#27 R
(1720633570.906527) can0 007#01 R
(1720633570.912574) can0 00E#FCFF R
(1720633570.912737) can0 05C#FCFFFCFF R
(1720633570.912846) can0 041#01 R
(1720633570.912968) can0 016#27 R
(1720633570.913079) can0 015#01 R
(1720633570.913197) can0 017#01 R
(1720633570.913313) can0 056#01 R
(1720633570.937884) can0 00D#F8FF R
(1720633570.938025) can0 05B#F8FF R
(1720633570.938135) can0 014#01 R
(1720633570.938253) can0 008#01 R
(1720633570.938369) can0 055#01 R
(1720633570.938488) can0 05D#01 R
(1720633570.939516) can0 015#01 R
(1720633570.939633) can0 016#27 R
(1720633570.939751) can0 041#01 R
(1720633570.939886) can0 00E#F7FF R
(1720633570.940650) can0 00E#F7FF R
(1720633570.940830) can0 05C#F7FFF7FF R
(1720633570.940940) can0 016#27 R
(1720633570.941629) can0 05C#F7FFF7FF R
(1720633570.941741) can0 056#01 R
(1720633570.963358) can0 00E#F1FF R
(1720633570.963527) can0 05C#F1FFF1FF R
(1720633570.963643) can0 041#01 R
(1720633570.963758) can0 016#27 R
(1720633570.963875) can0 015#01 R
(1720633570.963992) can0 017#01 R
(1720633570.964111) can0 056#01 R
(1720633570.968603) can0 007#01 R
(1720633570.998663) can0 00D#E5FF R
(1720633570.998793) can0 05B#E5FF R
(1720633570.999013) can0 014#01 R
(1720633570.999123) can0 008#01 R
(1720633570.999240) can0 055#01 R
(1720633570.999359) can0 05D#01 R
(1720633571.001590) can0 015#01 R
(1720633571.001705) can0 016#27 R
(1720633571.001879) can0 05C#E3FFE3FF R
(1720633571.002016) can0 00E#E3FF R
(1720633571.002517) can0 041#01 R
(1720633571.002629) can0 056#01 R
(1720633571.002770) can0 00E#E3FF R
(1720633571.002959) can0 05C#E3FFE3FF R
(1720633571.003069) can0 016#27 R
(1720633571.012624) can0 00E#DEFF R
(1720633571.012786) can0 05C#DEFFDEFF R
(1720633571.012896) can0 041#01 R
(1720633571.013014) can0 016#27 R
(1720633571.013130) can0 015#01 R
(1720633571.013247) can0 017#01 R
(1720633571.013363) can0 056#01 R
(1720633571.029367) can0 007#01 R
(1720633571.060499) can0 00D#C6FF R
(1720633571.060630) can0 05B#C6FF R
(1720633571.060745) can0 014#01 R
(1720633571.060862) can0 008#01 R
(1720633571.060979) can0 055#01 R
(1720633571.061096) can0 05D#01 R
(1720633571.062409) can0 015#01 R
(1720633571.062528) can0 016#27 R
(1720633571.063335) can0 041#01 R
(1720633571.063506) can0 05C#C4FFC3FF R
(1720633571.063649) can0 00E#C4FF R
(1720633571.063775) can0 00E#C4FF R
(1720633571.063948) can0 05C#C4FFC3FF R
(1720633571.064085) can0 00E#C4FF R
(1720633571.064254) can0 05C#C4FFC3FF R
(1720633571.064371) can0 041#01 R
(1720633571.064486) can0 016#27 R
(1720633571.064603) can0 015#01 R
(1720633571.064720) can0 017#01 R
(1720633571.064837) can0 056#01 R
(1720633571.064951) can0 056#01 R
(1720633571.065069) can0 016#27 R
(1720633571.091553) can0 007#01 R
(1720633571.114044) can0 00E#A1FF R
(1720633571.114201) can0 05C#A1FFA1FF R
(1720633571.114319) can0 041#01 R
(1720633571.114433) can0 016#27 R
(1720633571.114550) can0 015#01 R
(1720633571.114667) can0 017#01 R
(1720633571.114783) can0 056#01 R
(1720633571.122997) can0 00D#9AFF R
(1720633571.123124) can0 05B#9AFF R
(1720633571.123241) can0 014#01 R
(1720633571.123355) can0 008#01 R
(1720633571.123472) can0 055#01 R
(1720633571.123589) can0 05D#01 R
(1720633571.124779) can0 00E#97FF R
(1720633571.124912) can0 00E#97FF R
(1720633571.126098) can0 015#01 R
(1720633571.126211) can0 016#27 R
(1720633571.126379) can0 05C#96FF96FF R
(1720633571.126499) can0 056#01 R
(1720633571.126662) can0 05C#96FF96FF R
(1720633571.126774) can0 016#27 R
(1720633571.126894) can0 041#01 R
(1720633571.153813) can0 007#01 R
(1720633571.165823) can0 00E#73FF R
(1720633571.165994) can0 05C#73FF73FF R
(1720633571.166111) can0 041#01 R
(1720633571.166233) can0 016#27 R
(1720633571.166343) can0 015#01 R
(1720633571.166465) can0 017#01 R
(1720633571.166577) can0 056#01 R
(1720633571.185433) can0 00D#61FF R
(1720633571.185566) can0 05B#61FF R
(1720633571.185817) can0 014#01 R
(1720633571.185928) can0 008#01 R
(1720633571.186047) can0 055#01 R
(1720633571.186166) can0 05D#01 R
(1720633571.188154) can0 05C#5DFF5DFF R
(1720633571.188285) can0 00E#5DFF R
(1720633571.189164) can0 015#01 R
(1720633571.189278) can0 016#27 R
(1720633571.189398) can0 041#01 R
(1720633571.189513) can0 056#01 R
(1720633571.189651) can0 00E#5CFF R
(1720633571.189822) can0 05C#5CFF5CFF R
(1720633571.189933) can0 016#27 R
(1720633571.215367) can0 00E#3FFF R
(1720633571.215540) can0 05C#3FFF3FFF R
(1720633571.215655) can0 041#01 R
(1720633571.215772) can0 016#27 R
(1720633571.215889) can0 007#01 R
(1720633571.216006) can0 015#01 R
(1720633571.216122) can0 017#01 R
(1720633571.216240) can0 056#01 R
(1720633571.246855) can0 00D#1EFF R
(1720633571.247017) can0 05B#1EFF R
(1720633571.247073) can0 014#01 R
(1720633571.247222) can0 008#01 R
(1720633571.247335) can0 055#01 R
(1720633571.247451) can0 05D#01 R
(1720633571.249078) can0 00E#19FF R
(1720633571.249902) can0 015#01 R
(1720633571.250033) can0 00E#18FF R
(1720633571.250202) can0 05C#18FF18FF R
(1720633571.250315) can0 016#27 R
(1720633571.250806) can0 016#27 R
(1720633571.250927) can0 041#01 R
(1720633571.251111) can0 05C#17FF16FF R
(1720633571.251197) can0 056#01 R
(1720633571.265730) can0 00E#04FF R
(1720633571.265907) can0 05C#04FF04FF R
(1720633571.266017) can0 041#01 R
(1720633571.266137) can0 016#27 R
(1720633571.266250) can0 015#01 R
(1720633571.266368) can0 017#01 R
(1720633571.266484) can0 056#01 R
(1720633571.277614) can0 007#01 R
(1720633571.308060) can0 00D#CDFE R
(1720633571.308191) can0 05B#CDFE R
(1720633571.308307) can0 014#01 R
(1720633571.308421) can0 008#01 R
(1720633571.308540) can0 055#01 R
(1720633571.308662) can0 05D#01 R
(1720633571.310105) can0 015#01 R
(1720633571.311252) can0 016#27 R
(1720633571.311369) can0 041#01 R
(1720633571.311504) can0 00E#C7FE R
(1720633571.311642) can0 00E#C7FE R
(1720633571.311810) can0 05C#C7FEC7FE R
(1720633571.313344) can0 05C#C5FEC4FE R
(1720633571.313457) can0 056#01 R
(1720633571.313576) can0 016#27 R
(1720633571.316373) can0 00E#C0FE R
(1720633571.316536) can0 05C#C0FEC0FE R
(1720633571.316645) can0 041#01 R
(1720633571.316764) can0 016#27 R
(1720633571.316878) can0 015#01 R
(1720633571.316996) can0 017#01 R
(1720633571.317112) can0 056#01 R
(1720633571.338625) can0 007#01 R
(1720633571.365469) can0 00E#75FE R
(1720633571.365633) can0 05C#75FE75FE R
(1720633571.365749) can0 041#01 R
(1720633571.365865) can0 016#27 R
(1720633571.365987) can0 015#01 R
(1720633571.366099) can0 017#01 R
(1720633571.366220) can0 056#01 R
(1720633571.370678) can0 00D#70FE R
(1720633571.370808) can0 05B#70FE R
(1720633571.370923) can0 014#01 R
(1720633571.371020) can0 008#01 R
(1720633571.371157) can0 055#01 R
(1720633571.371272) can0 05D#01 R
(1720633571.373541) can0 00E#68FE R
(1720633571.373669) can0 00E#68FE R
(1720633571.374318) can0 015#01 R
(1720633571.374432) can0 016#27 R
(1720633571.374550) can0 041#01 R
(1720633571.374719) can0 05C#66FE66FE R
(1720633571.374831) can0 056#01 R
(1720633571.375009) can0 05C#66FE66FE R
(1720633571.375112) can0 016#27 R
(1720633571.402364) can0 007#01 R
(1720633571.415726) can0 00E#21FE R
(1720633571.415891) can0 05C#21FE21FE R
(1720633571.416007) can0 041#01 R
(1720633571.416123) can0 016#27 R
(1720633571.416239) can0 015#01 R
(1720633571.416357) can0 017#01 R
(1720633571.416473) can0 056#01 R
(1720633571.432904) can0 00D#07FE R
(1720633571.433040) can0 05B#07FE R
(1720633571.433237) can0 014#01 R
(1720633571.433351) can0 008#01 R
(1720633571.433473) can0 055#01 R
(1720633571.433586) can0 05D#01 R
(1720633571.434874) can0 00E#FFFD R
(1720633571.435299) can0 05C#FDFDFDFD R
(1720633571.435439) can0 00E#FEFD R
(1720633571.435606) can0 05C#FDFDFDFD R
(1720633571.435724) can0 016#27 R
(1720633571.436605) can0 015#01 R
(1720633571.436721) can0 016#27 R
(1720633571.436844) can0 041#01 R
(1720633571.436955) can0 056#01 R
(1720633571.463917) can0 007#01 R
(1720633571.466074) can0 00E#C6FD R
(1720633571.466241) can0 05C#C6FDC6FD R
(1720633571.466358) can0 041#01 R
(1720633571.466474) can0 016#27 R
(1720633571.466590) can0 015#01 R
(1720633571.466708) can0 017#01 R
(1720633571.466823) can0 056#01 R
(1720633571.494244) can0 00D#91FD R
(1720633571.494375) can0 05B#91FD R
(1720633571.494491) can0 014#01 R
(1720633571.494606) can0 008#01 R
(1720633571.494722) can0 055#01 R
(1720633571.494840) can0 05D#01 R
(1720633571.496230) can0 015#01 R
(1720633571.496342) can0 016#27 R
(1720633571.496479) can0 00E#8BFD R
(1720633571.496838) can0 041#01 R
(1720633571.497004) can0 05C#89FD89FD R
(1720633571.497118) can0 056#01 R
(1720633571.497252) can0 00E#89FD R
(1720633571.497422) can0 05C#89FD89FD R
(1720633571.497532) can0 016#27 R
(1720633571.516024) can0 00E#62FD R
(1720633571.516193) can0 05C#62FD62FD R
(1720633571.516308) can0 041#01 R
(1720633571.516421) can0 016#27 R
(1720633571.516538) can0 015#01 R
(1720633571.516655) can0 017#01 R
(1720633571.516771) can0 056#01 R
(1720633571.524417) can0 007#01 R
(1720633571.555168) can0 00D#11FD R
(1720633571.555296) can0 05B#11FD R
(1720633571.555412) can0 014#01 R
(1720633571.555533) can0 008#01 R
(1720633571.555644) can0 055#01 R
(1720633571.555767) can0 05D#01 R
(1720633571.558073) can0 05C#08FD08FD R
(1720633571.558186) can0 056#01 R
(1720633571.558816) can0 015#01 R
(1720633571.558930) can0 016#27 R
(1720633571.559056) can0 041#01 R
(1720633571.559187) can0 00E#06FD R
(1720633571.559325) can0 00E#06FD R
(1720633571.559497) can0 05C#06FD06FD R
(1720633571.560156) can0 016#27 R
(1720633571.566063) can0 00E#F7FC R
(1720633571.566232) can0 05C#F7FCF7FC R
(1720633571.566347) can0 041#01 R
(1720633571.566464) can0 016#27 R
(1720633571.566579) can0 015#01 R
(1720633571.566698) can0 017#01 R
(1720633571.566813) can0 056#01 R
(1720633571.585758) can0 007#01 R
(1720633571.616238) can0 00E#84FC R
(1720633571.616361) can0 00D#86FC R
(1720633571.616502) can0 05B#86FC R
(1720633571.616610) can0 014#01 R
(1720633571.616733) can0 008#01 R
(1720633571.616842) can0 055#01 R
(1720633571.617016) can0 05C#83FC83FC R
(1720633571.617130) can0 041#01 R
(1720633571.617252) can0 016#27 R
(1720633571.617363) can0 015#01 R
(1720633571.617486) can0 017#01 R
(1720633571.617597) can0 056#01 R
(1720633571.617715) can0 05D#01 R
(1720633571.619194) can0 015#01 R
(1720633571.619310) can0 016#27 R
(1720633571.619482) can0 05C#7CFC7CFC R
(1720633571.619619) can0 00E#7CFC R
(1720633571.619750) can0 00E#7CFC R
(1720633571.620006) can0 041#01 R
(1720633571.620112) can0 056#01 R
(1720633571.620285) can0 05C#7AFC7AFC R
(1720633571.620396) can0 016#27 R
(1720633571.646540) can0 007#01 R
(1720633571.666160) can0 00E#08FC R
(1720633571.666330) can0 05C#08FC08FC R
(1720633571.666447) can0 041#01 R
(1720633571.666562) can0 016#27 R
(1720633571.666679) can0 015#01 R
(1720633571.666796) can0 017#01 R
(1720633571.666913) can0 056#01 R
(1720633571.677568) can0 00D#EFFB R
(1720633571.677702) can0 05B#EFFB R
(1720633571.677816) can0 014#01 R
(1720633571.677932) can0 008#01 R
(1720633571.678049) can0 055#01 R
(1720633571.678168) can0 05D#01 R
(1720633571.680362) can0 00E#E2FB R
(1720633571.681186) can0 015#01 R
(1720633571.681301) can0 016#27 R
(1720633571.681419) can0 041#01 R
(1720633571.681592) can0 05C#DFFBDFFB R
(1720633571.681703) can0 056#01 R
(1720633571.681840) can0 00E#DFFB R
(1720633571.682013) can0 05C#DFFBDFFB R
(1720633571.682127) can0 016#27 R
(1720633571.709154) can0 007#01 R
(1720633571.715748) can0 00E#85FB R
(1720633571.715913) can0 05C#85FB85FB R
(1720633571.716030) can0 041#01 R
(1720633571.716145) can0 016#27 R
(1720633571.716272) can0 015#01 R
(1720633571.716386) can0 017#01 R
(1720633571.716495) can0 056#01 R
(1720633571.739509) can0 00D#49FB R
(1720633571.739635) can0 05B#49FB R
(1720633571.739749) can0 014#01 R
(1720633571.739866) can0 008#01 R
(1720633571.739993) can0 055#01 R
(1720633571.740099) can0 05D#01 R
(1720633571.741074) can0 00E#3EFB R
(1720633571.742316) can0 015#01 R
(1720633571.742432) can0 016#27 R
(1720633571.742548) can0 041#01 R
(1720633571.742682) can0 00E#3CFB R
(1720633571.742852) can0 05C#3BFB3BFB R
(1720633571.742987) can0 016#27 R
(1720633571.743138) can0 05C#39FB39FB R
(1720633571.743251) can0 056#01 R
(1720633571.765239) can0 00E#FBFA R
(1720633571.765408) can0 05C#FBFAFBFA R
(1720633571.765524) can0 041#01 R
(1720633571.765639) can0 016#27 R
(1720633571.765757) can0 015#01 R
(1720633571.765873) can0 017#01 R
(1720633571.765990) can0 056#01 R
(1720633571.770517) can0 007#01 R
(1720633571.801505) can0 00D#98FA R
(1720633571.801640) can0 05B#98FA R
(1720633571.801753) can0 014#01 R
(1720633571.801928) can0 008#01 R
(1720633571.802044) can0 055#01 R
(1720633571.802160) can0 05D#01 R
(1720633571.804242) can0 015#01 R
(1720633571.804357) can0 016#27 R
(1720633571.805184) can0 041#01 R
(1720633571.805351) can0 05C#89FA89FA R
(1720633571.805463) can0 056#01 R
(1720633571.805598) can0 00E#89FA R
(1720633571.805741) can0 00E#89FA R
(1720633571.805899) can0 05C#89FA89FA R
(1720633571.806227) can0 016#27 R
(1720633571.815762) can0 00E#68FA R
(1720633571.815929) can0 05C#68FA68FA R
(1720633571.816046) can0 041#01 R
(1720633571.816162) can0 016#27 R
(1720633571.816277) can0 015#01 R
(1720633571.816403) can0 017#01 R
(1720633571.816514) can0 056#01 R
(1720633571.831713) can0 007#01 R
(1720633571.862738) can0 00D#DEF9 R
(1720633571.862874) can0 05B#DEF9 R
(1720633571.863014) can0 014#01 R
(1720633571.863112) can0 008#01 R
(1720633571.863216) can0 055#01 R
(1720633571.863336) can0 05D#01 R
(1720633571.865713) can0 015#01 R
(1720633571.865827) can0 016#27 R
(1720633571.865963) can0 00E#CEF9 R
(1720633571.866098) can0 00E#CEF9 R
(1720633571.866235) can0 00E#CEF9 R
(1720633571.866402) can0 05C#CEF9CEF9 R
(1720633571.866516) can0 041#01 R
(1720633571.866636) can0 016#27 R
(1720633571.866754) can0 015#01 R
(1720633571.866868) can0 017#01 R
(1720633571.867005) can0 056#01 R
(1720633571.867099) can0 041#01 R
(1720633571.867281) can0 05C#CBF9CBF9 R
(1720633571.867385) can0 056#01 R
(1720633571.867558) can0 05C#CBF9CBF9 R
(1720633571.867670) can0 016#27 R
(1720633571.892486) can0 007#01 R
(1720633571.915845) can0 00E#2CF9 R
(1720633571.916015) can0 05C#2CF92CF9 R
(1720633571.916123) can0 041#01 R
(1720633571.916235) can0 016#26 R
(1720633571.916360) can0 015#01 R
(1720633571.916475) can0 017#01 R
(1720633571.916596) can0 056#01 R
(1720633571.923227) can0 00D#18F9 R
(1720633571.923357) can0 05B#18F9 R
(1720633571.923476) can0 014#01 R
(1720633571.923587) can0 008#01 R
(1720633571.923705) can0 055#01 R
(1720633571.923820) can0 05D#01 R
(1720633571.926078) can0 015#01 R
(1720633571.926192) can0 016#26 R
(1720633571.926368) can0 05C#07F907F9 R
(1720633571.926502) can0 00E#07F9 R
(1720633571.927055) can0 041#01 R
(1720633571.927168) can0 056#01 R
(1720633571.927304) can0 00E#04F9 R
(1720633571.927475) can0 05C#04F904F9 R
(1720633571.927589) can0 016#26 R
(1720633571.954344) can0 007#01 R
(1720633571.964986) can0 00E#82F8 R
(1720633571.965159) can0 05C#82F882F8 R
(1720633571.965274) can0 041#01 R
(1720633571.965390) can0 016#26 R
(1720633571.965506) can0 015#01 R
(1720633571.965624) can0 017#01 R
(1720633571.965740) can0 056#01 R
(1720633571.985282) can0 00D#43F8 R
(1720633571.985416) can0 05B#43F8 R
(1720633571.985529) can0 014#01 R
(1720633571.985645) can0 008#01 R
(1720633571.985770) can0 055#01 R
(1720633571.985880) can0 05D#01 R
(1720633571.988175) can0 00E#32F8 R
(1720633571.989169) can0 015#01 R
(1720633571.989238) can0 016#26 R
(1720633571.989379) can0 041#01 R
(1720633571.989547) can0 05C#2EF82EF8 R
(1720633571.989661) can0 056#01 R
(1720633571.989796) can0 00E#2EF8 R
(1720633571.989966) can0 05C#2EF82EF8 R
(1720633571.990079) can0 016#26 R
(1720633572.015061) can0 00E#D1F7 R
(1720633572.015230) can0 05C#D1F7D1F7 R
(1720633572.015340) can0 041#01 R
(1720633572.015458) can0 016#26 R
(1720633572.015576) can0 015#01 R
(1720633572.015695) can0 017#01 R
(1720633572.015810) can0 056#01 R
(1720633572.017333) can0 007#01 R
(1720633572.048232) can0 00D#5FF7 R
(1720633572.048369) can0 05B#5FF7 R
(1720633572.048482) can0 014#01 R
(1720633572.048599) can0 008#01 R
(1720633572.048713) can0 055#01 R
(1720633572.048831) can0 05D#01 R
(1720633572.050866) can0 015#01 R
(1720633572.051010) can0 016#26 R
(1720633572.051086) can0 041#01 R
(1720633572.051235) can0 00E#4DF7 R
(1720633572.051381) can0 00E#4DF7 R
(1720633572.051540) can0 05C#4DF74DF7 R
(1720633572.052169) can0 05C#49F749F7 R
(1720633572.052279) can0 056#01 R
(1720633572.052397) can0 016#26 R
(1720633572.065059) can0 00E#18F7 R
(1720633572.065226) can0 05C#18F718F7 R
(1720633572.065339) can0 041#01 R
(1720633572.065457) can0 016#26 R
(1720633572.065572) can0 015#01 R
(1720633572.065690) can0 017#01 R
(1720633572.065806) can0 056#01 R
(1720633572.080425) can0 007#01 R
(1720633572.111328) can0 00D#6FF6 R
(1720633572.111459) can0 05B#6FF6 R
(1720633572.111573) can0 014#01 R
(1720633572.111689) can0 008#01 R
(1720633572.111804) can0 055#01 R
(1720633572.111923) can0 05D#01 R
(1720633572.113066) can0 00E#60F6 R
(1720633572.113199) can0 00E#60F6 R
(1720633572.114132) can0 015#01 R
(1720633572.114241) can0 016#26 R
(1720633572.114410) can0 05C#5CF65CF6 R
(1720633572.114523) can0 016#26 R
(1720633572.115181) can0 041#01 R
(1720633572.115345) can0 05C#58F658F6 R
(1720633572.115457) can0 056#01 R
(1720633572.115592) can0 00E#58F6 R
(1720633572.115754) can0 05C#58F658F6 R
(1720633572.115870) can0 041#01 R
(1720633572.115986) can0 016#26 R
(1720633572.116105) can0 015#01 R
(1720633572.116223) can0 017#01 R
(1720633572.116338) can0 056#01 R
(1720633572.142003) can0 007#01 R
(1720633572.165608) can0 00E#90F5 R
(1720633572.165772) can0 05C#90F590F5 R
(1720633572.165886) can0 041#01 R
(1720633572.166001) can0 016#26 R
(1720633572.166118) can0 015#01 R
(1720633572.166235) can0 017#01 R
(1720633572.166351) can0 056#01 R
(1720633572.172724) can0 00D#78F5 R
(1720633572.172857) can0 05B#78F5 R
(1720633572.173084) can0 014#01 R
(1720633572.173204) can0 008#01 R
(1720633572.173315) can0 055#01 R
(1720633572.173433) can0 05D#01 R
(1720633572.174568) can0 00E#6BF5 R
(1720633572.175415) can0 015#01 R
(1720633572.175529) can0 016#26 R
(1720633572.175648) can0 041#01 R
(1720633572.175822) can0 05C#67F567F5 R
(1720633572.175949) can0 00E#67F5 R
(1720633572.176116) can0 05C#67F567F5 R
(1720633572.176230) can0 016#26 R
(1720633572.176488) can0 056#01 R
(1720633572.202277) can0 007#01 R
(1720633572.215254) can0 00E#C1F4 R
(1720633572.215424) can0 05C#C1F4C1F4 R
(1720633572.215543) can0 041#01 R
(1720633572.215657) can0 016#26 R
(1720633572.215778) can0 015#01 R
(1720633572.215893) can0 017#01 R
(1720633572.216007) can0 056#01 R
(1720633572.232521) can0 00D#81F4 R
(1720633572.232652) can0 05B#81F4 R
(1720633572.232764) can0 014#01 R
(1720633572.232882) can0 008#01 R
(1720633572.232996) can0 055#01 R
(1720633572.233115) can0 05D#01 R
(1720633572.234329) can0 00E#70F4 R
(1720633572.235373) can0 00E#6CF4 R
(1720633572.235538) can0 05C#6CF46CF4 R
(1720633572.235647) can0 016#26 R
(1720633572.236174) can0 015#01 R
(1720633572.236286) can0 016#26 R
(1720633572.236405) can0 041#01 R
(1720633572.236569) can0 05C#68F467F4 R
(1720633572.236688) can0 056#01 R
(1720633572.263627) can0 007#01 R
(1720633572.265238) can0 00E#EAF3 R
(1720633572.265406) can0 05C#EAF3EAF3 R
(1720633572.265515) can0 041#01 R
(1720633572.265632) can0 016#26 R
(1720633572.265748) can0 015#01 R
(1720633572.265866) can0 017#01 R
(1720633572.265982) can0 056#01 R
(1720633572.294207) can0 00D#73F3 R
(1720633572.294337) can0 05B#73F3 R
(1720633572.294450) can0 014#01 R
(1720633572.294567) can0 008#01 R
(1720633572.294683) can0 055#01 R
(1720633572.294801) can0 05D#01 R
(1720633572.296091) can0 015#01 R
(1720633572.297152) can0 016#26 R
(1720633572.297264) can0 041#01 R
(1720633572.297402) can0 00E#5DF3 R
(1720633572.297532) can0 00E#5DF3 R
(1720633572.297698) can0 05C#5DF35DF3 R
(1720633572.298394) can0 05C#59F358F3 R
(1720633572.298507) can0 056#01 R
(1720633572.298624) can0 016#26 R
(1720633572.315655) can0 00E#0CF3 R
(1720633572.315818) can0 05C#0CF30CF3 R
(1720633572.315929) can0 041#01 R
(1720633572.316047) can0 016#25 R
(1720633572.316162) can0 015#01 R
(1720633572.316283) can0 017#01 R
(1720633572.316401) can0 056#01 R
(1720633572.325182) can0 007#01 R
(1720633572.355620) can0 00D#5AF2 R
(1720633572.355758) can0 05B#5AF2 R
(1720633572.355866) can0 014#01 R
(1720633572.355987) can0 008#01 R
(1720633572.356098) can0 055#01 R
(1720633572.356216) can0 05D#01 R
(1720633572.357441) can0 00E#4CF2 R
(1720633572.357572) can0 00E#4CF2 R
(1720633572.358485) can0 015#01 R
(1720633572.358596) can0 016#25 R
(1720633572.358716) can0 041#01 R
(1720633572.358877) can0 05C#48F248F2 R
(1720633572.359016) can0 016#25 R
(1720633572.359389) can0 05C#43F243F2 R
(1720633572.359499) can0 056#01 R
(1720633572.365503) can0 00E#27F2 R
(1720633572.365664) can0 05C#27F227F2 R
(1720633572.365780) can0 041#01 R
(1720633572.365895) can0 016#25 R
(1720633572.366011) can0 015#01 R
(1720633572.366130) can0 017#01 R
(1720633572.366250) can0 056#01 R
(1720633572.386009) can0 007#01 R
(1720633572.415505) can0 00E#3BF1 R
(1720633572.415667) can0 05C#3BF13BF1 R
(1720633572.415787) can0 041#01 R
(1720633572.415899) can0 016#25 R
(1720633572.416016) can0 015#01 R
(1720633572.416133) can0 017#01 R
(1720633572.416250) can0 056#01 R
(1720633572.416382) can0 00D#40F1 R
(1720633572.416518) can0 05B#40F1 R
(1720633572.416633) can0 014#01 R
(1720633572.416750) can0 008#01 R
(1720633572.416864) can0 055#01 R
(1720633572.416984) can0 05D#01 R
(1720633572.418543) can0 00E#2CF1 R
(1720633572.419232) can0 015#01 R
(1720633572.419349) can0 016#25 R
(1720633572.419464) can0 041#01 R
(1720633572.419635) can0 05C#27F127F1 R
(1720633572.419762) can0 00E#28F1 R
(1720633572.419929) can0 05C#27F127F1 R
(1720633572.420040) can0 016#25 R
(1720633572.420493) can0 056#01 R
(1720633572.446329) can0 007#01 R
(1720633572.465532) can0 00E#47F0 R
(1720633572.465696) can0 05C#47F047F0 R
(1720633572.465805) can0 041#01 R
(1720633572.465926) can0 016#25 R
(1720633572.466035) can0 015#01 R
(1720633572.466154) can0 017#01 R
(1720633572.466269) can0 056#01 R
(1720633572.477365) can0 00D#16F0 R
(1720633572.477496) can0 05B#16F0 R
(1720633572.477611) can0 014#01 R
(1720633572.477726) can0 008#01 R
(1720633572.477843) can0 055#01 R
(1720633572.477961) can0 05D#01 R
(1720633572.480192) can0 05C#FDEFFDEF R
(1720633572.480301) can0 056#01 R
(1720633572.480442) can0 00E#FDEF R
(1720633572.480826) can0 015#01 R
(1720633572.480936) can0 016#25 R
(1720633572.481060) can0 041#01 R
(1720633572.481191) can0 00E#F8EF R
(1720633572.481360) can0 05C#F8EFF8EF R
(1720633572.481472) can0 016#25 R
(1720633572.507469) can0 007#01 R
(1720633572.515116) can0 00E#4DEF R
(1720633572.515291) can0 05C#4CEF4CEF R
(1720633572.515396) can0 041#01 R
(1720633572.515511) can0 016#25 R
(1720633572.515630) can0 015#01 R
(1720633572.515743) can0 017#01 R
(1720633572.515860) can0 056#01 R
(1720633572.538439) can0 00D#DCEE R
(1720633572.538652) can0 05B#DCEE R
(1720633572.538759) can0 014#01 R
(1720633572.538877) can0 008#01 R
(1720633572.539017) can0 055#01 R
(1720633572.539116) can0 05D#01 R
(1720633572.541423) can0 015#01 R
(1720633572.541535) can0 016#25 R
(1720633572.541652) can0 041#01 R
(1720633572.541822) can0 05C#C7EEC7EE R
(1720633572.541936) can0 056#01 R
(1720633572.542072) can0 00E#C7EE R
(1720633572.542210) can0 00E#C7EE R
(1720633572.542375) can0 05C#C7EEC7EE R
(1720633572.542486) can0 016#25 R
(1720633572.564714) can0 00E#4BEE R
(1720633572.564884) can0 05C#4BEE4BEE R
(1720633572.564997) can0 041#01 R
(1720633572.565114) can0 016#25 R
(1720633572.565230) can0 015#01 R
(1720633572.565346) can0 017#01 R
(1720633572.565464) can0 056#01 R
(1720633572.568678) can0 007#01 R
(1720633572.599627) can0 00D#9DED R
(1720633572.599896) can0 05B#9DED R
(1720633572.600012) can0 014#01 R
(1720633572.600126) can0 008#01 R
(1720633572.600243) can0 055#01 R
(1720633572.600360) can0 05D#01 R
(1720633572.602128) can0 015#01 R
(1720633572.602234) can0 016#25 R
(1720633572.602483) can0 05C#88ED88ED R
(1720633572.602598) can0 056#01 R
(1720633572.602733) can0 00E#88ED R
(1720633572.602870) can0 00E#88ED R
(1720633572.603483) can0 041#01 R
(1720633572.603650) can0 05C#82ED82ED R
(1720633572.603762) can0 016#25 R
(1720633572.614734) can0 00E#42ED R
(1720633572.615029) can0 05C#42ED42ED R
(1720633572.615145) can0 041#01 R
(1720633572.615259) can0 016#25 R
(1720633572.615376) can0 015#01 R
(1720633572.615492) can0 017#01 R
(1720633572.615609) can0 056#01 R
(1720633572.631123) can0 007#01 R
(1720633572.660982) can0 00D#54EC R
(1720633572.661110) can0 05B#54EC R
(1720633572.661224) can0 014#01 R
(1720633572.661345) can0 008#01 R
(1720633572.661456) can0 055#01 R
(1720633572.661580) can0 05D#01 R
(1720633572.662985) can0 00E#3EEC R
(1720633572.663825) can0 00E#38EC R
(1720633572.663986) can0 05C#38EC38EC R
(1720633572.664104) can0 016#24 R
(1720633572.664976) can0 015#01 R
(1720633572.665088) can0 016#24 R
(1720633572.665214) can0 041#01 R
(1720633572.665379) can0 05C#33EC33EC R
(1720633572.665492) can0 056#01 R
(1720633572.665630) can0 00E#33EC R
(1720633572.665798) can0 05C#33EC33EC R
(1720633572.665915) can0 041#01 R
(1720633572.666033) can0 016#24 R
(1720633572.666149) can0 015#01 R
(1720633572.666267) can0 017#01 R
(1720633572.666383) can0 056#01 R
(1720633572.691717) can0 007#01 R
(1720633572.714824) can0 00E#1CEB R
(1720633572.715009) can0 05C#1CEB1CEB R
(1720633572.715075) can0 041#01 R
(1720633572.715219) can0 016#24 R
(1720633572.715332) can0 015#01 R
(1720633572.715450) can0 017#01 R
(1720633572.715567) can0 056#01 R
(1720633572.722690) can0 00D#FAEA R
(1720633572.722822) can0 05B#FAEA R
(1720633572.722959) can0 014#01 R
(1720633572.723058) can0 008#01 R
(1720633572.723168) can0 055#01 R
(1720633572.723287) can0 05D#01 R
(1720633572.724356) can0 00E#E9EA R
(1720633572.725288) can0 05C#E4EAE4EA R
(1720633572.725403) can0 056#01 R
(1720633572.725537) can0 00E#E4EA R
(1720633572.725703) can0 05C#E4EAE4EA R
(1720633572.725815) can0 016#24 R
(1720633572.726269) can0 015#01 R
(1720633572.726385) can0 016#24 R
(1720633572.726503) can0 041#01 R
(1720633572.752411) can0 007#01 R
(1720633572.765093) can0 00E#FFE9 R
(1720633572.765260) can0 05C#FFE9FFE9 R
(1720633572.765377) can0 041#01 R
(1720633572.765494) can0 016#24 R
(1720633572.765608) can0 015#01 R
(1720633572.765728) can0 017#01 R
(1720633572.765845) can0 056#01 R
(1720633572.781975) can0 00D#A8E9 R
(1720633572.782107) can0 05B#A8E9 R
(1720633572.782218) can0 014#01 R
(1720633572.782335) can0 008#01 R
(1720633572.782451) can0 055#01 R
(1720633572.782569) can0 05D#01 R
(1720633572.784988) can0 05C#8BE98BE9 R
(1720633572.785100) can0 056#01 R
(1720633572.785696) can0 015#01 R
(1720633572.785811) can0 016#24 R
(1720633572.785930) can0 041#01 R
(1720633572.786062) can0 00E#85E9 R
(1720633572.786196) can0 00E#85E9 R
(1720633572.786360) can0 05C#85E985E9 R
(1720633572.787015) can0 016#24 R
(1720633572.812196) can0 007#01 R
(1720633572.815167) can0 00E#DBE8 R
(1720633572.815331) can0 05C#DBE8DBE8 R
(1720633572.815447) can0 041#01 R
(1720633572.815564) can0 016#24 R
(1720633572.815681) can0 015#01 R
(1720633572.815800) can0 017#01 R
(1720633572.815919) can0 056#01 R
(1720633572.843062) can0 00D#41E8 R
(1720633572.843195) can0 05B#41E8 R
(1720633572.843363) can0 014#01 R
(1720633572.843475) can0 008#01 R
(1720633572.843594) can0 055#01 R
(1720633572.843712) can0 05D#01 R
(1720633572.844770) can0 00E#29E8 R
(1720633572.844899) can0 00E#29E8 R
(1720633572.846397) can0 05C#23E823E8 R
(1720633572.846517) can0 016#24 R
(1720633572.846679) can0 015#01 R
(1720633572.846869) can0 016#24 R
(1720633572.847018) can0 041#01 R
(1720633572.847218) can0 05C#1DE81DE8 R
(1720633572.847330) can0 056#01 R
(1720633572.865157) can0 00E#B1E7 R
(1720633572.865319) can0 05C#B1E7B1E7 R
(1720633572.865434) can0 041#01 R
(1720633572.865568) can0 016#24 R
(1720633572.865666) can0 015#01 R
(1720633572.865787) can0 017#01 R
(1720633572.865903) can0 056#01 R
(1720633572.873797) can0 007#01 R
(1720633572.905136) can0 00D#CAE6 R
(1720633572.905268) can0 05B#CAE6 R
(1720633572.905380) can0 014#01 R
(1720633572.905499) can0 008#01 R
(1720633572.905614) can0 055#01 R
(1720633572.905735) can0 05D#01 R
(1720633572.907139) can0 00E#B1E6 R
(1720633572.908374) can0 015#01 R
(1720633572.908488) can0 016#24 R
(1720633572.908611) can0 041#01 R
(1720633572.908742) can0 00E#ABE6 R
(1720633572.908909) can0 05C#ABE6ABE6 R
(1720633572.909026) can0 016#24 R
(1720633572.909325) can0 05C#A5E6A5E6 R
(1720633572.909440) can0 056#01 R
(1720633572.915135) can0 00E#80E6 R
(1720633572.915302) can0 05C#80E680E6 R
(1720633572.915420) can0 041#01 R
(1720633572.915537) can0 016#24 R
(1720633572.915654) can0 015#01 R
(1720633572.915771) can0 017#01 R
(1720633572.915888) can0 056#01 R
(1720633572.935909) can0 007#01 R
(1720633572.965080) can0 00E#48E5 R
(1720633572.965243) can0 05C#48E548E5 R
(1720633572.965352) can0 041#01 R
(1720633572.965470) can0 016#23 R
(1720633572.965583) can0 015#01 R
(1720633572.965705) can0 017#01 R
(1720633572.965822) can0 056#01 R
(1720633572.967031) can0 00D#48E5 R
(1720633572.967158) can0 05B#48E5 R
(1720633572.967334) can0 014#01 R
(1720633572.967447) can0 008#01 R
(1720633572.967564) can0 055#01 R
(1720633572.967681) can0 05D#01 R
(1720633572.969046) can0 00E#2FE5 R
(1720633572.969915) can0 015#01 R
(1720633572.970029) can0 016#23 R
(1720633572.970194) can0 05C#29E529E5 R
(1720633572.970307) can0 056#01 R
(1720633572.970442) can0 00E#29E5 R
(1720633572.970605) can0 05C#29E529E5 R
(1720633572.970716) can0 016#23 R
(1720633572.970966) can0 041#01 R
(1720633572.997385) can0 007#01 R
(1720633573.014746) can0 00E#0AE4 R
(1720633573.014913) can0 05C#0AE40AE4 R
(1720633573.015016) can0 041#01 R
(1720633573.015146) can0 016#23 R
(1720633573.015260) can0 015#01 R
(1720633573.015379) can0 017#01 R
(1720633573.015494) can0 056#01 R
(1720633573.029124) can0 00D#BDE3 R
(1720633573.029255) can0 05B#BDE3 R
(1720633573.029371) can0 014#01 R
(1720633573.029486) can0 008#01 R
(1720633573.029602) can0 055#01 R
(1720633573.029720) can0 05D#01 R
(1720633573.031792) can0 015#01 R
(1720633573.031908) can0 016#23 R
(1720633573.032659) can0 041#01 R
(1720633573.032825) can0 05C#96E396E3 R
(1720633573.032935) can0 056#01 R
(1720633573.033067) can0 00E#96E3 R
(1720633573.033203) can0 00E#96E3 R
(1720633573.033361) can0 05C#96E396E3 R
(1720633573.033526) can0 016#23 R
(1720633573.059787) can0 007#01 R
(1720633573.064702) can0 00E#C6E2 R
(1720633573.064868) can0 05C#C6E2C6E2 R
(1720633573.064981) can0 041#01 R
(1720633573.065096) can0 016#23 R
(1720633573.065211) can0 015#01 R
(1720633573.065329) can0 017#01 R
(1720633573.065445) can0 056#01 R
(1720633573.091048) can0 00D#28E2 R
(1720633573.091181) can0 05B#28E2 R
(1720633573.091295) can0 014#01 R
(1720633573.091411) can0 008#01 R
(1720633573.091529) can0 055#01 R
(1720633573.091647) can0 05D#01 R
(1720633573.093963) can0 05C#07E207E2 R
(1720633573.094074) can0 056#01 R
(1720633573.094212) can0 00E#07E2 R
(1720633573.094360) can0 00E#07E2 R
(1720633573.094816) can0 015#01 R
(1720633573.094928) can0 016#23 R
(1720633573.095027) can0 041#01 R
(1720633573.095217) can0 05C#01E201E2 R
(1720633573.095326) can0 016#23 R
(1720633573.114961) can0 00E#7CE1 R
(1720633573.115125) can0 05C#7CE17CE1 R
(1720633573.115239) can0 041#01 R
(1720633573.115353) can0 016#23 R
(1720633573.115469) can0 015#01 R
(1720633573.115586) can0 017#01 R
(1720633573.115703) can0 056#01 R
(1720633573.120986) can0 007#01 R
(1720633573.151366) can0 00D#91E0 R
(1720633573.151497) can0 05B#91E0 R
(1720633573.151612) can0 014#01 R
(1720633573.151733) can0 008#01 R
(1720633573.151845) can0 055#01 R
(1720633573.151967) can0 05D#01 R
(1720633573.153222) can0 00E#7DE0 R
(1720633573.154097) can0 05C#76E076E0 R
(1720633573.154211) can0 056#01 R
(1720633573.154345) can0 00E#76E0 R
(1720633573.154514) can0 05C#76E076E0 R
(1720633573.154625) can0 016#23 R
(1720633573.155146) can0 015#01 R
(1720633573.155257) can0 016#23 R
(1720633573.155375) can0 041#01 R
(1720633573.165275) can0 00E#2BE0 R
(1720633573.165445) can0 05C#2BE02BE0 R
(1720633573.165565) can0 041#01 R
(1720633573.165676) can0 016#23 R
(1720633573.165790) can0 015#01 R
(1720633573.165910) can0 017#01 R
(1720633573.166025) can0 056#01 R
(1720633573.181421) can0 007#01 R
(1720633573.212749) can0 00D#F0DE R
(1720633573.212882) can0 05B#F0DE R
(1720633573.212995) can0 014#01 R
(1720633573.213111) can0 008#01 R
(1720633573.213227) can0 055#01 R
(1720633573.213346) can0 05D#01 R
(1720633573.214538) can0 00E#D4DE R
(1720633573.214670) can0 00E#D4DE R
(1720633573.214833) can0 05C#D4DED4DE R
(1720633573.214960) can0 041#01 R
(1720633573.215061) can0 016#22 R
(1720633573.215180) can0 015#01 R
(1720633573.215296) can0 017#01 R
(1720633573.215413) can0 056#01 R
(1720633573.215950) can0 015#01 R
(1720633573.216055) can0 016#22 R
(1720633573.216225) can0 05C#CDDECDDE R
(1720633573.216339) can0 056#01 R
(1720633573.216470) can0 00E#CEDE R
(1720633573.216637) can0 05C#CDDECDDE R
(1720633573.216747) can0 016#22 R
(1720633573.216867) can0 041#01 R
(1720633573.243427) can0 007#01 R
(1720633573.265585) can0 00E#71DD R
(1720633573.265730) can0 05C#71DD71DD R
(1720633573.265848) can0 041#01 R
(1720633573.265960) can0 016#22 R
(1720633573.266077) can0 015#01 R
(1720633573.266194) can0 017#01 R
(1720633573.266310) can0 056#01 R
(1720633573.274655) can0 00D#3FDD R
(1720633573.274781) can0 05B#3FDD R
(1720633573.274898) can0 014#01 R
(1720633573.275028) can0 008#01 R
(1720633573.275128) can0 055#01 R
(1720633573.275247) can0 05D#01 R
(1720633573.277426) can0 015#01 R
(1720633573.277537) can0 016#22 R
(1720633573.277697) can0 05C#1CDD1CDD R
(1720633573.277813) can0 056#01 R
(1720633573.278588) can0 041#01 R
(1720633573.278719) can0 00E#1CDD R
(1720633573.278853) can0 00E#1CDD R
(1720633573.279017) can0 05C#1CDD1CDD R
(1720633573.279310) can0 016#22 R
(1720633573.305425) can0 007#01 R
(1720633573.316830) can0 00E#0EDC R
(1720633573.317002) can0 05C#0EDC0EDC R
(1720633573.317106) can0 041#01 R
(1720633573.317220) can0 016#22 R
(1720633573.317339) can0 015#01 R
(1720633573.317457) can0 017#01 R
(1720633573.317573) can0 056#01 R
(1720633573.336378) can0 00D#86DB R
(1720633573.336506) can0 05B#86DB R
(1720633573.336619) can0 014#01 R
(1720633573.336738) can0 008#01 R
(1720633573.336853) can0 055#01 R
(1720633573.336971) can0 05D#01 R
(1720633573.339110) can0 05C#69DB69DB R
(1720633573.339224) can0 056#01 R
(1720633573.339358) can0 00E#69DB R
(1720633573.339491) can0 00E#69DB R
(1720633573.340181) can0 015#01 R
(1720633573.340292) can0 016#22 R
(1720633573.340410) can0 041#01 R
(1720633573.340576) can0 05C#62DB62DB R
(1720633573.340687) can0 016#22 R
(1720633573.365656) can0 00E#A6DA R
(1720633573.365801) can0 05C#A6DAA5DA R
(1720633573.365919) can0 041#01 R
(1720633573.366033) can0 016#22 R
(1720633573.366149) can0 015#01 R
(1720633573.366266) can0 017#01 R
(1720633573.366382) can0 056#01 R
(1720633573.367546) can0 007#01 R
(1720633573.399546) can0 00D#BCD9 R
(1720633573.399682) can0 05B#BCD9 R
(1720633573.399791) can0 014#01 R
(1720633573.399907) can0 008#01 R
(1720633573.400023) can0 055#01 R
(1720633573.400142) can0 05D#01 R
(1720633573.401565) can0 00E#9ED9 R
(1720633573.402306) can0 015#01 R
(1720633573.402417) can0 016#21 R
(1720633573.402537) can0 041#01 R
(1720633573.402707) can0 05C#97D997D9 R
(1720633573.402818) can0 056#01 R
(1720633573.402968) can0 00E#97D9 R
(1720633573.403124) can0 05C#97D997D9 R
(1720633573.403236) can0 016#21 R
(1720633573.415567) can0 00E#37D9 R
(1720633573.415734) can0 05C#37D937D9 R
(1720633573.415852) can0 041#01 R
(1720633573.415965) can0 016#21 R
(1720633573.416082) can0 015#01 R
(1720633573.416199) can0 017#01 R
(1720633573.416317) can0 056#01 R
(1720633573.429768) can0 007#01 R
(1720633573.461122) can0 00D#F8D7 R
(1720633573.461254) can0 05B#F8D7 R
(1720633573.461464) can0 014#01 R
(1720633573.461580) can0 008#01 R
(1720633573.461699) can0 055#01 R
(1720633573.461813) can0 05D#01 R
(1720633573.463839) can0 05C#D2D7D2D7 R
(1720633573.463952) can0 056#01 R
(1720633573.464085) can0 00E#D2D7 R
(1720633573.464913) can0 015#01 R
(1720633573.465023) can0 016#21 R
(1720633573.465143) can0 041#01 R
(1720633573.465274) can0 00E#CBD7 R
(1720633573.465440) can0 05C#CBD7CBD7 R
(1720633573.465548) can0 016#21 R
(1720633573.465686) can0 00E#C3D7 R
(1720633573.465859) can0 05C#C3D7C3D7 R
(1720633573.465970) can0 041#01 R
(1720633573.466085) can0 016#21 R
(1720633573.466202) can0 015#01 R
(1720633573.466319) can0 017#01 R
(1720633573.466436) can0 056#01 R
(1720633573.491419) can0 007#01 R
(1720633573.516389) can0 00E#4AD6 R
(1720633573.516490) can0 05C#4AD64AD6 R
(1720633573.516608) can0 041#01 R
(1720633573.516719) can0 016#21 R
(1720633573.516836) can0 015#01 R
(1720633573.516955) can0 017#01 R
(1720633573.517069) can0 056#01 R
(1720633573.522356) can0 00D#24D6 R
(1720633573.522481) can0 05B#24D6 R
(1720633573.522597) can0 014#01 R
(1720633573.522711) can0 008#01 R
(1720633573.522829) can0 055#01 R
(1720633573.522977) can0 05D#01 R
(1720633573.525227) can0 015#01 R
(1720633573.525336) can0 016#21 R
(1720633573.525511) can0 05C#FED5FED5 R
(1720633573.525618) can0 056#01 R
(1720633573.525753) can0 00E#FED5 R
(1720633573.525893) can0 00E#FED5 R
(1720633573.526053) can0 05C#FED5FED5 R
(1720633573.526254) can0 041#01 R
(1720633573.526365) can0 016#21 R
(1720633573.553964) can0 007#01 R
(1720633573.565606) can0 00E#CBD4 R
(1720633573.565746) can0 05C#CBD4CBD4 R
(1720633573.565870) can0 041#01 R
(1720633573.565976) can0 016#21 R
(1720633573.566097) can0 015#01 R
(1720633573.566210) can0 017#01 R
(1720633573.566327) can0 056#01 R
(1720633573.584023) can0 00D#50D4 R
(1720633573.584150) can0 05B#50D4 R
(1720633573.584268) can0 014#01 R
(1720633573.584388) can0 008#01 R
(1720633573.584499) can0 055#01 R
(1720633573.584622) can0 05D#01 R
(1720633573.585699) can0 00E#31D4 R
(1720633573.585835) can0 00E#31D4 R
(1720633573.586679) can0 05C#29D429D4 R
(1720633573.586791) can0 016#21 R
(1720633573.587651) can0 015#01 R
(1720633573.587764) can0 016#21 R
(1720633573.587882) can0 041#01 R
(1720633573.588052) can0 05C#21D421D4 R
(1720633573.588161) can0 056#01 R
(1720633573.613778) can0 007#01 R
(1720633573.615722) can0 00E#47D3 R
(1720633573.615886) can0 05C#47D347D3 R
(1720633573.615999) can0 041#01 R
(1720633573.616114) can0 016#21 R
(1720633573.616234) can0 015#01 R
(1720633573.616347) can0 017#01 R
(1720633573.616468) can0 056#01 R
(1720633573.644990) can0 00D#6BD2 R
(1720633573.645120) can0 05B#6BD2 R
(1720633573.645235) can0 014#01 R
(1720633573.645350) can0 008#01 R
(1720633573.645465) can0 055#01 R
(1720633573.645584) can0 05D#01 R
(1720633573.646862) can0 00E#54D2 R
(1720633573.648082) can0 015#01 R
(1720633573.648244) can0 05C#4CD24CD2 R
(1720633573.648360) can0 056#01 R
(1720633573.648490) can0 00E#4CD2 R
(1720633573.648653) can0 05C#4CD24CD2 R
(1720633573.648771) can0 016#20 R
(1720633573.648892) can0 016#20 R
(1720633573.649008) can0 041#01 R
(1720633573.666233) can0 00E#B6D1 R
(1720633573.666378) can0 05C#B6D1B5D1 R
(1720633573.666493) can0 041#01 R
(1720633573.666614) can0 016#20 R
(1720633573.666727) can0 015#01 R
(1720633573.666849) can0 017#01 R
(1720633573.666995) can0 056#01 R
(1720633573.675477) can0 007#01 R
(1720633573.705700) can0 00D#8FD0 R
(1720633573.705832) can0 05B#8FD0 R
(1720633573.705948) can0 014#01 R
(1720633573.706068) can0 008#01 R
(1720633573.706181) can0 055#01 R
(1720633573.706303) can0 05D#01 R
(1720633573.707557) can0 015#01 R
(1720633573.707691) can0 00E#6FD0 R
(1720633573.708459) can0 016#20 R
(1720633573.708577) can0 041#01 R
(1720633573.708749) can0 05C#67D067D0 R
(1720633573.708861) can0 056#01 R
(1720633573.708998) can0 00E#67D0 R
(1720633573.709170) can0 05C#67D067D0 R
(1720633573.709289) can0 016#20 R
(1720633573.716658) can0 00E#27D0 R
(1720633573.716829) can0 05C#27D027D0 R
(1720633573.716944) can0 041#01 R
(1720633573.717068) can0 016#20 R
(1720633573.717182) can0 015#01 R
(1720633573.717301) can0 017#01 R
(1720633573.717417) can0 056#01 R
(1720633573.735800) can0 007#01 R
(1720633573.765860) can0 00D#A3CE R
(1720633573.765991) can0 05B#A3CE R
(1720633573.766106) can0 014#01 R
(1720633573.766220) can0 008#01 R
(1720633573.766338) can0 055#01 R
(1720633573.766461) can0 05D#01 R
(1720633573.767121) can0 00E#93CE R
(1720633573.767288) can0 05C#93CE93CE R
(1720633573.767402) can0 041#01 R
(1720633573.767522) can0 016#20 R
(1720633573.767639) can0 015#01 R
(1720633573.767761) can0 017#01 R
(1720633573.767878) can0 056#01 R
(1720633573.767993) can0 015#01 R
(1720633573.768602) can0 016#20 R
(1720633573.768717) can0 041#01 R
(1720633573.768893) can0 05C#83CE83CE R
(1720633573.769004) can0 056#01 R
(1720633573.769147) can0 00E#83CE R
(1720633573.769279) can0 00E#83CE R
(1720633573.769455) can0 05C#83CE83CE R
(1720633573.769672) can0 016#20 R
(1720633573.796275) can0 007#01 R
(1720633573.816684) can0 00E#FACC R
(1720633573.816851) can0 05C#FACCFACC R
(1720633573.816965) can0 041#01 R
(1720633573.817087) can0 016#20 R
(1720633573.817202) can0 015#01 R
(1720633573.817321) can0 017#01 R
(1720633573.817435) can0 056#01 R
(1720633573.827733) can0 00D#B0CC R
(1720633573.827868) can0 05B#B0CC R
(1720633573.827980) can0 014#01 R
(1720633573.828096) can0 008#01 R
(1720633573.828236) can0 055#01 R
(1720633573.828334) can0 05D#01 R
(1720633573.830249) can0 015#01 R
(1720633573.830416) can0 05C#87CC87CC R
(1720633573.830550) can0 00E#87CC R
(1720633573.830681) can0 00E#87CC R
(1720633573.831346) can0 016#1F R
(1720633573.831462) can0 041#01 R
(1720633573.831579) can0 056#01 R
(1720633573.831752) can0 05C#7FCC7FCC R
(1720633573.831861) can0 016#1F R
(1720633573.859406) can0 007#01 R
(1720633573.866350) can0 00E#5DCB R
(1720633573.866507) can0 05C#5DCB5DCB R
(1720633573.866616) can0 041#01 R
(1720633573.866735) can0 016#1F R
(1720633573.866850) can0 015#01 R
(1720633573.866997) can0 017#01 R
(1720633573.867073) can0 056#01 R
(1720633573.891312) can0 00D#9DCA R
(1720633573.891441) can0 05B#9DCA R
(1720633573.891556) can0 014#01 R
(1720633573.891672) can0 008#01 R
(1720633573.891787) can0 055#01 R
(1720633573.891906) can0 05D#01 R
(1720633573.893145) can0 00E#7BCA R
(1720633573.894085) can0 015#01 R
(1720633573.894249) can0 05C#73CA73CA R
(1720633573.894362) can0 056#01 R
(1720633573.894496) can0 00E#73CA R
(1720633573.894658) can0 05C#73CA73CA R
(1720633573.894772) can0 016#1F R
(1720633573.895275) can0 016#1F R
(1720633573.895391) can0 041#01 R
(1720633573.916411) can0 00E#BAC9 R
(1720633573.916583) can0 05C#BAC9BAC9 R
(1720633573.916687) can0 041#01 R
(1720633573.916806) can0 016#1F R
(1720633573.916921) can0 015#01 R
(1720633573.917044) can0 017#01 R
(1720633573.917155) can0 056#01 R
(1720633573.921508) can0 007#01 R
(1720633573.951817) can0 00D#9BC8 R
(1720633573.952123) can0 05B#9BC8 R
(1720633573.952235) can0 014#01 R
(1720633573.952353) can0 008#01 R
(1720633573.952468) can0 055#01 R
(1720633573.952588) can0 05D#01 R
(1720633573.954727) can0 015#01 R
(1720633573.954890) can0 05C#79C879C8 R
(1720633573.955033) can0 056#01 R
(1720633573.955135) can0 00E#79C8 R
(1720633573.956009) can0 016#1F R
(1720633573.956103) can0 041#01 R
(1720633573.956264) can0 00E#71C8 R
(1720633573.956425) can0 05C#71C871C8 R
(1720633573.956547) can0 016#1F R
(1720633573.967150) can0 00E#13C8 R
(1720633573.967303) can0 05C#13C813C8 R
(1720633573.967422) can0 041#01 R
(1720633573.967535) can0 016#1F R
(1720633573.967652) can0 015#01 R
(1720633573.967769) can0 017#01 R
(1720633573.967885) can0 056#01 R
(1720633573.982368) can0 007#01 R
(1720633574.013794) can0 00D#93C6 R
(1720633574.013927) can0 05B#93C6 R
(1720633574.014038) can0 014#01 R
(1720633574.014158) can0 008#01 R
(1720633574.014271) can0 055#01 R
(1720633574.014390) can0 05D#01 R
(1720633574.016383) can0 015#01 R
(1720633574.016515) can0 00E#68C6 R
(1720633574.016679) can0 05C#68C667C6 R
(1720633574.016798) can0 041#01 R
(1720633574.016917) can0 016#1F R
(1720633574.017027) can0 015#01 R
(1720633574.017147) can0 017#01 R
(1720633574.017261) can0 056#01 R
(1720633574.017375) can0 016#1E R
(1720633574.017493) can0 041#01 R
(1720633574.017668) can0 05C#5FC65FC6 R
(1720633574.017778) can0 056#01 R
(1720633574.017919) can0 00E#5FC6 R
(1720633574.018052) can0 00E#5FC6 R
(1720633574.018218) can0 05C#5FC65FC6 R
(1720633574.018331) can0 016#1E R
(1720633574.043480) can0 007#01 R
(1720633574.066318) can0 00E#B8C4 R
(1720633574.066487) can0 05C#B7C4B7C4 R
(1720633574.066602) can0 041#01 R
(1720633574.066717) can0 016#1E R
(1720633574.066832) can0 015#01 R
(1720633574.066964) can0 017#01 R
(1720633574.067064) can0 056#01 R
(1720633574.074624) can0 00D#83C4 R
(1720633574.074752) can0 05B#83C4 R
(1720633574.074874) can0 014#01 R
(1720633574.075012) can0 008#01 R
(1720633574.075113) can0 055#01 R
(1720633574.075217) can0 05D#01 R
(1720633574.076533) can0 015#01 R
(1720633574.076646) can0 016#1E R
(1720633574.076764) can0 041#01 R
(1720633574.076896) can0 00E#61C4 R
(1720633574.077027) can0 00E#61C4 R
(1720633574.077621) can0 05C#58C458C4 R
(1720633574.077783) can0 05C#58C458C4 R
(1720633574.077894) can0 016#1E R
(1720633574.078564) can0 056#01 R
(1720633574.106511) can0 007#01 R
(1720633574.119555) can0 00E#E9C2 R
(1720633574.119723) can0 05C#E9C2E9C2 R
(1720633574.119839) can0 041#01 R
(1720633574.119948) can0 016#1E R
(1720633574.120067) can0 015#01 R
(1720633574.120181) can0 017#01 R
(1720633574.120297) can0 056#01 R
(1720633574.136575) can0 00D#65C2 R
(1720633574.136703) can0 05B#65C2 R
(1720633574.136819) can0 014#01 R
(1720633574.136933) can0 008#01 R
(1720633574.137051) can0 055#01 R
(1720633574.137167) can0 05D#01 R
(1720633574.138312) can0 00E#42C2 R
(1720633574.139197) can0 015#01 R
(1720633574.139308) can0 016#1E R
(1720633574.139430) can0 041#01 R
(1720633574.139598) can0 05C#39C239C2 R
(1720633574.139707) can0 056#01 R
(1720633574.139840) can0 00E#39C2 R
(1720633574.140002) can0 05C#39C239C2 R
(1720633574.140116) can0 016#1E R
(1720633574.166897) can0 007#01 R
(1720633574.169271) can0 00E#30C1 R
(1720633574.169433) can0 05C#30C130C1 R
(1720633574.169542) can0 041#01 R
(1720633574.169659) can0 016#1E R
(1720633574.169773) can0 015#01 R
(1720633574.169894) can0 017#01 R
(1720633574.170009) can0 056#01 R
(1720633574.197708) can0 00D#40C0 R
(1720633574.197839) can0 05B#40C0 R
(1720633574.197956) can0 014#01 R
(1720633574.198069) can0 008#01 R
(1720633574.198186) can0 055#01 R
(1720633574.198303) can0 05D#01 R
(1720633574.199797) can0 00E#25C0 R
(1720633574.200516) can0 015#01 R
(1720633574.200627) can0 016#1E R
(1720633574.200798) can0 05C#1CC01CC0 R
(1720633574.200911) can0 056#01 R
(1720633574.201048) can0 00E#1DC0 R
(1720633574.201216) can0 05C#1CC01CC0 R
(1720633574.201330) can0 016#1E R
(1720633574.201514) can0 041#01 R
(1720633574.219457) can0 00E#73BF R
(1720633574.219618) can0 05C#73BF73BF R
(1720633574.219737) can0 041#01 R
(1720633574.219850) can0 016#1D R
(1720633574.219965) can0 015#01 R
(1720633574.220085) can0 017#01 R
(1720633574.220200) can0 056#01 R
(1720633574.228712) can0 007#01 R
(1720633574.259248) can0 00D#1EBE R
(1720633574.259465) can0 05B#1EBE R
(1720633574.259578) can0 014#01 R
(1720633574.259695) can0 008#01 R
(1720633574.259810) can0 055#01 R
(1720633574.259929) can0 05D#01 R
(1720633574.262282) can0 05C#F1BDF1BD R
(1720633574.262394) can0 056#01 R
(1720633574.262905) can0 015#01 R
(1720633574.263004) can0 016#1D R
(1720633574.263136) can0 041#01 R
(1720633574.263267) can0 00E#E8BD R
(1720633574.263395) can0 00E#E8BD R
(1720633574.263559) can0 05C#E8BDE8BD R
(1720633574.263829) can0 016#1D R
(1720633574.268738) can0 00E#B2BD R
(1720633574.268903) can0 05C#B2BDB2BD R
(1720633574.269018) can0 041#01 R
(1720633574.269133) can0 016#1D R
(1720633574.269250) can0 015#01 R
(1720633574.269370) can0 017#01 R
(1720633574.269492) can0 056#01 R
(1720633574.290834) can0 007#01 R
(1720633574.319213) can0 00E#EDBB R
(1720633574.319382) can0 05C#EDBBEDBB R
(1720633574.319494) can0 041#01 R
(1720633574.319610) can0 016#1D R
(1720633574.319724) can0 015#01 R
(1720633574.319844) can0 017#01 R
(1720633574.319961) can0 056#01 R
(1720633574.321322) can0 00D#EDBB R
(1720633574.321454) can0 05B#EDBB R
(1720633574.321568) can0 014#01 R
(1720633574.321685) can0 008#01 R
(1720633574.321800) can0 055#01 R
(1720633574.321921) can0 05D#01 R
(1720633574.323246) can0 015#01 R
(1720633574.323379) can0 00E#C9BB R
(1720633574.323505) can0 00E#C9BB R
(1720633574.324251) can0 016#1D R
(1720633574.324366) can0 041#01 R
(1720633574.324535) can0 05C#C0BBBFBB R
(1720633574.324648) can0 056#01 R
(1720633574.324817) can0 05C#C0BBBFBB R
(1720633574.324927) can0 016#1D R
(1720633574.351866) can0 007#01 R
(1720633574.369035) can0 00E#24BA R
(1720633574.369200) can0 05C#24BA24BA R
(1720633574.369321) can0 041#01 R
(1720633574.369426) can0 016#1D R
(1720633574.369545) can0 015#01 R
(1720633574.369662) can0 017#01 R
(1720633574.369779) can0 056#01 R
(1720633574.382737) can0 00D#B6B9 R
(1720633574.382868) can0 05B#B6B9 R
(1720633574.383024) can0 014#01 R
(1720633574.383086) can0 008#01 R
(1720633574.383218) can0 055#01 R
(1720633574.383337) can0 05D#01 R
(1720633574.385574) can0 015#01 R
(1720633574.385702) can0 00E#91B9 R
(1720633574.386670) can0 016#1C R
(1720633574.386786) can0 041#01 R
(1720633574.386960) can0 05C#88B988B9 R
(1720633574.387065) can0 056#01 R
(1720633574.387195) can0 00E#88B9 R
(1720633574.387361) can0 05C#88B988B9 R
(1720633574.387471) can0 016#1C R
(1720633574.413191) can0 007#01 R
(1720633574.419469) can0 00E#58B8 R
(1720633574.419637) can0 05C#58B858B8 R
(1720633574.419749) can0 041#01 R
(1720633574.419867) can0 016#1C R
(1720633574.419983) can0 015#01 R
(1720633574.420100) can0 017#01 R
(1720633574.420219) can0 056#01 R
(1720633574.443556) can0 00D#8CB7 R
(1720633574.443689) can0 05B#8CB7 R
(1720633574.443865) can0 014#01 R
(1720633574.443974) can0 008#01 R
(1720633574.444093) can0 055#01 R
(1720633574.444208) can0 05D#01 R
(1720633574.445677) can0 015#01 R
(1720633574.445793) can0 016#1C R
(1720633574.445926) can0 00E#67B7 R
(1720633574.446870) can0 041#01 R
(1720633574.447033) can0 05C#5EB75EB7 R
(1720633574.447163) can0 00E#5EB7 R
(1720633574.447330) can0 05C#5EB75EB7 R
(1720633574.447440) can0 016#1C R
(1720633574.447561) can0 056#01 R
(1720633574.468995) can0 00E#88B6 R
(1720633574.469161) can0 05C#88B688B6 R
(1720633574.469280) can0 041#01 R
(1720633574.469388) can0 016#1C R
(1720633574.469506) can0 015#01 R
(1720633574.469624) can0 017#01 R
(1720633574.469739) can0 056#01 R
(1720633574.474230) can0 007#01 R
(1720633574.504722) can0 00D#4BB5 R
(1720633574.504954) can0 05B#4BB5 R
(1720633574.505069) can0 014#01 R
(1720633574.505185) can0 008#01 R
(1720633574.505301) can0 055#01 R
(1720633574.505421) can0 05D#01 R
(1720633574.507909) can0 05C#1CB51CB5 R
(1720633574.508044) can0 00E#1CB5 R
(1720633574.508173) can0 00E#1CB5 R
(1720633574.508336) can0 05C#1CB51CB5 R
(1720633574.508991) can0 015#01 R
(1720633574.509104) can0 016#1C R
(1720633574.509224) can0 041#01 R
(1720633574.509339) can0 056#01 R
(1720633574.509460) can0 016#1C R
(1720633574.519274) can0 00E#B5B4 R
(1720633574.519436) can0 05C#B5B4B5B4 R
(1720633574.519544) can0 041#01 R
(1720633574.519664) can0 016#1C R
(1720633574.519785) can0 015#01 R
(1720633574.519897) can0 017#01 R
(1720633574.520018) can0 056#01 R
(1720633574.535572) can0 007#01 R
(1720633574.565383) can0 00D#17B3 R
(1720633574.565514) can0 05B#17B3 R
(1720633574.565626) can0 014#01 R
(1720633574.565744) can0 008#01 R
(1720633574.565860) can0 055#01 R
(1720633574.565979) can0 05D#01 R
(1720633574.567181) can0 015#01 R
(1720633574.567296) can0 016#1B R
(1720633574.567429) can0 00E#F1B2 R
(1720633574.567562) can0 00E#F1B2 R
(1720633574.568166) can0 041#01 R
(1720633574.568329) can0 05C#E7B2E7B2 R
(1720633574.568443) can0 056#01 R
(1720633574.568613) can0 05C#E7B2E7B2 R
(1720633574.568724) can0 016#1B R
(1720633574.569134) can0 00E#DEB2 R
(1720633574.569285) can0 05C#DEB2DEB2 R
(1720633574.569403) can0 041#01 R
(1720633574.569519) can0 016#1B R
(1720633574.569636) can0 015#01 R
(1720633574.569760) can0 017#01 R
(1720633574.569870) can0 056#01 R
(1720633574.595227) can0 007#01 R
(1720633574.619058) can0 00E#04B1 R
(1720633574.619226) can0 05C#04B104B1 R
(1720633574.619336) can0 041#01 R
(1720633574.619460) can0 016#1B R
(1720633574.619571) can0 015#01 R
(1720633574.619690) can0 017#01 R
(1720633574.619807) can0 056#01 R
(1720633574.625241) can0 00D#DEB0 R
(1720633574.625370) can0 05B#DEB0 R
(1720633574.625488) can0 014#01 R
(1720633574.625600) can0 008#01 R
(1720633574.625721) can0 055#01 R
(1720633574.625834) can0 05D#01 R
(1720633574.628039) can0 015#01 R
(1720633574.628152) can0 016#1B R
(1720633574.628273) can0 041#01 R
(1720633574.628440) can0 05C#AEB0AEB0 R
(1720633574.628571) can0 00E#AFB0 R
(1720633574.629111) can0 056#01 R
(1720633574.629239) can0 00E#A5B0 R
(1720633574.629400) can0 05C#A5B0A5B0 R
(1720633574.629517) can0 016#1B R
(1720633574.656279) can0 007#01 R
(1720633574.669585) can0 00E#27AF R
(1720633574.669737) can0 05C#27AF27AF R
(1720633574.669853) can0 041#01 R
(1720633574.669971) can0 016#1B R
(1720633574.670087) can0 015#01 R
(1720633574.670204) can0 017#01 R
(1720633574.670321) can0 056#01 R
(1720633574.686451) can0 00D#97AE R
(1720633574.686586) can0 05B#97AE R
(1720633574.686699) can0 014#01 R
(1720633574.686814) can0 008#01 R
(1720633574.686931) can0 055#01 R
(1720633574.687052) can0 05D#01 R
(1720633574.689051) can0 00E#68AE R
(1720633574.690007) can0 015#01 R
(1720633574.690123) can0 016#1B R
(1720633574.690243) can0 041#01 R
(1720633574.690410) can0 05C#5EAE5EAE R
(1720633574.690522) can0 056#01 R
(1720633574.690657) can0 00E#5EAE R
(1720633574.690820) can0 05C#5EAE5EAE R
(1720633574.690951) can0 016#1B R
(1720633574.716293) can0 007#01 R
(1720633574.719344) can0 00E#47AD R
(1720633574.719505) can0 05C#47AD47AD R
(1720633574.719621) can0 041#01 R
(1720633574.719739) can0 016#1B R
(1720633574.719855) can0 015#01 R
(1720633574.719972) can0 017#01 R
(1720633574.720090) can0 056#01 R
(1720633574.746169) can0 00D#56AC R
(1720633574.746300) can0 05B#56AC R
(1720633574.746407) can0 014#01 R
(1720633574.746528) can0 008#01 R
(1720633574.746639) can0 055#01 R
(1720633574.746757) can0 05D#01 R
(1720633574.749323) can0 00E#26AC R
(1720633574.749450) can0 00E#26AC R
(1720633574.749621) can0 05C#26AC26AC R
(1720633574.750045) can0 015#01 R
(1720633574.750151) can0 016#1A R
(1720633574.750276) can0 041#01 R
(1720633574.750444) can0 05C#1CAC1CAC R
(1720633574.750555) can0 056#01 R
(1720633574.750671) can0 016#1A R
(1720633574.769634) can0 00E#64AB R
(1720633574.769782) can0 05C#64AB64AB R
(1720633574.769900) can0 041#01 R
(1720633574.770012) can0 016#1A R
(1720633574.770130) can0 015#01 R
(1720633574.770247) can0 017#01 R
(1720633574.770363) can0 056#01 R
(1720633574.777184) can0 007#01 R
(1720633574.808997) can0 00D#F4A9 R
(1720633574.809126) can0 05B#F4A9 R
(1720633574.809245) can0 014#01 R
(1720633574.809355) can0 008#01 R
(1720633574.809471) can0 055#01 R
(1720633574.809589) can0 05D#01 R
(1720633574.812017) can0 015#01 R
(1720633574.812123) can0 016#1A R
(1720633574.812287) can0 05C#CDA9CDA9 R
(1720633574.812405) can0 056#01 R
(1720633574.812536) can0 00E#CDA9 R
(1720633574.812673) can0 00E#CDA9 R
(1720633574.812787) can0 041#01 R
(1720633574.812952) can0 05C#C3A9C3A9 R
(1720633574.813062) can0 016#1A R
(1720633574.819246) can0 00E#7FA9 R
(1720633574.819413) can0 05C#7FA97FA9 R
(1720633574.819529) can0 041#01 R
(1720633574.819646) can0 016#1A R
(1720633574.819765) can0 015#01 R
(1720633574.819877) can0 017#01 R
(1720633574.819992) can0 056#01 R
(1720633574.840203) can0 007#01 R
(1720633574.868917) can0 00E#97A7 R
(1720633574.869068) can0 05C#97A796A7 R
(1720633574.869185) can0 041#01 R
(1720633574.869298) can0 016#1A R
(1720633574.869416) can0 015#01 R
(1720633574.869532) can0 017#01 R
(1720633574.869648) can0 056#01 R
(1720633574.871272) can0 00D#97A7 R
(1720633574.871403) can0 05B#97A7 R
(1720633574.871517) can0 014#01 R
(1720633574.871634) can0 008#01 R
(1720633574.871751) can0 055#01 R
(1720633574.871869) can0 05D#01 R
(1720633574.874031) can0 015#01 R
(1720633574.874141) can0 016#1A R
(1720633574.874276) can0 00E#66A7 R
(1720633574.875346) can0 041#01 R
(1720633574.875507) can0 05C#5CA75CA7 R
(1720633574.875624) can0 056#01 R
(1720633574.875753) can0 00E#5CA7 R
(1720633574.875919) can0 05C#5CA75CA7 R
(1720633574.876030) can0 016#1A R
(1720633574.901640) can0 007#01 R
(1720633574.918658) can0 00E#ACA5 R
(1720633574.918823) can0 05C#ACA5ACA5 R
(1720633574.918976) can0 041#01 R
(1720633574.919032) can0 016#19 R
(1720633574.919173) can0 015#01 R
(1720633574.919293) can0 017#01 R
(1720633574.919411) can0 056#01 R
(1720633574.933711) can0 00D#2CA5 R
(1720633574.933837) can0 05B#2CA5 R
(1720633574.933956) can0 014#01 R
(1720633574.934070) can0 008#01 R
(1720633574.934187) can0 055#01 R
(1720633574.934304) can0 05D#01 R
(1720633574.936257) can0 05C#04A504A5 R
(1720633574.936371) can0 056#01 R
(1720633574.936507) can0 00E#05A5 R
(1720633574.937377) can0 015#01 R
(1720633574.937489) can0 016#19 R
(1720633574.937609) can0 041#01 R
(1720633574.937743) can0 00E#FBA4 R
(1720633574.937910) can0 05C#FBA4FBA4 R
(1720633574.938026) can0 016#19 R
(1720633574.965502) can0 007#01 R
(1720633574.968385) can0 00E#BFA3 R
(1720633574.968551) can0 05C#BFA3BFA3 R
(1720633574.968668) can0 041#01 R
(1720633574.968783) can0 016#19 R
(1720633574.968900) can0 015#01 R
(1720633574.969017) can0 017#01 R
(1720633574.969134) can0 056#01 R
(1720633574.996841) can0 00D#BEA2 R
(1720633574.996966) can0 05B#BEA2 R
(1720633574.997072) can0 014#01 R
(1720633574.997188) can0 008#01 R
(1720633574.997304) can0 055#01 R
(1720633574.997423) can0 05D#01 R
(1720633575.000501) can0 015#01 R
(1720633575.000615) can0 016#19 R
(1720633575.000733) can0 041#01 R
(1720633575.000903) can0 05C#82A282A2 R
(1720633575.001013) can0 056#01 R
(1720633575.001151) can0 00E#82A2 R
(1720633575.001308) can0 00E#82A2 R
(1720633575.001451) can0 05C#82A282A2 R
(1720633575.001562) can0 016#19 R
(1720633575.019004) can0 00E#CFA1 R
(1720633575.019171) can0 05C#CFA1CFA1 R
(1720633575.019290) can0 041#01 R
(1720633575.019407) can0 016#19 R
(1720633575.019517) can0 015#01 R
(1720633575.019634) can0 017#01 R
(1720633575.019757) can0 056#01 R
(1720633575.028182) can0 007#01 R
(1720633575.058468) can0 00D#56A0 R
(1720633575.058600) can0 05B#56A0 R
(1720633575.058717) can0 014#01 R
(1720633575.058830) can0 008#01 R
(1720633575.058974) can0 055#01 R
(1720633575.059071) can0 05D#01 R
(1720633575.060966) can0 00E#2EA0 R
(1720633575.061094) can0 00E#2EA0 R
(1720633575.062084) can0 015#01 R
(1720633575.062194) can0 016#19 R
(1720633575.062315) can0 041#01 R
(1720633575.062486) can0 05C#24A024A0 R
(1720633575.062598) can0 056#01 R
(1720633575.062771) can0 05C#24A024A0 R
(1720633575.062880) can0 016#19 R
(1720633575.069133) can0 00E#DE9F R
(1720633575.069295) can0 05C#DE9FDE9F R
(1720633575.069410) can0 041#01 R
(1720633575.069528) can0 016#18 R
(1720633575.069643) can0 015#01 R
(1720633575.069764) can0 017#01 R
(1720633575.069883) can0 056#01 R
(1720633575.088900) can0 007#01 R
(1720633575.118590) can0 00E#EB9D R
(1720633575.118738) can0 05C#EA9DEA9D R
(1720633575.118861) can0 041#01 R
(1720633575.118995) can0 016#18 R
(1720633575.119095) can0 015#01 R
(1720633575.119205) can0 017#01 R
(1720633575.119322) can0 056#01 R
(1720633575.119698) can0 00D#F59D R
(1720633575.119826) can0 05B#F59D R
(1720633575.119942) can0 014#01 R
(1720633575.120057) can0 008#01 R
(1720633575.120172) can0 055#01 R
(1720633575.120290) can0 05D#01 R
(1720633575.122488) can0 015#01 R
(1720633575.122600) can0 016#18 R
(1720633575.122724) can0 041#01 R
(1720633575.122849) can0 00E#C29D R
(1720633575.123514) can0 05C#B89DB89D R
(1720633575.123624) can0 056#01 R
(1720633575.123761) can0 00E#B89D R
(1720633575.123922) can0 05C#B89DB89D R
(1720633575.124036) can0 016#18 R
(1720633575.149861) can0 007#01 R
(1720633575.168549) can0 00E#F59B R
(1720633575.168710) can0 05C#F59BF59B R
(1720633575.168829) can0 041#01 R
(1720633575.168945) can0 016#18 R
(1720633575.169061) can0 015#01 R
(1720633575.169179) can0 017#01 R
(1720633575.169295) can0 056#01 R
(1720633575.180236) can0 00D#9B9B R
(1720633575.180370) can0 05B#9B9B R
(1720633575.180485) can0 014#01 R
(1720633575.180600) can0 008#01 R
(1720633575.180716) can0 055#01 R
(1720633575.180834) can0 05D#01 R
(1720633575.182988) can0 015#01 R
(1720633575.183101) can0 016#18 R
(1720633575.183220) can0 041#01 R
(1720633575.183350) can0 00E#689B R
(1720633575.183851) can0 05C#5E9B5E9B R
(1720633575.183969) can0 056#01 R
(1720633575.184101) can0 00E#5E9B R
(1720633575.184260) can0 05C#5E9B5E9B R
(1720633575.184377) can0 016#18 R
(1720633575.210020) can0 007#01 R
(1720633575.218477) can0 00E#FE99 R
(1720633575.218643) can0 05C#FE99FE99 R
(1720633575.218762) can0 041#01 R
(1720633575.218876) can0 016#18 R
(1720633575.219018) can0 015#01 R
(1720633575.219112) can0 017#01 R
(1720633575.219228) can0 056#01 R
(1720633575.241573) can0 00D#2A99 R
(1720633575.241695) can0 05B#2A99 R
(1720633575.241812) can0 014#01 R
(1720633575.241929) can0 008#01 R
(1720633575.242046) can0 055#01 R
(1720633575.242167) can0 05D#01 R
(1720633575.244433) can0 015#01 R
(1720633575.244576) can0 00E#F898 R
(1720633575.244720) can0 00E#F898 R
(1720633575.244880) can0 05C#F898F898 R
(1720633575.245426) can0 016#17 R
(1720633575.245539) can0 041#01 R
(1720633575.245699) can0 05C#EE98EE98 R
(1720633575.245817) can0 056#01 R
(1720633575.245930) can0 016#17 R
(1720633575.268596) can0 00E#0598 R
(1720633575.268768) can0 05C#05980598 R
(1720633575.268878) can0 041#01 R
(1720633575.268995) can0 016#17 R
(1720633575.269109) can0 015#01 R
(1720633575.269228) can0 017#01 R
(1720633575.269345) can0 056#01 R
(1720633575.272565) can0 007#01 R
(1720633575.302850) can0 00D#C196 R
(1720633575.303010) can0 05B#C196 R
(1720633575.303104) can0 014#01 R
(1720633575.303213) can0 008#01 R
(1720633575.303330) can0 055#01 R
(1720633575.303448) can0 05D#01 R
(1720633575.304868) can0 015#01 R
(1720633575.304981) can0 016#17 R
(1720633575.305099) can0 041#01 R
(1720633575.305231) can0 00E#9996 R
(1720633575.305359) can0 00E#9996 R
(1720633575.305818) can0 05C#8F968F96 R
(1720633575.305990) can0 05C#8F968F96 R
(1720633575.306094) can0 016#17 R
(1720633575.306754) can0 056#01 R
(1720633575.318640) can0 00E#0B96 R
(1720633575.318789) can0 05C#0B960B96 R
(1720633575.318903) can0 041#01 R
(1720633575.319003) can0 016#17 R
(1720633575.319140) can0 015#01 R
(1720633575.319253) can0 017#01 R
(1720633575.319373) can0 056#01 R
(1720633575.333744) can0 007#01 R
(1720633575.364488) can0 00D#4C94 R
(1720633575.364620) can0 05B#4C94 R
(1720633575.364733) can0 014#01 R
(1720633575.364849) can0 008#01 R
(1720633575.364965) can0 055#01 R
(1720633575.365083) can0 05D#01 R
(1720633575.367318) can0 015#01 R
(1720633575.367486) can0 05C#19941994 R
(1720633575.367616) can0 00E#1994 R
(1720633575.368239) can0 016#17 R
(1720633575.368359) can0 041#01 R
(1720633575.368470) can0 056#01 R
(1720633575.368612) can0 00E#0F94 R
(1720633575.368780) can0 05C#0F940F94 R
(1720633575.368890) can0 016#17 R
(1720633575.369030) can0 00E#0F94 R
(1720633575.369201) can0 05C#0F940F94 R
(1720633575.369318) can0 041#01 R
(1720633575.369431) can0 016#17 R
(1720633575.369549) can0 015#01 R
(1720633575.369666) can0 017#01 R
(1720633575.369783) can0 056#01 R
(1720633575.395068) can0 007#01 R
(1720633575.418504) can0 00E#1292 R
(1720633575.418664) can0 05C#12921292 R
(1720633575.418783) can0 041#01 R
(1720633575.418896) can0 016#16 R
(1720633575.419027) can0 015#01 R
(1720633575.419127) can0 017#01 R
(1720633575.419249) can0 056#01 R
(1720633575.426141) can0 00D#DF91 R
(1720633575.426272) can0 05B#DF91 R
(1720633575.426388) can0 014#01 R
(1720633575.426503) can0 008#01 R
(1720633575.426618) can0 055#01 R
(1720633575.426737) can0 05D#01 R
(1720633575.428599) can0 05C#AC91AC91 R
(1720633575.428731) can0 00E#AC91 R
(1720633575.429499) can0 015#01 R
(1720633575.429611) can0 016#16 R
(1720633575.429730) can0 041#01 R
(1720633575.429846) can0 056#01 R
(1720633575.429976) can0 00E#A291 R
(1720633575.430144) can0 05C#A291A291 R
(1720633575.430254) can0 016#16 R
(1720633575.456091) can0 007#01 R
(1720633575.469313) can0 00E#1490 R
(1720633575.469479) can0 05C#14901490 R
(1720633575.469592) can0 041#01 R
(1720633575.469708) can0 016#16 R
(1720633575.469823) can0 015#01 R
(1720633575.469942) can0 017#01 R
(1720633575.470060) can0 056#01 R
(1720633575.485910) can0 00D#7B8F R
(1720633575.486038) can0 05B#7B8F R
(1720633575.486154) can0 014#01 R
(1720633575.486269) can0 008#01 R
(1720633575.486384) can0 055#01 R
(1720633575.486504) can0 05D#01 R
(1720633575.488733) can0 05C#488F488F R
(1720633575.488848) can0 056#01 R
(1720633575.489548) can0 015#01 R
(1720633575.489661) can0 016#16 R
(1720633575.489779) can0 041#01 R
(1720633575.489918) can0 00E#3E8F R
(1720633575.490080) can0 00E#3E8F R
(1720633575.490226) can0 05C#3E8F3E8F R
(1720633575.490509) can0 016#16 R
(1720633575.516388) can0 007#01 R
(1720633575.519106) can0 00E#158E R
(1720633575.519263) can0 05C#158E158E R
(1720633575.519376) can0 041#01 R
(1720633575.519491) can0 016#16 R
(1720633575.519606) can0 015#01 R
(1720633575.519724) can0 017#01 R
(1720633575.519839) can0 056#01 R
(1720633575.547729) can0 00D#018D R
(1720633575.547866) can0 05B#018D R
(1720633575.548106) can0 014#01 R
(1720633575.548218) can0 008#01 R
(1720633575.548335) can0 055#01 R
(1720633575.548452) can0 05D#01 R
(1720633575.550561) can0 015#01 R
(1720633575.550672) can0 016#16 R
(1720633575.550806) can0 00E#CD8C R
(1720633575.550965) can0 00E#CD8C R
(1720633575.551419) can0 041#01 R
(1720633575.551582) can0 05C#C38CC38C R
(1720633575.551696) can0 056#01 R
(1720633575.551868) can0 05C#C38CC38C R
(1720633575.551976) can0 016#15 R
(1720633575.570090) can0 00E#0B8C R
(1720633575.570258) can0 05C#0B8C0B8C R
(1720633575.570379) can0 041#01 R
(1720633575.570492) can0 016#15 R
(1720633575.570611) can0 015#01 R
(1720633575.570725) can0 017#01 R
(1720633575.570842) can0 056#01 R
(1720633575.578333) can0 007#01 R
(1720633575.609500) can0 00D#858A R
(1720633575.609629) can0 05B#858A R
(1720633575.609745) can0 014#01 R
(1720633575.609862) can0 008#01 R
(1720633575.609977) can0 055#01 R
(1720633575.610096) can0 05D#01 R
(1720633575.611617) can0 015#01 R
(1720633575.611736) can0 016#15 R
(1720633575.611852) can0 041#01 R
(1720633575.611987) can0 00E#5C8A R
(1720633575.612285) can0 05C#528A528A R
(1720633575.612416) can0 00E#528A R
(1720633575.612585) can0 05C#528A528A R
(1720633575.612692) can0 016#15 R
(1720633575.613372) can0 056#01 R
(1720633575.619377) can0 00E#0A8A R
(1720633575.619529) can0 05C#0A8A0A8A R
(1720633575.619645) can0 041#01 R
(1720633575.619760) can0 016#15 R
(1720633575.619876) can0 015#01 R
(1720633575.619995) can0 017#01 R
(1720633575.620113) can0 056#01 R
(1720633575.639925) can0 007#01 R
(1720633575.669840) can0 00D#1388 R
(1720633575.669973) can0 00E#0988 R
(1720633575.670106) can0 05B#1388 R
(1720633575.670218) can0 014#01 R
(1720633575.670337) can0 008#01 R
(1720633575.670451) can0 055#01 R
(1720633575.670623) can0 05C#09880888 R
(1720633575.670734) can0 041#01 R
(1720633575.670852) can0 016#15 R
(1720633575.670988) can0 015#01 R
(1720633575.671084) can0 017#01 R
(1720633575.671201) can0 056#01 R
(1720633575.671320) can0 05D#01 R
(1720633575.672854) can0 015#01 R
(1720633575.672969) can0 016#15 R
(1720633575.673136) can0 05C#EA87EA87 R
(1720633575.673250) can0 056#01 R
(1720633575.673385) can0 00E#EA87 R
(1720633575.673889) can0 041#01 R
(1720633575.674031) can0 00E#DF87 R
(1720633575.674191) can0 05C#DF87DF87 R
(1720633575.674309) can0 016#15 R
(1720633575.701535) can0 007#01 R
(1720633575.719402) can0 00E#0786 R
(1720633575.719561) can0 05C#07860786 R
(1720633575.719675) can0 041#01 R
(1720633575.719791) can0 016#14 R
(1720633575.719905) can0 015#01 R
(1720633575.720026) can0 017#01 R
(1720633575.720139) can0 056#01 R
(1720633575.733808) can0 00D#8B85 R
(1720633575.733938) can0 05B#8B85 R
(1720633575.734055) can0 014#01 R
(1720633575.734167) can0 008#01 R
(1720633575.734284) can0 055#01 R
(1720633575.734401) can0 05D#01 R
(1720633575.736370) can0 015#01 R
(1720633575.736486) can0 016#14 R
(1720633575.736591) can0 041#01 R
(1720633575.737349) can0 05C#4D854D85 R
(1720633575.737463) can0 056#01 R
(1720633575.737598) can0 00E#4E85 R
(1720633575.737733) can0 00E#4E85 R
(1720633575.737896) can0 05C#4D854D85 R
(1720633575.738220) can0 016#14 R
(1720633575.763889) can0 007#01 R
(1720633575.769094) can0 00E#0484 R
(1720633575.769262) can0 05C#04840484 R
(1720633575.769374) can0 041#01 R
(1720633575.769489) can0 016#14 R
(1720633575.769604) can0 015#01 R
(1720633575.769723) can0 017#01 R
(1720633575.769838) can0 056#01 R
(1720633575.794601) can0 00D#1883 R
(1720633575.794733) can0 05B#1883 R
(1720633575.794849) can0 014#01 R
(1720633575.794999) can0 008#01 R
(1720633575.795055) can0 055#01 R
(1720633575.795202) can0 05D#01 R
(1720633575.796589) can0 015#01 R
(1720633575.796700) can0 016#14 R
(1720633575.796819) can0 041#01 R
(1720633575.796952) can0 00E#EE82 R
(1720633575.797083) can0 00E#EE82 R
(1720633575.797446) can0 05C#E482E482 R
(1720633575.797557) can0 016#14 R
(1720633575.798452) can0 05C#DA82DA82 R
(1720633575.798565) can0 056#01 R
(1720633575.819980) can0 00E#0282 R
(1720633575.820128) can0 05C#02820282 R
(1720633575.820250) can0 041#01 R
(1720633575.820360) can0 016#14 R
(1720633575.820482) can0 015#01 R
(1720633575.820594) can0 017#01 R
(1720633575.820710) can0 056#01 R
(1720633575.826399) can0 007#01 R
(1720633575.856763) can0 00D#9980 R
(1720633575.856896) can0 05B#9980 R
(1720633575.857012) can0 014#01 R
(1720633575.857126) can0 008#01 R
(1720633575.857245) can0 055#01 R
(1720633575.857364) can0 05D#01 R
(1720633575.859527) can0 015#01 R
(1720633575.859660) can0 00E#6680 R
(1720633575.860722) can0 016#14 R
(1720633575.860834) can0 041#01 R
(1720633575.861002) can0 05C#5C805C80 R
(1720633575.861116) can0 056#01 R
(1720633575.861248) can0 00E#5C80 R
(1720633575.861418) can0 05C#5C805C80 R
(1720633575.861528) can0 016#14 R
(1720633575.869178) can0 00E#FF7F R
(1720633575.869353) can0 05C#FF7FFF7F R
(1720633575.869474) can0 041#00 R
(1720633575.869589) can0 016#14 R
(1720633575.869711) can0 015#00 R
(1720633575.869828) can0 017#00 R
(1720633575.869947) can0 056#00 R
(1720633575.887770) can0 007#00 R
(1720633575.917874) can0 00D#267E R
(1720633575.918003) can0 05B#267E R
(1720633575.918119) can0 014#00 R
(1720633575.918235) can0 008#00 R
(1720633575.918357) can0 055#00 R
(1720633575.918474) can0 05D#00 R
(1720633575.919626) can0 056#00 R
(1720633575.919760) can0 00E#FC7D R
(1720633575.919945) can0 05C#FC7DFC7D R
(1720633575.920049) can0 041#00 R
(1720633575.920169) can0 016#13 R
(1720633575.920287) can0 015#00 R
(1720633575.920405) can0 017#00 R
(1720633575.920524) can0 056#00 R
(1720633575.920786) can0 00E#F27D R
(1720633575.921621) can0 00E#E87D R
(1720633575.921788) can0 05C#E87DE87D R
(1720633575.921905) can0 016#13 R
(1720633575.922548) can0 015#00 R
(1720633575.922660) can0 016#13 R
(1720633575.922783) can0 041#00 R
(1720633575.923592) can0 05C#D37DD37D R
(1720633575.947728) can0 007#00 R
(1720633575.969885) can0 00E#FA7B R
(1720633575.970051) can0 05C#FA7BFA7B R
(1720633575.970176) can0 041#00 R
(1720633575.970284) can0 016#13 R
(1720633575.970409) can0 015#00 R
(1720633575.970520) can0 017#00 R
(1720633575.970641) can0 056#00 R
(1720633575.979316) can0 00D#A87B R
(1720633575.979445) can0 05B#A87B R
(1720633575.979740) can0 014#00 R
(1720633575.979855) can0 008#00 R
(1720633575.979976) can0 055#00 R
(1720633575.980094) can0 05D#00 R
(1720633575.982085) can0 056#00 R
(1720633575.982791) can0 015#00 R
(1720633575.982904) can0 016#13 R
(1720633575.983034) can0 041#00 R
(1720633575.983162) can0 00E#747B R
(1720633575.983293) can0 00E#747B R
(1720633575.983460) can0 05C#747B747B R
(1720633575.983872) can0 05C#6A7B6A7B R
(1720633575.983979) can0 016#13 R
(1720633576.009928) can0 007#00 R
(1720633576.019857) can0 00E#F879 R
(1720633576.020026) can0 05C#F779F779 R
(1720633576.020141) can0 041#00 R
(1720633576.020257) can0 016#13 R
(1720633576.020376) can0 015#00 R
(1720633576.020493) can0 017#00 R
(1720633576.020612) can0 056#00 R
(1720633576.040792) can0 00D#2A79 R
(1720633576.040921) can0 05B#2A79 R
(1720633576.041036) can0 014#00 R
(1720633576.041153) can0 008#00 R
(1720633576.041274) can0 055#00 R
(1720633576.041391) can0 05D#00 R
(1720633576.042826) can0 056#00 R
(1720633576.042983) can0 00E#0B79 R
(1720633576.043089) can0 00E#0B79 R
(1720633576.043603) can0 05C#01790179 R
(1720633576.043714) can0 016#12 R
(1720633576.044511) can0 015#00 R
(1720633576.045561) can0 016#12 R
(1720633576.045682) can0 041#00 R
(1720633576.045848) can0 05C#EC78EC78 R
(1720633576.069244) can0 00E#F677 R
(1720633576.069411) can0 05C#F677F677 R
(1720633576.069527) can0 041#00 R
(1720633576.069640) can0 016#12 R
(1720633576.069761) can0 015#00 R
(1720633576.069883) can0 017#00 R
(1720633576.069998) can0 056#00 R
(1720633576.071520) can0 007#00 R
(1720633576.102986) can0 00D#AD76 R
(1720633576.103092) can0 05B#AD76 R
(1720633576.103200) can0 014#00 R
(1720633576.103318) can0 008#00 R
(1720633576.103440) can0 055#00 R
(1720633576.103558) can0 05D#00 R
(1720633576.105058) can0 00E#8476 R
(1720633576.105958) can0 015#00 R
(1720633576.106128) can0 016#12 R
(1720633576.106247) can0 056#00 R
(1720633576.106378) can0 00E#7A76 R
(1720633576.106540) can0 05C#7A767A76 R
