(1720633659.068451) can0 00E#5913 R
(1720633659.068547) can0 05C#59135913 R
(1720633659.068680) can0 041#00 R
(1720633659.068814) can0 016#03 R
(1720633659.068930) can0 015#00 R
(1720633659.069029) can0 017#00 R
(1720633659.069152) can0 056#00 R
(1720633659.075147) can0 007#00 R
(1720633659.105326) can0 00D#9612 R
(1720633659.105451) can0 05B#9612 R
(1720633659.105822) can0 014#00 R
(1720633659.105935) can0 008#00 R
(1720633659.106062) can0 055#00 R
(1720633659.106175) can0 05D#00 R
(1720633659.108247) can0 056#00 R
(1720633659.108380) can0 00E#8112 R
(1720633659.108511) can0 00E#8112 R
(1720633659.109363) can0 015#00 R
(1720633659.109480) can0 016#02 R
(1720633659.109649) can0 05C#76127612 R
(1720633659.109761) can0 016#02 R
(1720633659.110343) can0 041#00 R
(1720633659.110505) can0 05C#71127112 R
(1720633659.117495) can0 00E#4C12 R
(1720633659.117653) can0 05C#4C124C12 R
(1720633659.117768) can0 041#00 R
(1720633659.117900) can0 016#02 R
(1720633659.118007) can0 015#00 R
(1720633659.118125) can0 017#00 R
(1720633659.118237) can0 056#00 R
(1720633659.135717) can0 007#00 R
(1720633659.166756) can0 00D#5611 R
(1720633659.166894) can0 05B#5611 R
(1720633659.167008) can0 014#00 R
(1720633659.167126) can0 008#00 R
(1720633659.167243) can0 055#00 R
(1720633659.167364) can0 05D#00 R
(1720633659.167903) can0 00E#4611 R
(1720633659.168065) can0 05C#46114611 R
(1720633659.168192) can0 041#00 R
(1720633659.168303) can0 016#02 R
(1720633659.168424) can0 015#00 R
(1720633659.168540) can0 017#00 R
(1720633659.168660) can0 056#00 R
(1720633659.168792) can0 00E#4111 R
(1720633659.169638) can0 015#00 R
(1720633659.169755) can0 016#02 R
(1720633659.169875) can0 056#00 R
(1720633659.170009) can0 00E#3C11 R
(1720633659.170175) can0 05C#3C113C11 R
(1720633659.170292) can0 016#02 R
(1720633659.170570) can0 041#00 R
(1720633659.170732) can0 05C#37113711 R
(1720633659.197650) can0 007#00 R
(1720633659.218106) can0 00E#4710 R
(1720633659.218260) can0 05C#47104710 R
(1720633659.218380) can0 041#00 R
(1720633659.218487) can0 016#02 R
(1720633659.218607) can0 015#00 R
(1720633659.218723) can0 017#00 R
(1720633659.218843) can0 056#00 R
(1720633659.228799) can0 00D#1A10 R
(1720633659.228933) can0 05B#1A10 R
(1720633659.229044) can0 014#00 R
(1720633659.229163) can0 008#00 R
(1720633659.229289) can0 055#00 R
(1720633659.229401) can0 05D#00 R
(1720633659.230809) can0 00E#0610 R
(1720633659.231642) can0 015#00 R
(1720633659.231757) can0 016#02 R
(1720633659.231877) can0 056#00 R
(1720633659.232011) can0 00E#0110 R
(1720633659.232178) can0 05C#01100110 R
(1720633659.232297) can0 016#02 R
(1720633659.232755) can0 041#00 R
(1720633659.232929) can0 05C#FC0FFC0F R
(1720633659.259781) can0 007#00 R
(1720633659.270998) can0 00E#410F R
(1720633659.271172) can0 05C#410F410F R
(1720633659.271289) can0 041#00 R
(1720633659.271405) can0 016#02 R
(1720633659.271524) can0 015#00 R
(1720633659.271645) can0 017#00 R
(1720633659.271760) can0 056#00 R
(1720633659.291254) can0 00D#EA0E R
(1720633659.291386) can0 05B#EA0E R
(1720633659.291504) can0 014#00 R
(1720633659.291618) can0 008#00 R
(1720633659.291741) can0 055#00 R
(1720633659.291856) can0 05D#00 R
(1720633659.293964) can0 056#00 R
(1720633659.294933) can0 015#00 R
(1720633659.295074) can0 00E#CD0E R
(1720633659.295200) can0 00E#CD0E R
(1720633659.295363) can0 05C#CD0ECD0E R
(1720633659.295821) can0 016#02 R
(1720633659.295939) can0 041#00 R
(1720633659.296104) can0 05C#C80EC80E R
(1720633659.296223) can0 016#02 R
(1720633659.321348) can0 007#00 R
(1720633659.321476) can0 00E#4C0E R
(1720633659.321635) can0 05C#4C0E4C0E R
(1720633659.321753) can0 041#00 R
(1720633659.321872) can0 016#02 R
(1720633659.321990) can0 015#00 R
(1720633659.322106) can0 017#00 R
(1720633659.322231) can0 056#00 R
(1720633659.353437) can0 00D#C40D R
(1720633659.353567) can0 05B#C40D R
(1720633659.353685) can0 014#00 R
(1720633659.353803) can0 008#00 R
(1720633659.353929) can0 055#00 R
(1720633659.354041) can0 05D#00 R
(1720633659.356132) can0 056#00 R
(1720633659.356260) can0 00E#AD0D R
(1720633659.356392) can0 00E#AD0D R
(1720633659.356947) can0 015#00 R
(1720633659.357111) can0 05C#A90DA90D R
(1720633659.357231) can0 016#02 R
(1720633659.357863) can0 016#02 R
(1720633659.357988) can0 041#00 R
(1720633659.358155) can0 05C#A40DA40D R
(1720633659.372339) can0 00E#630D R
(1720633659.372496) can0 05C#630D630D R
(1720633659.372614) can0 041#00 R
(1720633659.372732) can0 016#02 R
(1720633659.372849) can0 015#00 R
(1720633659.372972) can0 017#00 R
(1720633659.373085) can0 056#00 R
(1720633659.383841) can0 007#00 R
(1720633659.414445) can0 00D#AA0C R
(1720633659.414578) can0 05B#AA0C R
(1720633659.414692) can0 014#00 R
(1720633659.414833) can0 008#00 R
(1720633659.414978) can0 055#00 R
(1720633659.415042) can0 05D#00 R
(1720633659.416421) can0 00E#9D0C R
(1720633659.417254) can0 056#00 R
(1720633659.417385) can0 00E#980C R
(1720633659.417555) can0 05C#980C980C R
(1720633659.417666) can0 016#01 R
(1720633659.418400) can0 015#00 R
(1720633659.418523) can0 016#01 R
(1720633659.419342) can0 041#00 R
(1720633659.419504) can0 05C#8F0C8F0C R
(1720633659.422566) can0 00E#820C R
(1720633659.422725) can0 05C#820C820C R
(1720633659.422846) can0 041#00 R
(1720633659.422991) can0 016#01 R
(1720633659.423070) can0 015#00 R
(1720633659.423201) can0 017#00 R
(1720633659.423317) can0 056#00 R
(1720633659.445444) can0 007#00 R
(1720633659.471650) can0 00E#A80B R
(1720633659.471817) can0 05C#A80BA80B R
(1720633659.471936) can0 041#00 R
(1720633659.472058) can0 016#01 R
(1720633659.472172) can0 015#00 R
(1720633659.472291) can0 017#00 R
(1720633659.472408) can0 056#00 R
(1720633659.476007) can0 00D#9F0B R
(1720633659.476140) can0 05B#9F0B R
(1720633659.476262) can0 014#00 R
(1720633659.476373) can0 008#00 R
(1720633659.476498) can0 055#00 R
(1720633659.476614) can0 05D#00 R
(1720633659.477959) can0 00E#8E0B R
(1720633659.478752) can0 056#00 R
(1720633659.478889) can0 00E#8A0B R
(1720633659.479055) can0 05C#8A0B8A0B R
(1720633659.479174) can0 016#01 R
(1720633659.480926) can0 015#00 R
(1720633659.481041) can0 016#01 R
(1720633659.481165) can0 041#00 R
(1720633659.481910) can0 05C#7D0B7D0B R
(1720633659.505921) can0 007#00 R
(1720633659.521999) can0 00E#D50A R
(1720633659.522160) can0 05C#D50AD50A R
(1720633659.522284) can0 041#00 R
(1720633659.522398) can0 016#01 R
(1720633659.522521) can0 015#00 R
(1720633659.522646) can0 017#00 R
(1720633659.522759) can0 056#00 R
(1720633659.537059) can0 00D#9F0A R
(1720633659.537191) can0 05B#9F0A R
(1720633659.537306) can0 014#00 R
(1720633659.537424) can0 008#00 R
(1720633659.537544) can0 055#00 R
(1720633659.537663) can0 05D#00 R
(1720633659.538866) can0 056#00 R
(1720633659.539813) can0 00E#8B0A R
(1720633659.539943) can0 00E#8B0A R
(1720633659.540109) can0 05C#8B0A8B0A R
(1720633659.540682) can0 015#00 R
(1720633659.540806) can0 016#01 R
(1720633659.540921) can0 041#00 R
(1720633659.541041) can0 016#01 R
(1720633659.541791) can0 05C#820A820A R
(1720633659.567309) can0 007#00 R
(1720633659.572307) can0 00E#090A R
(1720633659.572474) can0 05C#090A090A R
(1720633659.572595) can0 041#00 R
(1720633659.572711) can0 016#01 R
(1720633659.572831) can0 015#00 R
(1720633659.572947) can0 017#00 R
(1720633659.573067) can0 056#00 R
(1720633659.598050) can0 00D#AA09 R
(1720633659.598183) can0 05B#AA09 R
(1720633659.598305) can0 014#00 R
(1720633659.598419) can0 008#00 R
(1720633659.598543) can0 055#00 R
(1720633659.598658) can0 05D#00 R
(1720633659.599978) can0 056#00 R
(1720633659.600113) can0 00E#9A09 R
(1720633659.600249) can0 00E#9A09 R
(1720633659.601058) can0 015#00 R
(1720633659.601179) can0 016#01 R
(1720633659.601337) can0 05C#97099709 R
(1720633659.601450) can0 016#01 R
(1720633659.602185) can0 041#00 R
(1720633659.602348) can0 05C#93099309 R
(1720633659.622382) can0 00E#4509 R
(1720633659.622541) can0 05C#45094509 R
(1720633659.622667) can0 041#00 R
(1720633659.622778) can0 016#01 R
(1720633659.622933) can0 015#00 R
(1720633659.623021) can0 017#00 R
(1720633659.623139) can0 056#00 R
(1720633659.627915) can0 007#00 R
(1720633659.659384) can0 00D#C008 R
(1720633659.659516) can0 05B#C008 R
(1720633659.659631) can0 014#00 R
(1720633659.659748) can0 008#00 R
(1720633659.659871) can0 055#00 R
(1720633659.659989) can0 05D#00 R
(1720633659.661163) can0 056#00 R
(1720633659.661998) can0 00E#AE08 R
(1720633659.663115) can0 00E#AA08 R
(1720633659.663281) can0 05C#AA08AA08 R
(1720633659.663403) can0 016#01 R
(1720633659.663991) can0 015#00 R
(1720633659.664109) can0 016#01 R
(1720633659.664237) can0 041#00 R
(1720633659.664401) can0 05C#A608A608 R
(1720633659.672582) can0 00E#8908 R
(1720633659.672741) can0 05C#89088908 R
(1720633659.672866) can0 041#00 R
(1720633659.672979) can0 016#01 R
(1720633659.673103) can0 015#00 R
(1720633659.673216) can0 017#00 R
(1720633659.673339) can0 056#00 R
(1720633659.689805) can0 007#00 R
(1720633659.720925) can0 00D#DE07 R
(1720633659.721056) can0 05B#DE07 R
(1720633659.721171) can0 014#00 R
(1720633659.721289) can0 008#00 R
(1720633659.721411) can0 055#00 R
(1720633659.721532) can0 05D#00 R
(1720633659.722907) can0 056#00 R
(1720633659.723029) can0 00E#D407 R
(1720633659.723201) can0 05C#D407D407 R
(1720633659.723321) can0 041#00 R
(1720633659.723437) can0 016#01 R
(1720633659.723557) can0 015#00 R
(1720633659.723673) can0 017#00 R
(1720633659.723793) can0 056#00 R
(1720633659.723926) can0 00E#D007 R
(1720633659.724634) can0 015#00 R
(1720633659.724771) can0 00E#CC07 R
(1720633659.724939) can0 05C#CC07CC07 R
(1720633659.725053) can0 016#01 R
(1720633659.725660) can0 016#01 R
(1720633659.725787) can0 041#00 R
(1720633659.725954) can0 05C#C907C907 R
(1720633659.751745) can0 007#00 R
(1720633659.771884) can0 00E#2607 R
(1720633659.772052) can0 05C#26072607 R
(1720633659.772174) can0 041#00 R
(1720633659.772289) can0 016#01 R
(1720633659.772409) can0 015#00 R
(1720633659.772525) can0 017#00 R
(1720633659.772648) can0 056#00 R
(1720633659.782337) can0 00D#0B07 R
(1720633659.782478) can0 05B#0B07 R
(1720633659.782591) can0 014#00 R
(1720633659.782712) can0 008#00 R
(1720633659.782831) can0 055#00 R
(1720633659.782966) can0 05D#00 R
(1720633659.785320) can0 015#00 R
(1720633659.785435) can0 056#00 R
(1720633659.785573) can0 00E#FA06 R
(1720633659.785703) can0 00E#FA06 R
(1720633659.785873) can0 05C#FA06FA06 R
(1720633659.786185) can0 016#01 R
(1720633659.786303) can0 041#00 R
(1720633659.786469) can0 05C#F706F706 R
(1720633659.786589) can0 016#01 R
(1720633659.813688) can0 007#00 R
(1720633659.823572) can0 00E#7D06 R
(1720633659.823738) can0 05C#7D067D06 R
(1720633659.823854) can0 041#00 R
(1720633659.823974) can0 016#01 R
(1720633659.824089) can0 015#00 R
(1720633659.824211) can0 017#00 R
(1720633659.824325) can0 056#00 R
(1720633659.843339) can0 00D#4306 R
(1720633659.843469) can0 05B#4306 R
(1720633659.843591) can0 014#00 R
(1720633659.843703) can0 008#00 R
(1720633659.843825) can0 055#00 R
(1720633659.843941) can0 05D#00 R
(1720633659.845189) can0 00E#3706 R
(1720633659.845321) can0 00E#3706 R
(1720633659.846167) can0 015#00 R
(1720633659.846284) can0 016#00 R
(1720633659.846404) can0 056#00 R
(1720633659.846578) can0 05C#33063306 R
(1720633659.846688) can0 016#00 R
(1720633659.847159) can0 041#00 R
(1720633659.847328) can0 05C#30063006 R
(1720633659.873210) can0 00E#DF05 R
(1720633659.873323) can0 007#00 R
(1720633659.873488) can0 05C#DF05DF05 R
(1720633659.873614) can0 041#00 R
(1720633659.873726) can0 016#00 R
(1720633659.873849) can0 015#00 R
(1720633659.873962) can0 017#00 R
(1720633659.874086) can0 056#00 R
(1720633659.905226) can0 00D#8405 R
(1720633659.905353) can0 05B#8405 R
(1720633659.905471) can0 014#00 R
(1720633659.905587) can0 008#00 R
(1720633659.905710) can0 055#00 R
(1720633659.905825) can0 05D#00 R
(1720633659.907104) can0 00E#7805 R
(1720633659.907852) can0 056#00 R
(1720633659.907983) can0 00E#7505 R
(1720633659.908219) can0 05C#75057505 R
(1720633659.908337) can0 016#00 R
(1720633659.909054) can0 015#00 R
(1720633659.909172) can0 016#00 R
(1720633659.909300) can0 041#00 R
(1720633659.910077) can0 05C#6F056F05 R
(1720633659.923228) can0 00E#4905 R
(1720633659.923396) can0 05C#49054905 R
(1720633659.923518) can0 041#00 R
(1720633659.923649) can0 016#00 R
(1720633659.923753) can0 015#00 R
(1720633659.923875) can0 017#00 R
(1720633659.923993) can0 056#00 R
(1720633659.935793) can0 007#00 R
(1720633659.967233) can0 00D#D104 R
(1720633659.967342) can0 05B#D104 R
(1720633659.967456) can0 014#00 R
(1720633659.967579) can0 008#00 R
(1720633659.967695) can0 055#00 R
(1720633659.967818) can0 05D#00 R
(1720633659.969431) can0 056#00 R
(1720633659.969567) can0 00E#C504 R
(1720633659.970779) can0 015#00 R
(1720633659.970897) can0 016#00 R
(1720633659.971032) can0 00E#C304 R
(1720633659.971199) can0 05C#C304C304 R
(1720633659.971313) can0 016#00 R
(1720633659.971614) can0 041#00 R
(1720633659.971787) can0 05C#C004C004 R
(1720633659.973635) can0 00E#BA04 R
(1720633659.973801) can0 05C#BA04BA04 R
(1720633659.973924) can0 041#00 R
(1720633659.974039) can0 016#00 R
(1720633659.974159) can0 015#00 R
(1720633659.974276) can0 017#00 R
(1720633659.974396) can0 056#00 R
(1720633659.998407) can0 007#00 R
(1720633660.023180) can0 00E#3404 R
(1720633660.023359) can0 05C#34043404 R
(1720633660.023467) can0 041#00 R
(1720633660.023585) can0 016#00 R
(1720633660.023701) can0 015#00 R
(1720633660.023816) can0 017#00 R
(1720633660.023942) can0 056#00 R
(1720633660.029294) can0 00D#2904 R
(1720633660.029426) can0 05B#2904 R
(1720633660.029542) can0 014#00 R
(1720633660.029661) can0 008#00 R
(1720633660.029780) can0 055#00 R
(1720633660.029899) can0 05D#00 R
(1720633660.032220) can0 056#00 R
(1720633660.032901) can0 015#00 R
(1720633660.033019) can0 016#00 R
(1720633660.033151) can0 00E#1A04 R
(1720633660.033286) can0 00E#1A04 R
(1720633660.033464) can0 05C#1A041A04 R
(1720633660.034036) can0 041#00 R
(1720633660.034207) can0 05C#17041704 R
(1720633660.034323) can0 016#00 R
(1720633660.059822) can0 007#00 R
(1720633660.073189) can0 00E#B503 R
(1720633660.073360) can0 05C#B503B503 R
(1720633660.073479) can0 041#00 R
(1720633660.073600) can0 016#00 R
(1720633660.073715) can0 015#00 R
(1720633660.073836) can0 017#00 R
(1720633660.073951) can0 056#00 R
(1720633660.090764) can0 00D#9003 R
(1720633660.090899) can0 05B#9003 R
(1720633660.091015) can0 014#00 R
(1720633660.091133) can0 008#00 R
(1720633660.091256) can0 055#00 R
(1720633660.091371) can0 05D#00 R
(1720633660.093440) can0 056#00 R
(1720633660.093574) can0 00E#8403 R
(1720633660.093709) can0 00E#8403 R
(1720633660.094160) can0 015#00 R
(1720633660.094330) can0 05C#82038203 R
(1720633660.094443) can0 016#00 R
(1720633660.095229) can0 016#00 R
(1720633660.095353) can0 041#00 R
(1720633660.095526) can0 05C#7F037F03 R
(1720633660.121181) can0 007#00 R
(1720633660.123074) can0 00E#3E03 R
(1720633660.123245) can0 05C#3E033E03 R
(1720633660.123370) can0 041#00 R
(1720633660.123482) can0 016#00 R
(1720633660.123606) can0 015#00 R
(1720633660.123719) can0 017#00 R
(1720633660.123842) can0 056#00 R
(1720633660.152561) can0 00D#0103 R
(1720633660.152700) can0 05B#0103 R
(1720633660.152812) can0 014#00 R
(1720633660.152934) can0 008#00 R
(1720633660.153051) can0 055#00 R
(1720633660.153172) can0 05D#00 R
(1720633660.155224) can0 056#00 R
(1720633660.155355) can0 00E#F602 R
(1720633660.156212) can0 015#00 R
(1720633660.156351) can0 00E#F302 R
(1720633660.156517) can0 05C#F302F302 R
(1720633660.156630) can0 016#00 R
(1720633660.156988) can0 016#00 R
(1720633660.157113) can0 041#00 R
(1720633660.157281) can0 05C#F102F102 R
(1720633660.173646) can0 00E#CE02 R
(1720633660.173809) can0 05C#CE02CE02 R
(1720633660.173934) can0 041#00 R
(1720633660.174049) can0 016#00 R
(1720633660.174172) can0 015#00 R
(1720633660.174285) can0 017#00 R
(1720633660.174408) can0 056#00 R
(1720633660.184109) can0 007#00 R
(1720633660.214720) can0 00D#7D02 R
(1720633660.214856) can0 05B#7D02 R
(1720633660.214997) can0 014#00 R
(1720633660.215088) can0 008#00 R
(1720633660.215208) can0 055#00 R
(1720633660.215328) can0 05D#00 R
(1720633660.216619) can0 056#00 R
(1720633660.217447) can0 00E#7302 R
(1720633660.218754) can0 00E#7102 R
(1720633660.218919) can0 05C#71027102 R
(1720633660.219036) can0 016#00 R
(1720633660.219507) can0 015#00 R
(1720633660.219620) can0 016#00 R
(1720633660.219746) can0 041#00 R
(1720633660.220623) can0 05C#6D026D02 R
(1720633660.223680) can0 00E#6702 R
(1720633660.223849) can0 05C#67026702 R
(1720633660.223972) can0 041#00 R
(1720633660.224084) can0 016#00 R
(1720633660.224207) can0 015#00 R
(1720633660.224322) can0 017#00 R
(1720633660.224444) can0 056#00 R
(1720633660.244948) can0 007#00 R
(1720633660.273813) can0 00E#0802 R
(1720633660.273987) can0 05C#08020802 R
(1720633660.274105) can0 041#00 R
(1720633660.274228) can0 016#00 R
(1720633660.274342) can0 015#00 R
(1720633660.274462) can0 017#00 R
(1720633660.274580) can0 056#00 R
(1720633660.274795) can0 00D#0A02 R
(1720633660.274928) can0 05B#0A02 R
(1720633660.275053) can0 014#00 R
(1720633660.275165) can0 008#00 R
(1720633660.275289) can0 055#00 R
(1720633660.275402) can0 05D#00 R
(1720633660.276029) can0 056#00 R
(1720633660.278019) can0 00E#0102 R
(1720633660.278155) can0 00E#0102 R
(1720633660.278324) can0 05C#01020102 R
(1720633660.278740) can0 015#00 R
(1720633660.278861) can0 016#00 R
(1720633660.278981) can0 041#00 R
(1720633660.279153) can0 05C#FF01FF01 R
(1720633660.279267) can0 016#00 R
(1720633660.304735) can0 007#00 R
(1720633660.323857) can0 00E#B001 R
(1720633660.324027) can0 05C#B001B001 R
(1720633660.324165) can0 041#00 R
(1720633660.324263) can0 016#00 R
(1720633660.324386) can0 015#00 R
(1720633660.324501) can0 017#00 R
(1720633660.324620) can0 056#00 R
(1720633660.335179) can0 00D#A001 R
(1720633660.335312) can0 05B#A001 R
(1720633660.335448) can0 014#00 R
(1720633660.335549) can0 008#00 R
(1720633660.335667) can0 055#00 R
(1720633660.335789) can0 05D#00 R
(1720633660.337851) can0 056#00 R
(1720633660.337985) can0 00E#9901 R
(1720633660.338115) can0 00E#9901 R
(1720633660.338761) can0 015#00 R
(1720633660.338875) can0 016#00 R
(1720633660.339003) can0 041#00 R
(1720633660.339170) can0 05C#98019801 R
(1720633660.339293) can0 016#00 R
(1720633660.339765) can0 05C#96019601 R
(1720633660.365891) can0 007#00 R
(1720633660.373906) can0 00E#6101 R
(1720633660.374072) can0 05C#61016101 R
(1720633660.374196) can0 041#00 R
(1720633660.374309) can0 016#00 R
(1720633660.374433) can0 015#00 R
(1720633660.374545) can0 017#00 R
(1720633660.374668) can0 056#00 R
(1720633660.396481) can0 00D#4201 R
(1720633660.396613) can0 05B#4201 R
(1720633660.396728) can0 014#00 R
(1720633660.396845) can0 008#00 R
(1720633660.396967) can0 055#00 R
(1720633660.397083) can0 05D#00 R
(1720633660.398568) can0 00E#3C01 R
(1720633660.399341) can0 015#00 R
(1720633660.399457) can0 016#00 R
(1720633660.399583) can0 056#00 R
(1720633660.399711) can0 00E#3B01 R
(1720633660.399880) can0 05C#3B013B01 R
(1720633660.399992) can0 016#00 R
(1720633660.400334) can0 041#00 R
(1720633660.400505) can0 05C#39013901 R
(1720633660.423648) can0 00E#1A01 R
(1720633660.423815) can0 05C#1A011A01 R
(1720633660.423940) can0 041#00 R
(1720633660.424053) can0 016#00 R
(1720633660.424176) can0 015#00 R
(1720633660.424289) can0 017#00 R
(1720633660.424415) can0 056#00 R
(1720633660.427952) can0 007#00 R
(1720633660.458484) can0 00D#EF00 R
(1720633660.458618) can0 05B#EF00 R
(1720633660.458731) can0 014#00 R
(1720633660.458855) can0 008#00 R
(1720633660.458994) can0 055#00 R
(1720633660.459092) can0 05D#00 R
(1720633660.461114) can0 00E#EA00 R
(1720633660.462097) can0 056#00 R
(1720633660.462237) can0 00E#E900 R
(1720633660.462402) can0 05C#E900E900 R
(1720633660.462524) can0 016#00 R
(1720633660.463176) can0 015#00 R
(1720633660.463295) can0 016#00 R
(1720633660.463417) can0 041#00 R
(1720633660.463587) can0 05C#E700E700 R
(1720633660.473889) can0 00E#DA00 R
(1720633660.474054) can0 05C#DA00DA00 R
(1720633660.474179) can0 041#00 R
(1720633660.474292) can0 016#00 R
(1720633660.474414) can0 015#00 R
(1720633660.474528) can0 017#00 R
(1720633660.474653) can0 056#00 R
(1720633660.488929) can0 007#00 R
(1720633660.520194) can0 00D#A800 R
(1720633660.520332) can0 05B#A800 R
(1720633660.520441) can0 014#00 R
(1720633660.520565) can0 008#00 R
(1720633660.520679) can0 055#00 R
(1720633660.520805) can0 05D#00 R
(1720633660.523137) can0 056#00 R
(1720633660.523787) can0 00E#A300 R
(1720633660.523925) can0 00E#A300 R
(1720633660.524089) can0 05C#A300A300 R
(1720633660.524226) can0 00E#A300 R
(1720633660.524392) can0 05C#A300A300 R
(1720633660.524515) can0 041#00 R
(1720633660.524630) can0 016#00 R
(1720633660.524750) can0 015#00 R
(1720633660.524866) can0 017#00 R
(1720633660.524986) can0 056#00 R
(1720633660.525107) can0 015#00 R
(1720633660.525229) can0 016#00 R
(1720633660.525345) can0 041#00 R
(1720633660.525513) can0 05C#A200A200 R
(1720633660.525629) can0 016#00 R
(1720633660.550896) can0 007#00 R
(1720633660.575009) can0 00E#7300 R
(1720633660.575171) can0 05C#73007300 R
(1720633660.575297) can0 041#00 R
(1720633660.575409) can0 016#00 R
(1720633660.575532) can0 015#00 R
(1720633660.575663) can0 017#00 R
(1720633660.575788) can0 056#00 R
(1720633660.580931) can0 00D#6F00 R
(1720633660.581066) can0 05B#6F00 R
(1720633660.581189) can0 014#00 R
(1720633660.581300) can0 008#00 R
(1720633660.581423) can0 055#00 R
(1720633660.581538) can0 05D#00 R
(1720633660.583793) can0 056#00 R
(1720633660.583912) can0 00E#6B00 R
(1720633660.584045) can0 00E#6B00 R
(1720633660.584559) can0 015#00 R
(1720633660.584727) can0 05C#6A006A00 R
(1720633660.584846) can0 016#00 R
(1720633660.585491) can0 016#00 R
(1720633660.585617) can0 041#00 R
(1720633660.585782) can0 05C#69006900 R
(1720633660.612123) can0 007#00 R
(1720633660.624587) can0 00E#4C00 R
(1720633660.624747) can0 05C#4C004C00 R
(1720633660.624865) can0 041#00 R
(1720633660.624981) can0 016#00 R
(1720633660.625101) can0 015#00 R
(1720633660.625217) can0 017#00 R
(1720633660.625337) can0 056#00 R
(1720633660.643641) can0 00D#4000 R
(1720633660.643772) can0 05B#4000 R
(1720633660.643895) can0 014#00 R
(1720633660.644006) can0 008#00 R
(1720633660.644130) can0 055#00 R
(1720633660.644247) can0 05D#00 R
(1720633660.645764) can0 056#00 R
(1720633660.645900) can0 00E#3E00 R
(1720633660.646739) can0 00E#3D00 R
(1720633660.646911) can0 05C#3D003D00 R
(1720633660.647038) can0 016#00 R
(1720633660.647576) can0 015#00 R
(1720633660.648464) can0 016#00 R
(1720633660.648586) can0 041#00 R
(1720633660.648756) can0 05C#3C003C00 R
(1720633660.674736) can0 007#00 R
(1720633660.676355) can0 00E#2C00 R
(1720633660.676524) can0 05C#2C002C00 R
(1720633660.676649) can0 041#00 R
(1720633660.676761) can0 016#00 R
(1720633660.676885) can0 015#00 R
(1720633660.676998) can0 017#00 R
(1720633660.677122) can0 056#00 R
(1720633660.704979) can0 00D#1F00 R
(1720633660.705109) can0 05B#1F00 R
(1720633660.705226) can0 014#00 R
(1720633660.705351) can0 008#00 R
(1720633660.705463) can0 055#00 R
(1720633660.705587) can0 05D#00 R
(1720633660.707049) can0 00E#1D00 R
(1720633660.707898) can0 056#00 R
(1720633660.708033) can0 00E#1D00 R
(1720633660.708204) can0 05C#1D001D00 R
(1720633660.708327) can0 016#00 R
(1720633660.708945) can0 015#00 R
(1720633660.709069) can0 016#00 R
(1720633660.709185) can0 041#00 R
(1720633660.710080) can0 05C#1C001C00 R
(1720633660.726071) can0 00E#1500 R
(1720633660.726239) can0 05C#15001500 R
(1720633660.726353) can0 041#00 R
(1720633660.726471) can0 016#00 R
(1720633660.726588) can0 015#00 R
(1720633660.726705) can0 017#00 R
(1720633660.726827) can0 056#00 R
(1720633660.735092) can0 007#00 R
(1720633660.765058) can0 00D#0A00 R
(1720633660.765192) can0 05B#0A00 R
(1720633660.765307) can0 014#00 R
(1720633660.765425) can0 008#00 R
(1720633660.765545) can0 055#00 R
(1720633660.765663) can0 05D#00 R
(1720633660.768130) can0 015#00 R
(1720633660.768242) can0 016#00 R
(1720633660.768368) can0 041#00 R
(1720633660.768484) can0 056#00 R
(1720633660.768624) can0 00E#0800 R
(1720633660.768760) can0 00E#0800 R
(1720633660.768934) can0 05C#08000800 R
(1720633660.769250) can0 05C#08000800 R
(1720633660.769365) can0 016#00 R
(1720633660.776156) can0 00E#0700 R
(1720633660.776324) can0 05C#07000700 R
(1720633660.776446) can0 041#00 R
(1720633660.776562) can0 016#00 R
(1720633660.776682) can0 015#00 R
(1720633660.776799) can0 017#00 R
(1720633660.776919) can0 056#00 R
(1720633660.795794) can0 007#00 R
(1720633660.826144) can0 00E#0000 R
(1720633660.826306) can0 05C#00000000 R
(1720633660.826435) can0 041#00 R
(1720633660.826542) can0 016#00 R
(1720633660.826668) can0 015#00 R
(1720633660.826780) can0 017#00 R
(1720633660.826906) can0 056#00 R
(1720633660.827179) can0 00D#0000 R
(1720633660.827314) can0 05B#0000 R
(1720633660.827430) can0 014#00 R
(1720633660.827554) can0 008#00 R
(1720633660.827670) can0 055#00 R
(1720633660.827790) can0 05D#00 R
(1720633660.830092) can0 056#00 R
(1720633660.830230) can0 00E#0000 R
(1720633660.830368) can0 00E#0000 R
(1720633660.831023) can0 015#00 R
(1720633660.831140) can0 016#00 R
(1720633660.831260) can0 041#00 R
(1720633660.831440) can0 05C#00000000 R
(1720633660.831552) can0 016#00 R
(1720633660.832017) can0 05C#00000000 R
(1720633660.857590) can0 007#00 R
(1720633660.876035) can0 00E#0100 R
(1720633660.876208) can0 05C#01000100 R
(1720633660.876325) can0 041#00 R
(1720633660.876449) can0 016#00 R
(1720633660.876563) can0 015#00 R
(1720633660.876683) can0 017#00 R
(1720633660.876799) can0 056#00 R
(1720633660.888383) can0 00D#0300 R
(1720633660.888513) can0 05B#0300 R
(1720633660.888632) can0 014#00 R
(1720633660.888747) can0 008#00 R
(1720633660.888873) can0 055#00 R
(1720633660.888988) can0 05D#00 R
(1720633660.890207) can0 056#00 R
(1720633660.891125) can0 00E#0300 R
(1720633660.891979) can0 015#00 R
(1720633660.892093) can0 016#00 R
(1720633660.892232) can0 00E#0400 R
(1720633660.892405) can0 05C#04000400 R
(1720633660.892520) can0 016#00 R
(1720633660.892908) can0 041#00 R
(1720633660.893083) can0 05C#04000400 R
(1720633660.918924) can0 007#00 R
(1720633660.926025) can0 00E#0B00 R
(1720633660.926196) can0 05C#0B000B00 R
(1720633660.926316) can0 041#00 R
(1720633660.926437) can0 016#00 R
(1720633660.926553) can0 015#00 R
(1720633660.926669) can0 017#00 R
(1720633660.926789) can0 056#00 R
(1720633660.949400) can0 00D#1100 R
(1720633660.949532) can0 05B#1100 R
(1720633660.949649) can0 014#00 R
(1720633660.949772) can0 008#00 R
(1720633660.949886) can0 055#00 R
(1720633660.950010) can0 05D#00 R
(1720633660.952043) can0 056#00 R
(1720633660.952175) can0 00E#1300 R
(1720633660.952973) can0 015#00 R
(1720633660.953088) can0 016#00 R
(1720633660.953224) can0 00E#1300 R
(1720633660.953392) can0 05C#13001300 R
(1720633660.953512) can0 016#00 R
(1720633660.954250) can0 041#00 R
(1720633660.954422) can0 05C#14001400 R
(1720633660.976777) can0 00E#1D00 R
(1720633660.976947) can0 05C#1D001D00 R
(1720633660.977069) can0 041#00 R
(1720633660.977185) can0 016#00 R
(1720633660.977306) can0 015#00 R
(1720633660.977421) can0 017#00 R
(1720633660.977544) can0 056#00 R
(1720633660.979823) can0 007#00 R
(1720633661.010608) can0 00D#2D00 R
(1720633661.010741) can0 05B#2D00 R
(1720633661.010856) can0 014#00 R
(1720633661.010995) can0 008#00 R
(1720633661.011091) can0 055#00 R
(1720633661.011213) can0 05D#00 R
(1720633661.013583) can0 056#00 R
(1720633661.015547) can0 015#00 R
(1720633661.015679) can0 00E#3000 R
(1720633661.015817) can0 00E#3000 R
(1720633661.015987) can0 05C#30003000 R
(1720633661.017686) can0 016#00 R
(1720633661.017807) can0 041#00 R
(1720633661.017977) can0 05C#31003100 R
(1720633661.018093) can0 016#00 R
(1720633661.026724) can0 00E#3700 R
(1720633661.026881) can0 05C#37003700 R
(1720633661.027003) can0 041#00 R
(1720633661.027118) can0 016#00 R
(1720633661.027238) can0 015#00 R
(1720633661.027354) can0 017#00 R
(1720633661.027474) can0 056#00 R
(1720633661.041557) can0 007#00 R
(1720633661.071254) can0 00D#5300 R
(1720633661.071388) can0 05B#5300 R
(1720633661.071503) can0 014#00 R
(1720633661.071624) can0 008#00 R
(1720633661.071743) can0 055#00 R
(1720633661.071862) can0 05D#00 R
(1720633661.073065) can0 00E#5600 R
(1720633661.073203) can0 00E#5600 R
(1720633661.074037) can0 056#00 R
(1720633661.074208) can0 05C#56005600 R
(1720633661.074329) can0 016#00 R
(1720633661.076157) can0 015#00 R
(1720633661.076274) can0 016#00 R
(1720633661.076396) can0 041#00 R
(1720633661.077080) can0 05C#59005900 R
(1720633661.077217) can0 00E#5900 R
(1720633661.077383) can0 05C#59005900 R
(1720633661.077503) can0 041#00 R
(1720633661.077625) can0 016#00 R
(1720633661.077741) can0 015#00 R
(1720633661.077863) can0 017#00 R
(1720633661.077980) can0 056#00 R
(1720633661.101922) can0 007#00 R
(1720633661.126912) can0 00E#8300 R
(1720633661.127072) can0 05C#83008300 R
(1720633661.127191) can0 041#00 R
(1720633661.127307) can0 016#00 R
(1720633661.127426) can0 015#00 R
(1720633661.127543) can0 017#00 R
(1720633661.127663) can0 056#00 R
(1720633661.132296) can0 00D#8600 R
(1720633661.132428) can0 05B#8600 R
(1720633661.132545) can0 014#00 R
(1720633661.132663) can0 008#00 R
(1720633661.132785) can0 055#00 R
(1720633661.132903) can0 05D#00 R
(1720633661.135178) can0 056#00 R
(1720633661.135450) can0 00E#8A00 R
(1720633661.135775) can0 00E#8B00 R
(1720633661.135943) can0 05C#8B008B00 R
(1720633661.136066) can0 016#00 R
(1720633661.137005) can0 015#00 R
(1720633661.137117) can0 016#00 R
(1720633661.137244) can0 041#00 R
(1720633661.137969) can0 05C#8D008D00 R
(1720633661.162827) can0 007#00 R
(1720633661.177399) can0 00E#B500 R
(1720633661.177564) can0 05C#B500B500 R
(1720633661.177689) can0 041#00 R
(1720633661.177801) can0 016#00 R
(1720633661.177925) can0 015#00 R
(1720633661.178043) can0 017#00 R
(1720633661.178159) can0 056#00 R
(1720633661.193440) can0 00D#C400 R
(1720633661.193574) can0 05B#C400 R
(1720633661.193689) can0 014#00 R
(1720633661.193807) can0 008#00 R
(1720633661.193931) can0 055#00 R
(1720633661.194047) can0 05D#00 R
(1720633661.195494) can0 00E#C900 R
(1720633661.196453) can0 056#00 R
(1720633661.196584) can0 00E#CA00 R
(1720633661.196756) can0 05C#CA00CA00 R
(1720633661.196869) can0 016#00 R
(1720633661.198225) can0 015#00 R
(1720633661.198350) can0 016#00 R
(1720633661.198464) can0 041#00 R
(1720633661.199306) can0 05C#CD00CD00 R
(1720633661.224206) can0 007#00 R
(1720633661.227084) can0 00E#EF00 R
(1720633661.227239) can0 05C#EF00EF00 R
(1720633661.227357) can0 041#00 R
(1720633661.227480) can0 016#00 R
(1720633661.227593) can0 015#00 R
(1720633661.227715) can0 017#00 R
(1720633661.227831) can0 056#00 R
(1720633661.254781) can0 00D#1001 R
(1720633661.254914) can0 05B#1001 R
(1720633661.255117) can0 014#00 R
(1720633661.255235) can0 008#00 R
(1720633661.255354) can0 055#00 R
(1720633661.255472) can0 05D#00 R
(1720633661.257655) can0 056#00 R
(1720633661.258877) can0 015#00 R
(1720633661.259006) can0 016#00 R
(1720633661.259126) can0 00E#1701 R
(1720633661.259261) can0 00E#1701 R
(1720633661.259426) can0 05C#17011701 R
(1720633661.259847) can0 041#00 R
(1720633661.260020) can0 05C#18011801 R
(1720633661.260136) can0 016#00 R
(1720633661.278777) can0 00E#3201 R
(1720633661.278958) can0 05C#32013201 R
(1720633661.279064) can0 041#00 R
(1720633661.279180) can0 016#00 R
(1720633661.279299) can0 015#00 R
(1720633661.279415) can0 017#00 R
(1720633661.279536) can0 056#00 R
(1720633661.285118) can0 007#00 R
(1720633661.316848) can0 00D#6901 R
(1720633661.316983) can0 05B#6901 R
(1720633661.317096) can0 014#00 R
(1720633661.317214) can0 008#00 R
(1720633661.317334) can0 055#00 R
(1720633661.317455) can0 05D#00 R
(1720633661.319710) can0 056#00 R
(1720633661.319840) can0 00E#6F01 R
(1720633661.319975) can0 00E#6F01 R
(1720633661.320626) can0 015#00 R
(1720633661.320798) can0 05C#70017001 R
(1720633661.320914) can0 016#00 R
(1720633661.321520) can0 016#00 R
(1720633661.321642) can0 041#00 R
(1720633661.321810) can0 05C#72017201 R
(1720633661.328822) can0 00E#7E01 R
(1720633661.328986) can0 05C#7E017E01 R
(1720633661.329103) can0 041#00 R
(1720633661.329225) can0 016#00 R
(1720633661.329339) can0 015#00 R
(1720633661.329461) can0 017#00 R
(1720633661.329578) can0 056#00 R
(1720633661.349040) can0 007#00 R
(1720633661.379595) can0 00D#CF01 R
(1720633661.379722) can0 05B#CF01 R
(1720633661.379848) can0 00E#D101 R
(1720633661.379964) can0 014#00 R
(1720633661.380082) can0 008#00 R
(1720633661.380202) can0 055#00 R
(1720633661.380370) can0 05C#D101D101 R
(1720633661.380492) can0 041#00 R
(1720633661.380609) can0 016#00 R
(1720633661.380728) can0 015#00 R
(1720633661.380845) can0 017#00 R
(1720633661.380965) can0 056#00 R
(1720633661.381083) can0 05D#00 R
(1720633661.381448) can0 00E#D401 R
(1720633661.382479) can0 056#00 R
(1720633661.382617) can0 00E#D601 R
(1720633661.382781) can0 05C#D601D601 R
(1720633661.382902) can0 016#00 R
(1720633661.384580) can0 015#00 R
(1720633661.384693) can0 016#00 R
(1720633661.384814) can0 041#00 R
(1720633661.384982) can0 05C#D901D901 R
(1720633661.410422) can0 007#00 R
(1720633661.429309) can0 00E#2B02 R
(1720633661.429461) can0 05C#2B022B02 R
(1720633661.429578) can0 041#00 R
(1720633661.429696) can0 016#00 R
(1720633661.429820) can0 015#00 R
(1720633661.429933) can0 017#00 R
(1720633661.430054) can0 056#00 R
(1720633661.440435) can0 00D#3C02 R
(1720633661.440564) can0 05B#3C02 R
(1720633661.440685) can0 014#00 R
(1720633661.440799) can0 008#00 R
(1720633661.440919) can0 055#00 R
(1720633661.441037) can0 05D#00 R
(1720633661.442313) can0 00E#4402 R
(1720633661.443352) can0 015#00 R
(1720633661.443471) can0 016#00 R
(1720633661.443589) can0 056#00 R
(1720633661.443726) can0 00E#4602 R
(1720633661.443889) can0 05C#46024602 R
(1720633661.444009) can0 016#00 R
(1720633661.444342) can0 041#00 R
(1720633661.444505) can0 05C#48024802 R
(1720633661.470743) can0 007#00 R
(1720633661.479023) can0 00E#8D02 R
(1720633661.479183) can0 05C#8D028D02 R
(1720633661.479308) can0 041#00 R
(1720633661.479421) can0 016#00 R
(1720633661.479544) can0 015#00 R
(1720633661.479658) can0 017#00 R
(1720633661.479781) can0 056#00 R
(1720633661.501742) can0 00D#B702 R
(1720633661.501876) can0 05B#B702 R
(1720633661.501991) can0 014#00 R
(1720633661.502112) can0 008#00 R
(1720633661.502228) can0 055#00 R
(1720633661.502349) can0 05D#00 R
(1720633661.504482) can0 056#00 R
(1720633661.505493) can0 00E#C402 R
(1720633661.505620) can0 00E#C402 R
(1720633661.505785) can0 05C#C402C402 R
(1720633661.506436) can0 015#00 R
(1720633661.506550) can0 016#00 R
(1720633661.506675) can0 041#00 R
(1720633661.506789) can0 016#00 R
(1720633661.507423) can0 05C#C802C802 R
(1720633661.529853) can0 00E#F802 R
(1720633661.530019) can0 05C#F802F802 R
(1720633661.530140) can0 041#00 R
(1720633661.530258) can0 016#00 R
(1720633661.530373) can0 015#00 R
(1720633661.530494) can0 017#00 R
(1720633661.530609) can0 056#00 R
(1720633661.531928) can0 007#00 R
(1720633661.562326) can0 00D#3E03 R
(1720633661.562462) can0 05B#3E03 R
(1720633661.562574) can0 014#00 R
(1720633661.562698) can0 008#00 R
(1720633661.562815) can0 055#00 R
(1720633661.562964) can0 05D#00 R
(1720633661.564168) can0 00E#4703 R
(1720633661.564299) can0 00E#4703 R
(1720633661.565312) can0 056#00 R
(1720633661.565482) can0 05C#49034903 R
(1720633661.565595) can0 016#00 R
(1720633661.566338) can0 015#00 R
(1720633661.567173) can0 016#00 R
(1720633661.567295) can0 041#00 R
(1720633661.567464) can0 05C#4E034E03 R
(1720633661.579744) can0 00E#6A03 R
(1720633661.579909) can0 05C#6A036A03 R
(1720633661.580034) can0 041#00 R
(1720633661.580147) can0 016#00 R
(1720633661.580271) can0 015#00 R
(1720633661.580384) can0 017#00 R
(1720633661.580507) can0 056#00 R
(1720633661.593226) can0 007#00 R
(1720633661.624074) can0 00D#D203 R
(1720633661.624206) can0 05B#D203 R
(1720633661.624323) can0 014#00 R
(1720633661.624469) can0 008#00 R
(1720633661.624559) can0 055#00 R
(1720633661.624682) can0 05D#00 R
(1720633661.626051) can0 056#00 R
(1720633661.626186) can0 00E#DA03 R
(1720633661.627046) can0 015#00 R
(1720633661.627177) can0 00E#DF03 R
(1720633661.627349) can0 05C#DF03DF03 R
(1720633661.627462) can0 016#00 R
(1720633661.628067) can0 016#00 R
(1720633661.628194) can0 041#00 R
(1720633661.628362) can0 05C#E103E103 R
(1720633661.630142) can0 00E#E603 R
(1720633661.630304) can0 05C#E603E603 R
(1720633661.630422) can0 041#00 R
(1720633661.630538) can0 016#00 R
(1720633661.630657) can0 015#00 R
(1720633661.630777) can0 017#00 R
(1720633661.630894) can0 056#00 R
(1720633661.655576) can0 007#00 R
(1720633661.681125) can0 00E#6B04 R
(1720633661.681303) can0 05C#6B046B04 R
(1720633661.681411) can0 041#00 R
(1720633661.681531) can0 016#00 R
(1720633661.681652) can0 015#00 R
(1720633661.681767) can0 017#00 R
(1720633661.681887) can0 056#00 R
(1720633661.686496) can0 00D#7304 R
(1720633661.686627) can0 05B#7304 R
(1720633661.686743) can0 014#00 R
(1720633661.686862) can0 008#00 R
(1720633661.687005) can0 055#00 R
(1720633661.687100) can0 05D#00 R
(1720633661.691030) can0 056#00 R
(1720633661.691159) can0 00E#8304 R
(1720633661.691976) can0 00E#8604 R
(1720633661.692143) can0 05C#86048604 R
(1720633661.692258) can0 016#00 R
(1720633661.696560) can0 015#00 R
(1720633661.696673) can0 016#00 R
(1720633661.696796) can0 041#00 R
(1720633661.696964) can0 05C#91049104 R
(1720633661.717633) can0 007#00 R
(1720633661.732023) can0 00E#F504 R
(1720633661.732190) can0 05C#F504F504 R
(1720633661.732308) can0 041#00 R
(1720633661.732423) can0 016#00 R
(1720633661.732545) can0 015#00 R
(1720633661.732662) can0 017#00 R
(1720633661.732782) can0 056#00 R
(1720633661.748767) can0 00D#2005 R
(1720633661.748898) can0 05B#2005 R
(1720633661.749018) can0 014#00 R
(1720633661.749131) can0 008#00 R
(1720633661.749255) can0 055#00 R
(1720633661.749369) can0 05D#00 R
(1720633661.751357) can0 056#00 R
(1720633661.752181) can0 00E#3105 R
(1720633661.752317) can0 00E#3105 R
(1720633661.752486) can0 05C#31053105 R
(1720633661.753117) can0 015#00 R
(1720633661.753231) can0 016#00 R
(1720633661.753355) can0 041#00 R
(1720633661.753524) can0 05C#34053405 R
(1720633661.753639) can0 016#00 R
(1720633661.778685) can0 007#00 R
(1720633661.782052) can0 00E#8705 R
(1720633661.782219) can0 05C#87058705 R
(1720633661.782341) can0 041#00 R
(1720633661.782456) can0 016#00 R
(1720633661.782577) can0 015#00 R
(1720633661.782693) can0 017#00 R
(1720633661.782815) can0 056#00 R
(1720633661.808958) can0 00D#D305 R
(1720633661.809090) can0 05B#D305 R
(1720633661.809204) can0 014#00 R
(1720633661.809323) can0 008#00 R
(1720633661.809442) can0 055#00 R
(1720633661.809562) can0 05D#00 R
(1720633661.810709) can0 00E#DF05 R
(1720633661.810843) can0 00E#DF05 R
(1720633661.811600) can0 056#00 R
(1720633661.811767) can0 05C#E205E205 R
(1720633661.811880) can0 016#00 R
(1720633661.813760) can0 015#00 R
(1720633661.813874) can0 016#00 R
(1720633661.813997) can0 041#00 R
(1720633661.814874) can0 05C#EB05EB05 R
(1720633661.832118) can0 00E#2006 R
(1720633661.832280) can0 05C#20062006 R
(1720633661.832396) can0 041#00 R
(1720633661.832514) can0 016#00 R
(1720633661.832636) can0 015#00 R
(1720633661.832749) can0 017#00 R
(1720633661.832870) can0 056#00 R
(1720633661.839649) can0 007#00 R
(1720633661.871041) can0 00D#9A06 R
(1720633661.871168) can0 05B#9A06 R
(1720633661.871282) can0 014#00 R
(1720633661.871400) can0 008#00 R
(1720633661.871522) can0 055#00 R
(1720633661.871638) can0 05D#00 R
(1720633661.872846) can0 00E#A406 R
(1720633661.873938) can0 056#00 R
(1720633661.874082) can0 00E#A706 R
(1720633661.874240) can0 05C#A706A706 R
(1720633661.874358) can0 016#01 R
(1720633661.874990) can0 015#00 R
(1720633661.875101) can0 016#01 R
(1720633661.876019) can0 041#00 R
(1720633661.876189) can0 05C#AE06AE06 R
(1720633661.882041) can0 00E#C206 R
(1720633661.882208) can0 05C#C206C206 R
(1720633661.882327) can0 041#00 R
(1720633661.882445) can0 016#01 R
(1720633661.882566) can0 015#00 R
(1720633661.882683) can0 017#00 R
(1720633661.882803) can0 056#00 R
(1720633661.900994) can0 007#00 R
(1720633661.931475) can0 00E#6B07 R
(1720633661.931640) can0 05C#6B076B07 R
(1720633661.931758) can0 041#00 R
(1720633661.931893) can0 00D#6407 R
(1720633661.932006) can0 016#01 R
(1720633661.932131) can0 015#00 R
(1720633661.932242) can0 017#00 R
(1720633661.932368) can0 056#00 R
(1720633661.932495) can0 05B#6407 R
(1720633661.932616) can0 014#00 R
(1720633661.932728) can0 008#00 R
(1720633661.932851) can0 055#00 R
(1720633661.932969) can0 05D#00 R
(1720633661.935471) can0 056#00 R
(1720633661.935603) can0 00E#7807 R
(1720633661.936587) can0 015#00 R
(1720633661.936721) can0 00E#7C07 R
(1720633661.936898) can0 05C#7C077C07 R
(1720633661.937010) can0 016#01 R
(1720633661.940600) can0 016#01 R
(1720633661.940721) can0 041#00 R
(1720633661.940896) can0 05C#8A078A07 R
(1720633661.962004) can0 007#00 R
(1720633661.982205) can0 00E#1B08 R
(1720633661.982373) can0 05C#1B081B08 R
(1720633661.982492) can0 041#00 R
(1720633661.982611) can0 016#01 R
(1720633661.982728) can0 015#00 R
(1720633661.982845) can0 017#00 R
(1720633661.982994) can0 056#00 R
(1720633661.992647) can0 00D#3C08 R
(1720633661.992776) can0 05B#3C08 R
(1720633661.992894) can0 014#00 R
(1720633661.993009) can0 008#00 R
(1720633661.993132) can0 055#00 R
(1720633661.993248) can0 05D#00 R
(1720633661.995786) can0 056#00 R
(1720633661.995925) can0 00E#4E08 R
(1720633661.996052) can0 00E#4E08 R
(1720633661.996223) can0 05C#4E084E08 R
(1720633661.996706) can0 015#00 R
(1720633661.996821) can0 016#01 R
(1720633661.996943) can0 041#00 R
(1720633661.997060) can0 016#01 R
(1720633661.997764) can0 05C#55085508 R
(1720633662.024598) can0 007#00 R
(1720633662.031380) can0 00E#D308 R
(1720633662.031544) can0 05C#D308D308 R
(1720633662.031662) can0 041#00 R
(1720633662.031780) can0 016#01 R
(1720633662.031899) can0 015#00 R
(1720633662.032018) can0 017#00 R
(1720633662.032139) can0 056#00 R
(1720633662.056045) can0 00D#2609 R
(1720633662.056177) can0 05B#2609 R
(1720633662.056405) can0 014#00 R
(1720633662.056521) can0 008#00 R
(1720633662.056641) can0 055#00 R
(1720633662.056759) can0 05D#00 R
(1720633662.057847) can0 00E#3609 R
(1720633662.057979) can0 00E#3609 R
(1720633662.058882) can0 056#00 R
(1720633662.059049) can0 05C#3A093A09 R
(1720633662.059168) can0 016#01 R
(1720633662.061034) can0 015#00 R
(1720633662.061147) can0 016#01 R
(1720633662.061271) can0 041#00 R
(1720633662.062108) can0 05C#45094509 R
(1720633662.081469) can0 00E#9309 R
(1720633662.081633) can0 05C#93099309 R
(1720633662.081754) can0 041#00 R
(1720633662.081870) can0 016#01 R
(1720633662.081990) can0 015#00 R
(1720633662.082107) can0 017#00 R
(1720633662.082226) can0 056#00 R
(1720633662.087056) can0 007#00 R
(1720633662.118743) can0 00D#1D0A R
(1720633662.118871) can0 05B#1D0A R
(1720633662.119013) can0 014#00 R
(1720633662.119114) can0 008#00 R
(1720633662.119227) can0 055#00 R
(1720633662.119344) can0 05D#00 R
(1720633662.121400) can0 056#00 R
(1720633662.121530) can0 00E#310A R
(1720633662.122349) can0 00E#310A R
(1720633662.122513) can0 05C#310A310A R
(1720633662.122627) can0 016#01 R
(1720633662.123137) can0 015#00 R
(1720633662.123248) can0 016#01 R
(1720633662.123373) can0 041#00 R
(1720633662.124148) can0 05C#390A390A R
(1720633662.131308) can0 00E#5A0A R
(1720633662.131474) can0 05C#5A0A5A0A R
(1720633662.131596) can0 041#00 R
(1720633662.131711) can0 016#01 R
(1720633662.131832) can0 015#00 R
(1720633662.131946) can0 017#00 R
(1720633662.132068) can0 056#00 R
(1720633662.150192) can0 007#00 R
(1720633662.181102) can0 00D#1C0B R
(1720633662.181241) can0 05B#1C0B R
(1720633662.181351) can0 014#00 R
(1720633662.181472) can0 008#00 R
(1720633662.181592) can0 055#00 R
(1720633662.181710) can0 05D#00 R
(1720633662.181842) can0 00E#280B R
(1720633662.182013) can0 05C#280B280B R
(1720633662.182131) can0 041#00 R
(1720633662.182249) can0 016#01 R
(1720633662.182368) can0 015#00 R
(1720633662.182485) can0 017#00 R
(1720633662.182607) can0 056#00 R
(1720633662.183968) can0 056#00 R
(1720633662.184097) can0 00E#310B R
(1720633662.185262) can0 015#00 R
(1720633662.185374) can0 016#01 R
(1720633662.185507) can0 00E#390B R
(1720633662.185671) can0 05C#390B390B R
(1720633662.185784) can0 016#01 R
(1720633662.186316) can0 041#00 R
(1720633662.186479) can0 05C#390B390B R
(1720633662.212216) can0 007#00 R
(1720633662.231594) can0 00E#FE0B R
(1720633662.231767) can0 05C#FE0BFE0B R
(1720633662.231887) can0 041#00 R
(1720633662.232003) can0 016#01 R
(1720633662.232122) can0 015#00 R
(1720633662.232238) can0 017#00 R
(1720633662.232358) can0 056#00 R
(1720633662.244507) can0 00D#2E0C R
(1720633662.244639) can0 05B#2E0C R
(1720633662.244753) can0 014#00 R
(1720633662.244871) can0 008#00 R
(1720633662.244993) can0 055#00 R
(1720633662.245111) can0 05D#00 R
(1720633662.246302) can0 056#00 R
(1720633662.247158) can0 00E#400C R
(1720633662.247292) can0 00E#400C R
(1720633662.247466) can0 05C#400C400C R
(1720633662.248151) can0 016#01 R
(1720633662.249108) can0 015#00 R
(1720633662.249222) can0 016#01 R
(1720633662.249347) can0 041#00 R
(1720633662.249517) can0 05C#480C480C R
(1720633662.274592) can0 007#00 R
(1720633662.281592) can0 00E#DB0C R
(1720633662.281755) can0 05C#DB0CDB0C R
(1720633662.281877) can0 041#00 R
(1720633662.281992) can0 016#02 R
(1720633662.282113) can0 015#00 R
(1720633662.282228) can0 017#00 R
(1720633662.282350) can0 056#00 R
(1720633662.305402) can0 00D#3F0D R
(1720633662.305601) can0 05B#3F0D R
(1720633662.305708) can0 014#00 R
(1720633662.305833) can0 008#00 R
(1720633662.305948) can0 055#00 R
(1720633662.306067) can0 05D#00 R
(1720633662.308280) can0 056#00 R
(1720633662.308410) can0 00E#510D R
(1720633662.308543) can0 00E#510D R
(1720633662.309265) can0 05C#560D560D R
(1720633662.309380) can0 016#02 R
(1720633662.310100) can0 015#00 R
(1720633662.310220) can0 016#02 R
(1720633662.310337) can0 041#00 R
(1720633662.310507) can0 05C#5A0D5A0D R
(1720633662.331582) can0 00E#C00D R
(1720633662.331756) can0 05C#C00DC00D R
(1720633662.331876) can0 041#00 R
(1720633662.331993) can0 016#02 R
(1720633662.332116) can0 015#00 R
(1720633662.332227) can0 017#00 R
(1720633662.332351) can0 056#00 R
(1720633662.335631) can0 007#00 R
(1720633662.366429) can0 00D#5A0E R
(1720633662.366555) can0 05B#5A0E R
(1720633662.366671) can0 014#00 R
(1720633662.366788) can0 008#00 R
(1720633662.366908) can0 055#00 R
(1720633662.367025) can0 05D#00 R
(1720633662.369178) can0 056#00 R
(1720633662.369307) can0 00E#6D0E R
(1720633662.370222) can0 015#00 R
(1720633662.370335) can0 016#02 R
(1720633662.370461) can0 041#00 R
(1720633662.370594) can0 00E#720E R
(1720633662.370762) can0 05C#720E720E R
(1720633662.370874) can0 016#02 R
(1720633662.371333) can0 05C#770E770E R
(1720633662.381704) can0 00E#AB0E R
(1720633662.381872) can0 05C#AB0EAB0E R
(1720633662.381987) can0 041#00 R
(1720633662.382103) can0 016#02 R
(1720633662.382227) can0 015#00 R
(1720633662.382339) can0 017#00 R
(1720633662.382459) can0 056#00 R
(1720633662.397399) can0 007#00 R
(1720633662.427305) can0 00D#810F R
(1720633662.427434) can0 05B#810F R
(1720633662.427552) can0 014#00 R
(1720633662.427667) can0 008#00 R
(1720633662.427790) can0 055#00 R
(1720633662.427904) can0 05D#00 R
(1720633662.429123) can0 00E#8F0F R
(1720633662.430156) can0 056#00 R
(1720633662.430301) can0 00E#940F R
(1720633662.430463) can0 05C#940F940F R
(1720633662.430576) can0 016#02 R
(1720633662.432260) can0 015#00 R
(1720633662.432373) can0 016#02 R
(1720633662.432498) can0 041#00 R
(1720633662.432633) can0 00E#9E0F R
(1720633662.432833) can0 05C#9E0F9E0F R
(1720633662.432901) can0 041#00 R
(1720633662.433054) can0 016#02 R
(1720633662.433163) can0 015#00 R
(1720633662.433284) can0 017#00 R
(1720633662.433401) can0 056#00 R
(1720633662.433573) can0 05C#A30FA30F R
(1720633662.458120) can0 007#00 R
(1720633662.481841) can0 00E#9810 R
(1720633662.481993) can0 05C#98109810 R
(1720633662.482115) can0 041#00 R
(1720633662.482229) can0 016#02 R
(1720633662.482350) can0 015#00 R
(1720633662.482465) can0 017#00 R
(1720633662.482587) can0 056#00 R
(1720633662.489751) can0 00D#B710 R
(1720633662.489879) can0 05B#B710 R
(1720633662.489995) can0 014#00 R
(1720633662.490113) can0 008#00 R
(1720633662.490233) can0 055#00 R
(1720633662.490351) can0 05D#00 R
(1720633662.492535) can0 056#00 R
(1720633662.493331) can0 015#00 R
(1720633662.493451) can0 016#02 R
(1720633662.493570) can0 041#00 R
(1720633662.493706) can0 00E#D010 R
(1720633662.493834) can0 00E#D010 R
(1720633662.494002) can0 05C#D010D010 R
(1720633662.494249) can0 05C#D510D510 R
(1720633662.494362) can0 016#02 R
(1720633662.520152) can0 007#00 R
(1720633662.532138) can0 00E#9911 R
(1720633662.532305) can0 05C#99119911 R
(1720633662.532422) can0 041#00 R
(1720633662.532538) can0 016#02 R
(1720633662.532658) can0 015#00 R
(1720633662.532774) can0 017#00 R
(1720633662.532895) can0 056#00 R
(1720633662.550481) can0 00D#F211 R
(1720633662.550614) can0 05B#F211 R
(1720633662.550727) can0 014#00 R
(1720633662.550846) can0 008#00 R
(1720633662.550999) can0 055#00 R
(1720633662.551094) can0 05D#00 R
(1720633662.552407) can0 00E#0212 R
(1720633662.552537) can0 00E#0212 R
(1720633662.553223) can0 015#00 R
(1720633662.553338) can0 016#02 R
(1720633662.553460) can0 041#00 R
(1720633662.553583) can0 056#00 R
(1720633662.553750) can0 05C#07120712 R
(1720633662.553869) can0 016#02 R
(1720633662.554286) can0 05C#0C120C12 R
(1720633662.581230) can0 007#00 R
(1720633662.581828) can0 00E#A112 R
(1720633662.581987) can0 05C#A112A112 R
(1720633662.582115) can0 041#00 R
(1720633662.582227) can0 016#02 R
(1720633662.582347) can0 015#00 R
(1720633662.582463) can0 017#00 R
(1720633662.582583) can0 056#00 R
(1720633662.612839) can0 00D#3D13 R
(1720633662.612968) can0 05B#3D13 R
(1720633662.613083) can0 014#00 R
(1720633662.613201) can0 008#00 R
(1720633662.613322) can0 055#00 R
(1720633662.613439) can0 05D#00 R
(1720633662.614819) can0 056#00 R
(1720633662.614963) can0 00E#4E13 R
(1720633662.615590) can0 00E#5313 R
(1720633662.615758) can0 05C#53135313 R
(1720633662.615871) can0 016#03 R
(1720633662.616585) can0 015#00 R
(1720633662.617638) can0 016#03 R
(1720633662.617759) can0 041#00 R
(1720633662.617923) can0 05C#63136313 R
(1720633662.631963) can0 00E#B013 R
(1720633662.632131) can0 05C#B013B013 R
(1720633662.632249) can0 041#00 R
(1720633662.632364) can0 016#03 R
(1720633662.632485) can0 015#00 R
(1720633662.632600) can0 017#00 R
(1720633662.632721) can0 056#00 R
(1720633662.643359) can0 007#00 R
(1720633662.674312) can0 00D#8E14 R
(1720633662.674444) can0 05B#8E14 R
(1720633662.674557) can0 014#00 R
(1720633662.674678) can0 008#00 R
(1720633662.674796) can0 055#00 R
(1720633662.674915) can0 05D#00 R
(1720633662.676300) can0 056#00 R
(1720633662.677020) can0 00E#AA14 R
(1720633662.677938) can0 015#00 R
(1720633662.678058) can0 016#03 R
(1720633662.678186) can0 00E#AF14 R
(1720633662.678351) can0 05C#AF14AF14 R
(1720633662.678466) can0 016#03 R
(1720633662.678898) can0 041#00 R
(1720633662.679065) can0 05C#B514B514 R
(1720633662.682605) can0 00E#C614 R
(1720633662.682760) can0 05C#C614C614 R
(1720633662.682878) can0 041#00 R
(1720633662.683015) can0 016#03 R
(1720633662.683113) can0 015#00 R
(1720633662.683232) can0 017#00 R
(1720633662.683351) can0 056#00 R
(1720633662.704888) can0 007#00 R
(1720633662.732329) can0 00E#E215 R
(1720633662.732491) can0 05C#E215E215 R
(1720633662.732607) can0 041#00 R
(1720633662.732725) can0 016#03 R
(1720633662.732850) can0 015#00 R
(1720633662.732959) can0 017#00 R
(1720633662.733086) can0 056#00 R
(1720633662.735718) can0 00D#EE15 R
(1720633662.735852) can0 05B#EE15 R
(1720633662.735961) can0 014#00 R
(1720633662.736082) can0 008#00 R
(1720633662.736200) can0 055#00 R
(1720633662.736318) can0 05D#00 R
(1720633662.738845) can0 056#00 R
(1720633662.739886) can0 015#00 R
(1720633662.740021) can0 00E#1016 R
(1720633662.740152) can0 00E#1016 R
(1720633662.740321) can0 05C#10161016 R
(1720633662.740641) can0 016#03 R
(1720633662.740839) can0 041#00 R
(1720633662.741004) can0 05C#16161616 R
(1720633662.741117) can0 016#03 R
(1720633662.766480) can0 007#00 R
(1720633662.782182) can0 00E#0517 R
(1720633662.782353) can0 05C#05170517 R
(1720633662.782468) can0 041#00 R
(1720633662.782585) can0 016#03 R
(1720633662.782703) can0 015#00 R
(1720633662.782820) can0 017#00 R
(1720633662.782961) can0 056#00 R
(1720633662.796444) can0 00D#4C17 R
(1720633662.796573) can0 05B#4C17 R
(1720633662.796714) can0 014#00 R
(1720633662.796829) can0 008#00 R
(1720633662.796951) can0 055#00 R
(1720633662.797068) can0 05D#00 R
(1720633662.798465) can0 056#00 R
(1720633662.798597) can0 00E#6417 R
(1720633662.798739) can0 00E#6417 R
(1720633662.799471) can0 05C#6A176A17 R
(1720633662.799585) can0 016#03 R
(1720633662.801411) can0 015#00 R
(1720633662.801525) can0 016#03 R
(1720633662.801647) can0 041#00 R
(1720633662.802557) can0 05C#7C177C17 R
(1720633662.826503) can0 007#00 R
(1720633662.832484) can0 00E#2F18 R
(1720633662.832649) can0 05C#2F182F18 R
(1720633662.832770) can0 041#00 R
(1720633662.832885) can0 016#03 R
(1720633662.833035) can0 015#00 R
(1720633662.833129) can0 017#00 R
(1720633662.833243) can0 056#00 R
(1720633662.856525) can0 00D#BA18 R
(1720633662.856655) can0 05B#BA18 R
(1720633662.856863) can0 014#00 R
(1720633662.856981) can0 008#00 R
(1720633662.857100) can0 055#00 R
(1720633662.857219) can0 05D#00 R
(1720633662.858475) can0 056#00 R
(1720633662.859494) can0 00E#D318 R
(1720633662.860340) can0 00E#D918 R
(1720633662.860504) can0 05C#D918D918 R
(1720633662.860617) can0 016#03 R
(1720633662.861376) can0 015#00 R
(1720633662.861490) can0 016#03 R
(1720633662.861613) can0 041#00 R
(1720633662.861785) can0 05C#DF18DF18 R
(1720633662.884756) can0 00E#6C19 R
(1720633662.884902) can0 05C#6C196C19 R
(1720633662.885019) can0 041#00 R
(1720633662.885137) can0 016#03 R
(1720633662.885256) can0 015#00 R
(1720633662.885372) can0 017#00 R
(1720633662.885492) can0 056#00 R
(1720633662.886447) can0 007#00 R
(1720633662.917619) can0 00D#2C1A R
(1720633662.917749) can0 05B#2C1A R
(1720633662.917863) can0 014#00 R
(1720633662.917981) can0 008#00 R
(1720633662.918102) can0 055#00 R
(1720633662.918222) can0 05D#00 R
(1720633662.920248) can0 056#00 R
(1720633662.920378) can0 00E#4B1A R
(1720633662.921310) can0 015#00 R
(1720633662.921422) can0 016#04 R
(1720633662.921558) can0 00E#511A R
(1720633662.921724) can0 05C#511A511A R
(1720633662.921838) can0 016#04 R
(1720633662.922225) can0 041#00 R
(1720633662.922395) can0 05C#581A581A R
(1720633662.934749) can0 00E#A31A R
(1720633662.934914) can0 05C#A31AA31A R
(1720633662.935012) can0 041#00 R
(1720633662.935148) can0 016#04 R
(1720633662.935271) can0 015#00 R
(1720633662.935384) can0 017#00 R
(1720633662.935504) can0 056#00 R
(1720633662.948481) can0 007#00 R
(1720633662.978781) can0 00D#B41B R
(1720633662.978920) can0 05B#B41B R
(1720633662.979007) can0 014#00 R
(1720633662.979153) can0 008#00 R
(1720633662.979271) can0 055#00 R
(1720633662.979389) can0 05D#00 R
(1720633662.981645) can0 056#00 R
(1720633662.981778) can0 00E#CD1B R
(1720633662.981920) can0 00E#CD1B R
(1720633662.982078) can0 05C#CD1BCD1B R
(1720633662.983668) can0 015#00 R
(1720633662.983784) can0 016#04 R
(1720633662.983916) can0 00E#E01B R
(1720633662.984086) can0 05C#E01BE01B R
(1720633662.984205) can0 041#00 R
(1720633662.984323) can0 016#04 R
(1720633662.984444) can0 015#00 R
(1720633662.984561) can0 017#00 R
(1720633662.984680) can0 056#00 R
(1720633662.984990) can0 016#04 R
(1720633662.985104) can0 041#00 R
(1720633662.985274) can0 05C#E71BE71B R
(1720633663.009884) can0 007#00 R
(1720633663.034705) can0 00E#241D R
(1720633663.034872) can0 05C#241D241D R
(1720633663.035019) can0 041#00 R
(1720633663.035113) can0 016#04 R
(1720633663.035230) can0 015#00 R
(1720633663.035345) can0 017#00 R
(1720633663.035472) can0 056#00 R
(1720633663.041126) can0 00D#451D R
(1720633663.041255) can0 05B#451D R
(1720633663.041377) can0 014#00 R
(1720633663.041489) can0 008#00 R
(1720633663.041610) can0 055#00 R
(1720633663.041727) can0 05D#00 R
(1720633663.043086) can0 00E#5F1D R
(1720633663.043217) can0 00E#5F1D R
(1720633663.043926) can0 056#00 R
(1720633663.044092) can0 05C#661D661D R
(1720633663.044201) can0 016#04 R
(1720633663.044949) can0 015#00 R
(1720633663.045878) can0 016#04 R
(1720633663.046004) can0 041#00 R
(1720633663.046165) can0 05C#731D731D R
(1720633663.072519) can0 007#00 R
(1720633663.083931) can0 00E#6E1E R
(1720633663.084096) can0 05C#6E1E6E1E R
(1720633663.084215) can0 041#00 R
(1720633663.084333) can0 016#04 R
(1720633663.084451) can0 015#00 R
(1720633663.084568) can0 017#00 R
(1720633663.084688) can0 056#00 R
(1720633663.104208) can0 00D#E71E R
(1720633663.104337) can0 05B#E71E R
(1720633663.104565) can0 014#00 R
(1720633663.104685) can0 008#00 R
(1720633663.104802) can0 055#00 R
(1720633663.104924) can0 05D#00 R
(1720633663.106968) can0 056#00 R
(1720633663.107076) can0 00E#081F R
(1720633663.107931) can0 015#00 R
(1720633663.108069) can0 00E#081F R
(1720633663.108242) can0 05C#081F081F R
(1720633663.108356) can0 016#04 R
(1720633663.109920) can0 016#04 R
(1720633663.110042) can0 041#00 R
(1720633663.110215) can0 05C#1C1F1C1F R
(1720633663.135830) can0 00E#C51F R
(1720633663.136002) can0 05C#C51FC51F R
(1720633663.136111) can0 007#00 R
(1720633663.136232) can0 041#00 R
(1720633663.136348) can0 016#04 R
(1720633663.136468) can0 015#00 R
(1720633663.136584) can0 017#00 R
(1720633663.136705) can0 056#00 R
(1720633663.166657) can0 00D#8B20 R
(1720633663.166789) can0 05B#8B20 R
(1720633663.166906) can0 014#00 R
(1720633663.167027) can0 008#00 R
(1720633663.167144) can0 055#00 R
(1720633663.167263) can0 05D#00 R
(1720633663.169261) can0 056#00 R
(1720633663.169394) can0 00E#AE20 R
(1720633663.170374) can0 00E#B420 R
(1720633663.170540) can0 05C#B420B420 R
(1720633663.170656) can0 016#05 R
(1720633663.171207) can0 015#00 R
(1720633663.171324) can0 016#05 R
(1720633663.171446) can0 041#00 R
(1720633663.172431) can0 05C#C220C220 R
(1720633663.184983) can0 00E#1C21 R
(1720633663.185146) can0 05C#1C211C21 R
(1720633663.185267) can0 041#00 R
(1720633663.185387) can0 016#05 R
(1720633663.185506) can0 015#00 R
(1720633663.185621) can0 017#00 R
(1720633663.185742) can0 056#00 R
(1720633663.197306) can0 007#00 R
(1720633663.227814) can0 00D#3222 R
(1720633663.227942) can0 05B#3222 R
(1720633663.228057) can0 014#00 R
(1720633663.228175) can0 008#00 R
(1720633663.228295) can0 055#00 R
(1720633663.228413) can0 05D#00 R
(1720633663.230535) can0 056#00 R
(1720633663.230666) can0 00E#5522 R
(1720633663.230800) can0 00E#5522 R
(1720633663.230991) can0 05C#55225522 R
(1720633663.231563) can0 015#00 R
(1720633663.231681) can0 016#05 R
(1720633663.231800) can0 016#05 R
(1720633663.232488) can0 041#00 R
(1720633663.232652) can0 05C#63226322 R
(1720633663.235997) can0 00E#7F22 R
(1720633663.236161) can0 05C#7F227F22 R
(1720633663.236280) can0 041#00 R
(1720633663.236400) can0 016#05 R
(1720633663.236519) can0 015#00 R
(1720633663.236636) can0 017#00 R
(1720633663.236758) can0 056#00 R
(1720633663.257878) can0 007#00 R
(1720633663.286244) can0 00E#E223 R
(1720633663.286403) can0 05C#E223E223 R
(1720633663.286526) can0 041#00 R
(1720633663.286652) can0 016#05 R
(1720633663.286765) can0 015#00 R
(1720633663.286886) can0 017#00 R
(1720633663.287018) can0 056#00 R
(1720633663.287725) can0 00D#DB23 R
(1720633663.287856) can0 05B#DB23 R
(1720633663.287972) can0 014#00 R
(1720633663.288092) can0 008#00 R
(1720633663.288210) can0 055#00 R
(1720633663.288329) can0 05D#00 R
(1720633663.290840) can0 056#00 R
(1720633663.291007) can0 00E#FE23 R
(1720633663.291111) can0 00E#FE23 R
(1720633663.291284) can0 05C#05240524 R
(1720633663.291393) can0 016#05 R
(1720633663.292247) can0 015#00 R
(1720633663.292364) can0 016#05 R
(1720633663.292487) can0 041#00 R
(1720633663.293161) can0 05C#14241424 R
(1720633663.318257) can0 007#00 R
(1720633663.336345) can0 00E#4A25 R
(1720633663.336508) can0 05C#4A254A25 R
(1720633663.336627) can0 041#00 R
(1720633663.336745) can0 016#05 R
(1720633663.336865) can0 015#00 R
(1720633663.336981) can0 017#00 R
(1720633663.337101) can0 056#00 R
(1720633663.348295) can0 00D#9325 R
(1720633663.348419) can0 05B#9325 R
(1720633663.348538) can0 014#00 R
(1720633663.348652) can0 008#00 R
(1720633663.348772) can0 055#00 R
(1720633663.348891) can0 05D#00 R
(1720633663.350298) can0 056#00 R
(1720633663.350438) can0 00E#B025 R
(1720633663.351197) can0 00E#B725 R
(1720633663.351361) can0 05C#B725B725 R
(1720633663.351478) can0 016#05 R
(1720633663.352254) can0 015#00 R
(1720633663.352370) can0 016#05 R
(1720633663.352494) can0 041#00 R
(1720633663.353170) can0 05C#C625C625 R
(1720633663.379032) can0 007#00 R
(1720633663.391423) can0 00E#DD26 R
(1720633663.391595) can0 05C#DD26DD26 R
(1720633663.391700) can0 041#00 R
(1720633663.391817) can0 016#06 R
(1720633663.391939) can0 015#00 R
(1720633663.392053) can0 017#00 R
(1720633663.392173) can0 056#00 R
(1720633663.408738) can0 00D#4C27 R
(1720633663.408862) can0 05B#4C27 R
(1720633663.408968) can0 014#00 R
(1720633663.409088) can0 008#00 R
(1720633663.409213) can0 055#00 R
(1720633663.409325) can0 05D#00 R
(1720633663.410695) can0 00E#6A27 R
(1720633663.411529) can0 056#00 R
(1720633663.411662) can0 00E#7127 R
(1720633663.411830) can0 05C#71277127 R
(1720633663.411939) can0 016#06 R
(1720633663.412606) can0 015#00 R
(1720633663.413424) can0 016#06 R
(1720633663.413546) can0 041#00 R
(1720633663.413720) can0 05C#80278027 R
(1720633663.439045) can0 007#00 R
(1720633663.441846) can0 00E#5128 R
(1720633663.442012) can0 05C#51285128 R
(1720633663.442133) can0 041#00 R
(1720633663.442248) can0 016#06 R
(1720633663.442369) can0 015#00 R
(1720633663.442486) can0 017#00 R
(1720633663.442608) can0 056#00 R
(1720633663.470432) can0 00D#1C29 R
(1720633663.470565) can0 05B#1C29 R
(1720633663.470678) can0 014#00 R
(1720633663.470798) can0 008#00 R
(1720633663.470916) can0 055#00 R
(1720633663.471036) can0 05D#00 R
(1720633663.473205) can0 056#00 R
(1720633663.475107) can0 015#00 R
(1720633663.475218) can0 016#06 R
(1720633663.475353) can0 00E#5129 R
(1720633663.475496) can0 00E#5129 R
(1720633663.475646) can0 05C#51295129 R
(1720633663.482083) can0 041#00 R
(1720633663.482253) can0 05C#7F297F29 R
(1720633663.482362) can0 016#06 R
(1720633663.491050) can0 00E#CB29 R
(1720633663.491213) can0 05C#CB29CB29 R
(1720633663.491333) can0 041#00 R
(1720633663.491452) can0 016#06 R
(1720633663.491571) can0 015#00 R
(1720633663.491688) can0 017#00 R
(1720633663.491809) can0 056#00 R
(1720633663.501180) can0 007#00 R
(1720633663.532376) can0 00D#F52A R
(1720633663.532470) can0 05B#F52A R
(1720633663.532585) can0 014#00 R
(1720633663.532693) can0 008#00 R
(1720633663.532812) can0 055#00 R
(1720633663.532932) can0 05D#00 R
(1720633663.534061) can0 056#00 R
(1720633663.534193) can0 00E#0C2B R
(1720633663.534329) can0 00E#0C2B R
(1720633663.535021) can0 05C#142B142B R
(1720633663.535128) can0 016#06 R
(1720633663.536031) can0 015#00 R
(1720633663.536999) can0 016#06 R
(1720633663.537118) can0 041#00 R
(1720633663.537282) can0 05C#2B2B2B2B R
(1720633663.541959) can0 00E#4A2B R
(1720633663.542126) can0 05C#4A2B4A2B R
(1720633663.542245) can0 041#00 R
(1720633663.542360) can0 016#06 R
(1720633663.542483) can0 015#00 R
(1720633663.542598) can0 017#00 R
(1720633663.542719) can0 056#00 R
(1720633663.563316) can0 007#00 R
(1720633663.591926) can0 00E#CF2C R
(1720633663.592085) can0 05C#CF2CCF2C R
(1720633663.592208) can0 041#00 R
(1720633663.592321) can0 016#07 R
(1720633663.592443) can0 015#00 R
(1720633663.592563) can0 017#00 R
(1720633663.592679) can0 056#00 R
(1720633663.594199) can0 00D#CF2C R
(1720633663.594331) can0 05B#CF2C R
(1720633663.594446) can0 014#00 R
(1720633663.594566) can0 008#00 R
(1720633663.594683) can0 055#00 R
(1720633663.594803) can0 05D#00 R
(1720633663.596840) can0 056#00 R
(1720633663.596975) can0 00E#F62C R
(1720633663.597747) can0 015#00 R
(1720633663.597862) can0 016#07 R
(1720633663.597984) can0 041#00 R
(1720633663.598125) can0 00E#FE2C R
(1720633663.598283) can0 05C#FE2CFE2C R
(1720633663.598401) can0 016#07 R
(1720633663.598835) can0 05C#052D052D R
(1720633663.624765) can0 007#00 R
(1720633663.641725) can0 00E#582E R
(1720633663.641885) can0 05C#582E582E R
(1720633663.642010) can0 041#00 R
(1720633663.642125) can0 016#07 R
(1720633663.642245) can0 015#00 R
(1720633663.642360) can0 017#00 R
(1720633663.642482) can0 056#00 R
(1720633663.655475) can0 00D#B82E R
(1720633663.655607) can0 05B#B82E R
(1720633663.655722) can0 014#00 R
(1720633663.655839) can0 008#00 R
(1720633663.655959) can0 055#00 R
(1720633663.656078) can0 05D#00 R
(1720633663.657935) can0 056#00 R
(1720633663.658070) can0 00E#D72E R
(1720633663.659010) can0 00E#DF2E R
(1720633663.659176) can0 05C#DF2EDF2E R
(1720633663.659287) can0 016#07 R
(1720633663.659972) can0 015#00 R
(1720633663.660093) can0 016#07 R
(1720633663.660213) can0 041#00 R
(1720633663.661016) can0 05C#EF2EEF2E R
(1720633663.686378) can0 007#00 R
(1720633663.691177) can0 00E#E72F R
(1720633663.691344) can0 05C#E72FE72F R
(1720633663.691461) can0 041#00 R
(1720633663.691579) can0 016#07 R
(1720633663.691698) can0 015#00 R
(1720633663.691815) can0 017#00 R
(1720633663.691934) can0 056#00 R
(1720633663.717461) can0 00D#A930 R
(1720633663.717587) can0 05B#A930 R
(1720633663.717701) can0 014#00 R
(1720633663.717819) can0 008#00 R
(1720633663.717940) can0 055#00 R
(1720633663.718057) can0 05D#00 R
(1720633663.720358) can0 056#00 R
(1720633663.720481) can0 00E#D130 R
(1720633663.720603) can0 00E#D130 R
(1720633663.720772) can0 05C#D130D130 R
(1720633663.721240) can0 015#00 R
(1720633663.721347) can0 016#07 R
(1720633663.721465) can0 016#07 R
(1720633663.722137) can0 041#00 R
(1720633663.722302) can0 05C#E130E130 R
(1720633663.742161) can0 00E#7B31 R
(1720633663.742325) can0 05C#7B317B31 R
(1720633663.742446) can0 041#00 R
(1720633663.742560) can0 016#07 R
(1720633663.742680) can0 015#00 R
(1720633663.742796) can0 017#00 R
(1720633663.742917) can0 056#00 R
(1720633663.748391) can0 007#00 R
(1720633663.779590) can0 00D#A132 R
(1720633663.779721) can0 05B#A132 R
(1720633663.779835) can0 014#00 R
(1720633663.779953) can0 008#00 R
(1720633663.780073) can0 055#00 R
(1720633663.780191) can0 05D#00 R
(1720633663.781438) can0 00E#C232 R
(1720633663.781567) can0 00E#C232 R
(1720633663.782365) can0 015#00 R
(1720633663.782479) can0 016#07 R
(1720633663.782599) can0 056#00 R
(1720633663.782764) can0 05C#CA32CA32 R
(1720633663.782883) can0 016#07 R
(1720633663.783552) can0 041#00 R
(1720633663.783714) can0 05C#D232D232 R
(1720633663.791493) can0 00E#1433 R
(1720633663.791662) can0 05C#14331433 R
(1720633663.791777) can0 041#00 R
(1720633663.791899) can0 016#07 R
(1720633663.792013) can0 015#00 R
(1720633663.792136) can0 017#00 R
(1720633663.792252) can0 056#00 R
(1720633663.810922) can0 007#00 R
(1720633663.842221) can0 00E#B234 R
(1720633663.842348) can0 00D#AA34 R
(1720633663.842481) can0 05B#AA34 R
(1720633663.842596) can0 014#00 R
(1720633663.842713) can0 008#00 R
(1720633663.842834) can0 055#00 R
(1720633663.843012) can0 05C#B234B234 R
(1720633663.843119) can0 041#00 R
(1720633663.843235) can0 016#08 R
(1720633663.843356) can0 015#00 R
(1720633663.843471) can0 017#00 R
(1720633663.843591) can0 056#00 R
(1720633663.843709) can0 05D#00 R
(1720633663.845124) can0 056#00 R
(1720633663.845255) can0 00E#CB34 R
(1720633663.846048) can0 015#00 R
(1720633663.846159) can0 016#08 R
(1720633663.846284) can0 041#00 R
(1720633663.846414) can0 00E#D334 R
(1720633663.846579) can0 05C#D334D334 R
(1720633663.846689) can0 016#08 R
(1720633663.847084) can0 05C#DC34DC34 R
(1720633663.873143) can0 007#00 R
(1720633663.892221) can0 00E#5536 R
(1720633663.892386) can0 05C#55365536 R
(1720633663.892502) can0 041#00 R
(1720633663.892618) can0 016#08 R
(1720633663.892737) can0 015#00 R
(1720633663.892854) can0 017#00 R
(1720633663.892973) can0 056#00 R
(1720633663.904199) can0 00D#A936 R
(1720633663.904330) can0 05B#A936 R
(1720633663.904580) can0 014#00 R
(1720633663.904700) can0 008#00 R
(1720633663.904815) can0 055#00 R
(1720633663.904933) can0 05D#00 R
(1720633663.906645) can0 056#00 R
(1720633663.906784) can0 00E#D336 R
(1720633663.907708) can0 00E#DC36 R
(1720633663.907871) can0 05C#DC36DC36 R
(1720633663.907982) can0 016#08 R
(1720633663.908639) can0 015#00 R
(1720633663.908751) can0 016#08 R
(1720633663.908875) can0 041#00 R
(1720633663.909499) can0 05C#EC36EC36 R
(1720633663.934079) can0 007#00 R
(1720633663.942009) can0 00E#FC37 R
(1720633663.942176) can0 05C#FC37FC37 R
(1720633663.942296) can0 041#00 R
(1720633663.942411) can0 016#08 R
(1720633663.942531) can0 015#00 R
(1720633663.942647) can0 017#00 R
(1720633663.942768) can0 056#00 R
(1720633663.964291) can0 00D#AF38 R
(1720633663.964425) can0 05B#AF38 R
(1720633663.964597) can0 014#00 R
(1720633663.964714) can0 008#00 R
(1720633663.964834) can0 055#00 R
(1720633663.964952) can0 05D#00 R
(1720633663.967272) can0 056#00 R
(1720633663.968745) can0 015#00 R
(1720633663.968875) can0 00E#E238 R
(1720633663.969008) can0 00E#E238 R
(1720633663.969170) can0 05C#E238E238 R
(1720633663.969335) can0 016#08 R
(1720633663.969455) can0 041#00 R
(1720633663.969624) can0 05C#EB38EB38 R
(1720633663.969756) can0 016#08 R
(1720633663.991996) can0 00E#A839 R
(1720633663.992164) can0 05C#A839A839 R
(1720633663.992284) can0 041#00 R
(1720633663.992399) can0 016#09 R
(1720633663.992521) can0 015#00 R
(1720633663.992635) can0 017#00 R
(1720633663.992756) can0 056#00 R
(1720633663.995233) can0 007#00 R
(1720633664.025058) can0 00D#B33A R
(1720633664.025187) can0 05B#B33A R
(1720633664.025303) can0 014#00 R
(1720633664.025420) can0 008#00 R
(1720633664.025540) can0 055#00 R
(1720633664.025684) can0 05D#00 R
(1720633664.027843) can0 056#00 R
(1720633664.027970) can0 00E#DE3A R
(1720633664.028101) can0 00E#DE3A R
(1720633664.028773) can0 05C#E73AE73A R
(1720633664.028888) can0 016#09 R
(1720633664.029597) can0 015#00 R
(1720633664.029712) can0 016#09 R
(1720633664.029836) can0 041#00 R
(1720633664.030005) can0 05C#F03AF03A R
(1720633664.042203) can0 00E#583B R
(1720633664.042374) can0 05C#583B583B R
(1720633664.042494) can0 041#00 R
(1720633664.042610) can0 016#09 R
(1720633664.042730) can0 015#00 R
(1720633664.042847) can0 017#00 R
(1720633664.043000) can0 056#00 R
(1720633664.055105) can0 007#00 R
(1720633664.086170) can0 00D#C63C R
(1720633664.086302) can0 05B#C63C R
(1720633664.086415) can0 014#00 R
(1720633664.086557) can0 008#00 R
(1720633664.086673) can0 055#00 R
(1720633664.086793) can0 05D#00 R
(1720633664.089004) can0 056#00 R
(1720633664.089138) can0 00E#F23C R
(1720633664.090152) can0 015#00 R
(1720633664.090265) can0 016#09 R
(1720633664.090402) can0 00E#FB3C R
(1720633664.090573) can0 05C#FB3CFB3C R
(1720633664.090687) can0 016#09 R
(1720633664.090824) can0 041#00 R
(1720633664.090998) can0 05C#043D043D R
(1720633664.091890) can0 00E#0C3D R
(1720633664.092052) can0 05C#0C3D0C3D R
(1720633664.092178) can0 041#00 R
(1720633664.092289) can0 016#09 R
(1720633664.092416) can0 015#00 R
(1720633664.092526) can0 017#00 R
(1720633664.092648) can0 056#00 R
(1720633664.116217) can0 007#00 R
(1720633664.142065) can0 00E#C53E R
(1720633664.142220) can0 05C#C53EC53E R
(1720633664.142337) can0 041#00 R
(1720633664.142457) can0 016#09 R
(1720633664.142573) can0 015#00 R
(1720633664.142690) can0 017#00 R
(1720633664.142813) can0 056#00 R
(1720633664.146196) can0 00D#E03E R
(1720633664.146329) can0 05B#E03E R
(1720633664.146446) can0 014#00 R
(1720633664.146562) can0 008#00 R
(1720633664.146683) can0 055#00 R
(1720633664.146800) can0 05D#00 R
(1720633664.147910) can0 056#00 R
(1720633664.148968) can0 00E#033F R
(1720633664.150023) can0 015#00 R
(1720633664.150165) can0 00E#0C3F R
(1720633664.150329) can0 05C#0C3F0C3F R
(1720633664.150445) can0 016#09 R
(1720633664.150998) can0 016#09 R
(1720633664.151117) can0 041#00 R
(1720633664.151289) can0 05C#153F153F R
(1720633664.176602) can0 007#00 R
(1720633664.192425) can0 00E#8240 R
(1720633664.192598) can0 05C#82408240 R
(1720633664.192718) can0 041#00 R
(1720633664.192831) can0 016#0A R
(1720633664.192952) can0 015#00 R
(1720633664.193067) can0 017#00 R
(1720633664.193188) can0 056#00 R
(1720633664.207655) can0 00D#FF40 R
(1720633664.207793) can0 05B#FF40 R
(1720633664.207902) can0 014#00 R
(1720633664.208023) can0 008#00 R
(1720633664.208142) can0 055#00 R
(1720633664.208260) can0 05D#00 R
(1720633664.212390) can0 056#00 R
(1720633664.214435) can0 00E#4741 R
(1720633664.214573) can0 00E#4741 R
(1720633664.214745) can0 05C#47414741 R
(1720633664.216490) can0 015#00 R
(1720633664.216601) can0 016#0A R
(1720633664.216726) can0 041#00 R
(1720633664.216839) can0 016#0A R
(1720633664.218575) can0 05C#6B416B41 R
(1720633664.238777) can0 007#00 R
(1720633664.241472) can0 00E#4342 R
(1720633664.241638) can0 05C#43424342 R
(1720633664.241754) can0 041#00 R
(1720633664.241867) can0 016#0A R
(1720633664.241994) can0 015#00 R
(1720633664.242116) can0 017#00 R
(1720633664.242225) can0 056#00 R
(1720633664.270600) can0 00D#3743 R
(1720633664.270730) can0 05B#3743 R
(1720633664.270905) can0 014#00 R
(1720633664.271033) can0 008#00 R
(1720633664.271148) can0 055#00 R
(1720633664.271263) can0 05D#00 R
(1720633664.273316) can0 056#00 R
(1720633664.273450) can0 00E#5B43 R
(1720633664.273585) can0 00E#5B43 R
(1720633664.274205) can0 015#00 R
(1720633664.274372) can0 05C#64436443 R
(1720633664.274482) can0 016#0A R
(1720633664.275371) can0 016#0A R
(1720633664.275486) can0 041#00 R
(1720633664.275655) can0 05C#6E436D43 R
(1720633664.292344) can0 00E#0844 R
(1720633664.292505) can0 05C#08440844 R
(1720633664.292634) can0 041#00 R
(1720633664.292741) can0 016#0A R
(1720633664.292862) can0 015#00 R
(1720633664.292978) can0 017#00 R
(1720633664.293097) can0 056#00 R
(1720633664.302378) can0 007#00 R
(1720633664.332561) can0 00D#6C45 R
(1720633664.332686) can0 05B#6C45 R
(1720633664.332805) can0 014#00 R
(1720633664.332926) can0 008#00 R
(1720633664.333040) can0 055#00 R
(1720633664.333163) can0 05D#00 R
(1720633664.335424) can0 056#00 R
(1720633664.335557) can0 00E#9045 R
(1720633664.337413) can0 00E#A345 R
(1720633664.337577) can0 05C#A345A345 R
(1720633664.337688) can0 016#0A R
(1720633664.339598) can0 015#00 R
(1720633664.339709) can0 016#0A R
(1720633664.339833) can0 041#00 R
(1720633664.339997) can0 05C#B545B545 R
(1720633664.342484) can0 00E#DA45 R
(1720633664.342633) can0 05C#DA45DA45 R
(1720633664.342758) can0 041#00 R
(1720633664.342869) can0 016#0A R
(1720633664.343027) can0 015#00 R
(1720633664.343083) can0 017#00 R
(1720633664.343229) can0 056#00 R
(1720633664.362918) can0 007#00 R
(1720633664.392551) can0 00E#A647 R
(1720633664.392711) can0 05C#A647A647 R
(1720633664.392826) can0 041#00 R
(1720633664.392944) can0 016#0B R
(1720633664.393061) can0 015#00 R
(1720633664.393182) can0 017#00 R
(1720633664.393297) can0 056#00 R
(1720633664.394964) can0 00D#A647 R
(1720633664.395083) can0 05B#A647 R
(1720633664.395195) can0 014#00 R
(1720633664.395318) can0 008#00 R
(1720633664.395432) can0 055#00 R
(1720633664.395558) can0 05D#00 R
(1720633664.397606) can0 056#00 R
(1720633664.397735) can0 00E#D447 R
(1720633664.398542) can0 00E#DE47 R
(1720633664.398707) can0 05C#DE47DD47 R
(1720633664.398818) can0 016#0B R
(1720633664.399557) can0 015#00 R
(1720633664.399669) can0 016#0B R
(1720633664.399792) can0 041#00 R
(1720633664.400670) can0 05C#F047F047 R
(1720633664.424973) can0 007#00 R
(1720633664.443641) can0 00E#7649 R
(1720633664.443785) can0 05C#76497649 R
(1720633664.443909) can0 041#00 R
(1720633664.444022) can0 016#0B R
(1720633664.444142) can0 015#00 R
(1720633664.444257) can0 017#00 R
(1720633664.444378) can0 056#00 R
(1720633664.456911) can0 00D#E649 R
(1720633664.457041) can0 05B#E649 R
(1720633664.457157) can0 014#00 R
(1720633664.457275) can0 008#00 R
(1720633664.457395) can0 055#00 R
(1720633664.457513) can0 05D#00 R
(1720633664.460664) can0 056#00 R
(1720633664.462221) can0 00E#274A R
(1720633664.462357) can0 00E#274A R
(1720633664.462514) can0 05C#274A274A R
(1720633664.463027) can0 015#00 R
(1720633664.463138) can0 016#0B R
(1720633664.463259) can0 041#00 R
(1720633664.463373) can0 016#0B R
(1720633664.470193) can0 05C#724A724A R
(1720633664.487278) can0 007#00 R
(1720633664.493312) can0 00E#494B R
(1720633664.493469) can0 05C#494B494B R
(1720633664.493599) can0 041#00 R
(1720633664.493706) can0 016#0B R
(1720633664.493828) can0 015#00 R
(1720633664.493942) can0 017#00 R
(1720633664.494064) can0 056#00 R
(1720633664.517909) can0 00D#214C R
(1720633664.518043) can0 05B#214C R
(1720633664.518157) can0 014#00 R
(1720633664.518275) can0 008#00 R
(1720633664.518395) can0 055#00 R
(1720633664.518514) can0 05D#00 R
(1720633664.519863) can0 00E#474C R
(1720633664.519996) can0 00E#474C R
(1720633664.520737) can0 056#00 R
(1720633664.520903) can0 05C#504C504C R
(1720633664.521018) can0 016#0B R
(1720633664.522765) can0 015#00 R
(1720633664.522875) can0 016#0B R
(1720633664.523023) can0 041#00 R
(1720633664.524126) can0 05C#6D4C6D4C R
(1720633664.543044) can0 00E#204D R
(1720633664.543211) can0 05C#204D204D R
(1720633664.543331) can0 041#00 R
(1720633664.543445) can0 016#0C R
(1720633664.543566) can0 015#00 R
(1720633664.543694) can0 017#00 R
(1720633664.543801) can0 056#00 R
(1720633664.548089) can0 007#00 R
(1720633664.578261) can0 00D#624E R
(1720633664.578391) can0 05B#624E R
(1720633664.578505) can0 014#00 R
(1720633664.578623) can0 008#00 R
(1720633664.578743) can0 055#00 R
(1720633664.578862) can0 05D#00 R
(1720633664.580017) can0 00E#7E4E R
(1720633664.581137) can0 056#00 R
(1720633664.581266) can0 00E#884E R
(1720633664.581430) can0 05C#884E884E R
(1720633664.581540) can0 016#0C R
(1720633664.582088) can0 015#00 R
(1720633664.583172) can0 016#0C R
(1720633664.583292) can0 041#00 R
(1720633664.583457) can0 05C#9B4E9B4E R
(1720633664.593204) can0 00E#FA4E R
(1720633664.593377) can0 05C#FA4EFA4E R
(1720633664.593495) can0 041#00 R
(1720633664.593615) can0 016#0C R
(1720633664.593732) can0 015#00 R
(1720633664.593845) can0 017#00 R
(1720633664.593971) can0 056#00 R
(1720633664.608493) can0 007#00 R
(1720633664.640046) can0 00D#A750 R
(1720633664.640173) can0 05B#A750 R
(1720633664.640292) can0 014#00 R
(1720633664.640405) can0 008#00 R
(1720633664.640525) can0 055#00 R
(1720633664.640644) can0 05D#00 R
(1720633664.643312) can0 056#00 R
(1720633664.643447) can0 00E#CD50 R
(1720633664.643841) can0 00E#D750 R
(1720633664.643989) can0 05C#D750D750 R
(1720633664.644100) can0 016#0C R
(1720633664.644233) can0 00E#D750 R
(1720633664.644397) can0 05C#D750D750 R
(1720633664.644518) can0 041#00 R
(1720633664.644631) can0 016#0C R
(1720633664.644754) can0 015#00 R
(1720633664.644869) can0 017#00 R
(1720633664.644990) can0 056#00 R
(1720633664.645109) can0 015#00 R
(1720633664.645224) can0 016#0C R
(1720633664.645346) can0 041#00 R
(1720633664.645519) can0 05C#E050E050 R
(1720633664.670864) can0 007#00 R
(1720633664.693322) can0 00E#B752 R
(1720633664.693490) can0 05C#B752B752 R
(1720633664.693603) can0 041#00 R
(1720633664.693717) can0 016#0C R
(1720633664.693839) can0 015#00 R
(1720633664.693953) can0 017#00 R
(1720633664.694074) can0 056#00 R
(1720633664.702150) can0 00D#FA52 R
(1720633664.702282) can0 05B#FA52 R
(1720633664.702434) can0 014#00 R
(1720633664.702548) can0 008#00 R
(1720633664.702669) can0 055#00 R
(1720633664.702786) can0 05D#00 R
(1720633664.704612) can0 056#00 R
(1720633664.705684) can0 015#00 R
(1720633664.705817) can0 00E#2B53 R
(1720633664.705952) can0 00E#2B53 R
(1720633664.706114) can0 05C#2A532A53 R
(1720633664.706630) can0 016#0D R
(1720633664.706752) can0 041#00 R
(1720633664.706925) can0 05C#3E533E53 R
(1720633664.707010) can0 016#0D R
(1720633664.732555) can0 007#00 R
(1720633664.743765) can0 00E#9A54 R
(1720633664.743929) can0 05C#9A549A54 R
(1720633664.744055) can0 041#00 R
(1720633664.744162) can0 016#0D R
(1720633664.744282) can0 015#00 R
(1720633664.744399) can0 017#00 R
(1720633664.744518) can0 056#00 R
(1720633664.763682) can0 00D#5255 R
(1720633664.763815) can0 05B#5255 R
(1720633664.763930) can0 014#00 R
(1720633664.764050) can0 008#00 R
(1720633664.764170) can0 055#00 R
(1720633664.764290) can0 05D#00 R
(1720633664.765344) can0 056#00 R
(1720633664.766395) can0 00E#7955 R
(1720633664.766524) can0 00E#7955 R
(1720633664.767187) can0 015#00 R
(1720633664.767358) can0 05C#82558255 R
(1720633664.767464) can0 016#0D R
(1720633664.768287) can0 016#0D R
(1720633664.768409) can0 041#00 R
(1720633664.768572) can0 05C#8C558C55 R
(1720633664.793757) can0 00E#7F56 R
(1720633664.793919) can0 05C#7F567F56 R
(1720633664.794048) can0 041#00 R
(1720633664.794151) can0 016#0D R
(1720633664.794272) can0 007#00 R
(1720633664.794396) can0 015#00 R
(1720633664.794506) can0 017#00 R
(1720633664.794632) can0 056#00 R
(1720633664.824425) can0 00D#9A57 R
(1720633664.824554) can0 05B#9A57 R
(1720633664.824668) can0 014#00 R
(1720633664.824785) can0 008#00 R
(1720633664.824906) can0 055#00 R
(1720633664.825024) can0 05D#00 R
(1720633664.826147) can0 056#00 R
(1720633664.826279) can0 00E#C157 R
(1720633664.827181) can0 00E#CB57 R
(1720633664.827348) can0 05C#CB57CB57 R
(1720633664.827457) can0 016#0D R
(1720633664.828197) can0 015#00 R
(1720633664.828310) can0 016#0D R
(1720633664.829138) can0 041#00 R
(1720633664.829304) can0 05C#DF57DE57 R
(1720633664.843747) can0 00E#6858 R
(1720633664.843912) can0 05C#67586758 R
(1720633664.844032) can0 041#00 R
(1720633664.844148) can0 016#0D R
(1720633664.844265) can0 015#00 R
(1720633664.844383) can0 017#00 R
(1720633664.844503) can0 056#00 R
(1720633664.855192) can0 007#00 R
(1720633664.885235) can0 00D#F059 R
(1720633664.885360) can0 05B#F059 R
(1720633664.885478) can0 014#00 R
(1720633664.885593) can0 008#00 R
(1720633664.885715) can0 055#00 R
(1720633664.885831) can0 05D#00 R
(1720633664.886370) can0 056#00 R
(1720633664.887459) can0 00E#175A R
(1720633664.888273) can0 015#00 R
(1720633664.888386) can0 016#0E R
(1720633664.888511) can0 041#00 R
(1720633664.888640) can0 00E#215A R
(1720633664.888806) can0 05C#215A215A R
(1720633664.888919) can0 016#0E R
(1720633664.889249) can0 05C#2B5A2B5A R
(1720633664.893497) can0 00E#525A R
(1720633664.893665) can0 05C#525A525A R
(1720633664.893779) can0 041#00 R
(1720633664.893896) can0 016#0E R
(1720633664.894016) can0 015#00 R
(1720633664.894136) can0 017#00 R
(1720633664.894252) can0 056#00 R
(1720633664.915500) can0 007#00 R
(1720633664.942927) can0 00E#3F5C R
(1720633664.943116) can0 05C#3F5C3F5C R
(1720633664.943221) can0 041#00 R
(1720633664.943333) can0 016#0E R
(1720633664.943453) can0 015#00 R
(1720633664.943570) can0 017#00 R
(1720633664.943689) can0 056#00 R
(1720633664.945798) can0 00D#495C R
(1720633664.945911) can0 05B#495C R
(1720633664.946032) can0 014#00 R
(1720633664.946148) can0 008#00 R
(1720633664.946270) can0 055#00 R
(1720633664.946390) can0 05D#00 R
(1720633664.948877) can0 015#00 R
(1720633664.948994) can0 056#00 R
(1720633664.949126) can0 00E#7B5C R
(1720633664.949255) can0 00E#7B5C R
(1720633664.949424) can0 05C#7B5C7B5C R
(1720633664.950003) can0 016#0E R
(1720633664.950125) can0 041#00 R
(1720633664.950288) can0 05C#845C845C R
(1720633664.950402) can0 016#0E R
(1720633664.976904) can0 007#00 R
(1720633664.993072) can0 00E#2F5E R
(1720633664.993235) can0 05C#2F5E2F5E R
(1720633664.993355) can0 041#00 R
(1720633664.993472) can0 016#0E R
(1720633664.993591) can0 015#00 R
(1720633664.993709) can0 017#00 R
(1720633664.993827) can0 056#00 R
(1720633665.007608) can0 00D#A65E R
(1720633665.007733) can0 05B#A65E R
(1720633665.007855) can0 014#00 R
(1720633665.007968) can0 008#00 R
(1720633665.008093) can0 055#00 R
(1720633665.008206) can0 05D#00 R
(1720633665.009276) can0 056#00 R
(1720633665.010239) can0 00E#D85E R
(1720633665.010373) can0 00E#D85E R
(1720633665.011258) can0 05C#E15EE15E R
(1720633665.011374) can0 016#0E R
(1720633665.012190) can0 015#00 R
(1720633665.012304) can0 016#0E R
(1720633665.012427) can0 041#00 R
(1720633665.012598) can0 05C#EB5EEB5E R
(1720633665.037288) can0 007#00 R
(1720633665.043636) can0 00E#2060 R
(1720633665.043807) can0 05C#20602060 R
(1720633665.043925) can0 041#00 R
(1720633665.044043) can0 016#0F R
(1720633665.044163) can0 015#00 R
(1720633665.044280) can0 017#00 R
(1720633665.044399) can0 056#00 R
(1720633665.068333) can0 00D#0661 R
(1720633665.068465) can0 05B#0661 R
(1720633665.068581) can0 014#00 R
(1720633665.068698) can0 008#00 R
(1720633665.068819) can0 055#00 R
(1720633665.068936) can0 05D#00 R
(1720633665.071247) can0 056#00 R
(1720633665.071377) can0 00E#3861 R
(1720633665.072158) can0 015#00 R
(1720633665.072273) can0 016#0F R
(1720633665.072409) can0 00E#4261 R
(1720633665.072571) can0 05C#42614261 R
(1720633665.072684) can0 016#0F R
(1720633665.073067) can0 041#00 R
(1720633665.073230) can0 05C#4C614B61 R
(1720633665.092815) can0 00E#1462 R
(1720633665.092977) can0 05C#14621462 R
(1720633665.093104) can0 041#00 R
(1720633665.093217) can0 016#0F R
(1720633665.093337) can0 015#00 R
(1720633665.093452) can0 017#00 R
(1720633665.093574) can0 056#00 R
(1720633665.099026) can0 007#00 R
(1720633665.130319) can0 00D#7263 R
(1720633665.130448) can0 05B#7263 R
(1720633665.130563) can0 014#00 R
(1720633665.130681) can0 008#00 R
(1720633665.130800) can0 055#00 R
(1720633665.130920) can0 05D#00 R
(1720633665.132410) can0 00E#9A63 R
(1720633665.133122) can0 056#00 R
(1720633665.133253) can0 00E#A563 R
(1720633665.133418) can0 05C#A463A463 R
(1720633665.133532) can0 016#0F R
(1720633665.134132) can0 015#00 R
(1720633665.134245) can0 016#0F R
(1720633665.134370) can0 041#00 R
(1720633665.135096) can0 05C#B963B963 R
(1720633665.143425) can0 00E#0964 R
(1720633665.143593) can0 05C#09640964 R
(1720633665.143713) can0 041#00 R
(1720633665.143829) can0 016#0F R
(1720633665.143949) can0 015#00 R
(1720633665.144064) can0 017#00 R
(1720633665.144185) can0 056#00 R
(1720633665.160673) can0 007#00 R
(1720633665.190158) can0 00D#CE65 R
(1720633665.190289) can0 05B#CE65 R
(1720633665.190403) can0 014#00 R
(1720633665.190522) can0 008#00 R
(1720633665.190642) can0 055#00 R
(1720633665.190760) can0 05D#00 R
(1720633665.192273) can0 056#00 R
(1720633665.193218) can0 00E#0066 R
(1720633665.193357) can0 00E#0066 R
(1720633665.193523) can0 05C#00660066 R
(1720633665.193661) can0 00E#0066 R
(1720633665.193828) can0 05C#00660066 R
(1720633665.193949) can0 041#00 R
(1720633665.194065) can0 016#0F R
(1720633665.194210) can0 015#00 R
(1720633665.194305) can0 017#00 R
(1720633665.194420) can0 056#00 R
(1720633665.194542) can0 015#00 R
(1720633665.194657) can0 016#0F R
(1720633665.194779) can0 041#00 R
(1720633665.194897) can0 016#0F R
(1720633665.195336) can0 05C#14661466 R
(1720633665.220625) can0 007#00 R
(1720633665.243459) can0 00E#F967 R
(1720633665.243625) can0 05C#F967F967 R
(1720633665.243740) can0 041#00 R
(1720633665.243856) can0 016#10 R
(1720633665.243976) can0 015#00 R
(1720633665.244095) can0 017#00 R
(1720633665.244218) can0 056#00 R
(1720633665.250994) can0 00D#3668 R
(1720633665.251119) can0 05B#3668 R
(1720633665.251236) can0 014#00 R
(1720633665.251354) can0 008#00 R
(1720633665.251474) can0 055#00 R
(1720633665.251592) can0 05D#00 R
(1720633665.253703) can0 056#00 R
(1720633665.253833) can0 00E#5E68 R
(1720633665.253988) can0 00E#5E68 R
(1720633665.254609) can0 015#00 R
(1720633665.254723) can0 016#10 R
(1720633665.254889) can0 05C#68686868 R
(1720633665.254996) can0 016#10 R
(1720633665.255453) can0 041#00 R
(1720633665.255619) can0 05C#72687268 R
(1720633665.281668) can0 007#00 R
(1720633665.292850) can0 00E#F369 R
(1720633665.293017) can0 05C#F369F369 R
(1720633665.293131) can0 041#00 R
(1720633665.293249) can0 016#10 R
(1720633665.293366) can0 015#00 R
(1720633665.293484) can0 017#00 R
(1720633665.293611) can0 056#00 R
(1720633665.313210) can0 00D#AA6A R
(1720633665.313347) can0 05B#AA6A R
(1720633665.313456) can0 014#00 R
(1720633665.313574) can0 008#00 R
(1720633665.313697) can0 055#00 R
(1720633665.313820) can0 05D#00 R
(1720633665.315030) can0 056#00 R
(1720633665.315884) can0 00E#DD6A R
(1720633665.317072) can0 00E#E76A R
(1720633665.317235) can0 05C#E76AE76A R
(1720633665.317346) can0 016#10 R
(1720633665.318087) can0 015#00 R
(1720633665.318199) can0 016#10 R
(1720633665.318323) can0 041#00 R
(1720633665.318493) can0 05C#F16AF16A R
(1720633665.343820) can0 007#00 R
(1720633665.343949) can0 00E#EF6B R
(1720633665.344116) can0 05C#EF6BEF6B R
(1720633665.344240) can0 041#00 R
(1720633665.344349) can0 016#10 R
(1720633665.344470) can0 015#00 R
(1720633665.344585) can0 017#00 R
(1720633665.344709) can0 056#00 R
(1720633665.375318) can0 00D#206D R
(1720633665.375448) can0 05B#206D R
(1720633665.375624) can0 014#00 R
(1720633665.375750) can0 008#00 R
(1720633665.375865) can0 055#00 R
(1720633665.375984) can0 05D#00 R
(1720633665.378180) can0 056#00 R
(1720633665.378317) can0 00E#536D R
(1720633665.379214) can0 015#00 R
(1720633665.379327) can0 016#11 R
(1720633665.379460) can0 00E#5D6D R
(1720633665.379620) can0 05C#5D6D5D6D R
(1720633665.379735) can0 016#11 R
(1720633665.380188) can0 041#00 R
(1720633665.380351) can0 05C#676D676D R
(1720633665.393231) can0 00E#EC6D R
(1720633665.393395) can0 05C#EC6DEC6D R
(1720633665.393519) can0 041#00 R
(1720633665.393627) can0 016#11 R
(1720633665.393753) can0 015#00 R
(1720633665.393864) can0 017#00 R
(1720633665.393985) can0 056#00 R
(1720633665.405580) can0 007#00 R
(1720633665.436481) can0 00D#8E6F R
(1720633665.436610) can0 05B#8E6F R
(1720633665.436726) can0 014#00 R
(1720633665.436844) can0 008#00 R
(1720633665.436964) can0 055#00 R
(1720633665.437082) can0 05D#00 R
(1720633665.439628) can0 015#00 R
(1720633665.439750) can0 056#00 R
(1720633665.439880) can0 00E#C16F R
(1720633665.440015) can0 00E#C16F R
(1720633665.440186) can0 05C#C16FC16F R
(1720633665.440654) can0 016#11 R
(1720633665.440777) can0 041#00 R
(1720633665.440943) can0 05C#CB6FCB6F R
(1720633665.441053) can0 016#11 R
(1720633665.443908) can0 00E#EA6F R
(1720633665.444074) can0 05C#EA6FEA6F R
(1720633665.444196) can0 041#00 R
(1720633665.444308) can0 016#11 R
(1720633665.444430) can0 015#00 R
(1720633665.444551) can0 017#00 R
(1720633665.444667) can0 056#00 R
(1720633665.467972) can0 007#00 R
(1720633665.493822) can0 00E#E971 R
(1720633665.493978) can0 05C#E971E971 R
(1720633665.494097) can0 041#00 R
(1720633665.494210) can0 016#11 R
(1720633665.494331) can0 015#00 R
(1720633665.494447) can0 017#00 R
(1720633665.494566) can0 056#00 R
(1720633665.499178) can0 00D#1272 R
(1720633665.499312) can0 05B#1272 R
(1720633665.499426) can0 014#00 R
(1720633665.499545) can0 008#00 R
(1720633665.499665) can0 055#00 R
(1720633665.499784) can0 05D#00 R
(1720633665.500853) can0 056#00 R
(1720633665.501813) can0 00E#3B72 R
(1720633665.501944) can0 00E#3B72 R
(1720633665.502583) can0 015#00 R
(1720633665.502694) can0 016#11 R
(1720633665.502817) can0 041#00 R
(1720633665.502987) can0 05C#45724572 R
(1720633665.503097) can0 016#11 R
(1720633665.503680) can0 05C#4F724F72 R
(1720633665.529927) can0 007#00 R
(1720633665.544043) can0 00E#E973 R
(1720633665.544207) can0 05C#E973E973 R
(1720633665.544327) can0 041#00 R
(1720633665.544437) can0 016#12 R
(1720633665.544557) can0 015#00 R
(1720633665.544675) can0 017#00 R
(1720633665.544795) can0 056#00 R
(1720633665.560373) can0 00D#8374 R
(1720633665.560504) can0 05B#8374 R
(1720633665.560618) can0 014#00 R
(1720633665.560737) can0 008#00 R
(1720633665.560857) can0 055#00 R
(1720633665.560977) can0 05D#00 R
(1720633665.562163) can0 056#00 R
(1720633665.563405) can0 00E#B674 R
(1720633665.564302) can0 00E#C074 R
(1720633665.564471) can0 05C#C074C074 R
(1720633665.564583) can0 016#12 R
(1720633665.565241) can0 015#00 R
(1720633665.565354) can0 016#12 R
(1720633665.565476) can0 041#00 R
(1720633665.566348) can0 05C#D574D574 R
(1720633665.591237) can0 007#00 R
(1720633665.593002) can0 00E#EA75 R
(1720633665.593166) can0 05C#EA75EA75 R
(1720633665.593288) can0 041#00 R
(1720633665.593400) can0 016#12 R
(1720633665.593521) can0 015#00 R
(1720633665.593636) can0 017#00 R
(1720633665.593758) can0 056#00 R
(1720633665.622014) can0 00D#FF76 R
(1720633665.622144) can0 05B#FF76 R
(1720633665.622258) can0 014#00 R
(1720633665.622378) can0 008#00 R
(1720633665.622496) can0 055#00 R
(1720633665.622615) can0 05D#00 R
(1720633665.624699) can0 056#00 R
(1720633665.624831) can0 00E#2877 R
(1720633665.625557) can0 015#00 R
(1720633665.625668) can0 016#12 R
(1720633665.625792) can0 041#00 R
(1720633665.625922) can0 00E#3277 R
(1720633665.626087) can0 05C#32773277 R
(1720633665.626202) can0 016#12 R
(1720633665.626885) can0 05C#3D773D77 R
(1720633665.645994) can0 00E#0078 R
(1720633665.646163) can0 05C#00780078 R
(1720633665.646285) can0 041#00 R
(1720633665.646396) can0 016#12 R
(1720633665.646518) can0 015#00 R
(1720633665.646633) can0 017#00 R
(1720633665.646754) can0 056#00 R
(1720633665.651962) can0 007#00 R
(1720633665.681833) can0 00D#5D79 R
(1720633665.681962) can0 05B#5D79 R
(1720633665.682077) can0 014#00 R
(1720633665.682195) can0 008#00 R
(1720633665.682316) can0 055#00 R
(1720633665.682433) can0 05D#00 R
(1720633665.684714) can0 056#00 R
(1720633665.684856) can0 00E#9179 R
(1720633665.684981) can0 00E#9179 R
(1720633665.685148) can0 05C#91799179 R
(1720633665.685656) can0 015#00 R
(1720633665.685760) can0 016#13 R
(1720633665.685892) can0 041#00 R
(1720633665.686002) can0 016#13 R
(1720633665.686754) can0 05C#A579A579 R
(1720633665.695876) can0 00E#027A R
(1720633665.696041) can0 05C#027A027A R
(1720633665.696163) can0 041#00 R
(1720633665.696276) can0 016#13 R
(1720633665.696395) can0 015#00 R
(1720633665.696513) can0 017#00 R
(1720633665.696632) can0 056#00 R
(1720633665.711808) can0 007#00 R
(1720633665.741751) can0 00D#C67B R
(1720633665.741879) can0 05B#C67B R
(1720633665.741993) can0 014#00 R
(1720633665.742111) can0 008#00 R
(1720633665.742230) can0 055#00 R
(1720633665.742349) can0 05D#00 R
(1720633665.743686) can0 00E#EF7B R
(1720633665.743815) can0 00E#EF7B R
(1720633665.744438) can0 056#00 R
(1720633665.744605) can0 05C#FA7BFA7B R
(1720633665.744715) can0 016#13 R
(1720633665.745557) can0 015#00 R
(1720633665.745671) can0 016#13 R
(1720633665.745791) can0 041#00 R
(1720633665.745934) can0 00E#047C R
(1720633665.746101) can0 05C#047C047C R
(1720633665.746223) can0 041#00 R
(1720633665.746339) can0 016#13 R
(1720633665.746457) can0 015#00 R
(1720633665.746577) can0 017#00 R
(1720633665.746695) can0 056#00 R
(1720633665.746867) can0 05C#0E7C0E7C R
(1720633665.772387) can0 007#00 R
(1720633665.795687) can0 00E#077E R
(1720633665.795860) can0 05C#077E077E R
(1720633665.795967) can0 041#00 R
(1720633665.796082) can0 016#13 R
(1720633665.796202) can0 015#00 R
(1720633665.796323) can0 017#00 R
(1720633665.796438) can0 056#00 R
(1720633665.803487) can0 00D#447E R
(1720633665.803619) can0 05B#447E R
(1720633665.803734) can0 014#00 R
(1720633665.803852) can0 008#00 R
(1720633665.803971) can0 055#00 R
(1720633665.804090) can0 05D#00 R
(1720633665.806164) can0 056#00 R
(1720633665.806296) can0 00E#787E R
(1720633665.807221) can0 00E#827E R
(1720633665.807391) can0 05C#827E827E R
(1720633665.807503) can0 016#13 R
(1720633665.808062) can0 015#00 R
(1720633665.808174) can0 016#13 R
(1720633665.808296) can0 041#00 R
(1720633665.808465) can0 05C#8C7E8C7E R
(1720633665.833711) can0 007#00 R
(1720633665.845394) can0 00E#0980 R
(1720633665.845563) can0 05C#09800980 R
(1720633665.845681) can0 041#01 R
(1720633665.845795) can0 016#14 R
(1720633665.845912) can0 015#01 R
(1720633665.846029) can0 017#01 R
(1720633665.846147) can0 056#01 R
(1720633665.865449) can0 00D#C380 R
(1720633665.865581) can0 05B#C380 R
(1720633665.865696) can0 014#01 R
(1720633665.865812) can0 008#01 R
(1720633665.865928) can0 055#01 R
(1720633665.866050) can0 05D#01 R
(1720633665.868072) can0 00E#EC80 R
(1720633665.869101) can0 015#01 R
(1720633665.869208) can0 016#14 R
(1720633665.869332) can0 041#01 R
(1720633665.869498) can0 05C#F680F680 R
(1720633665.869611) can0 056#01 R
(1720633665.869747) can0 00E#F680 R
(1720633665.869915) can0 05C#F680F680 R
(1720633665.870028) can0 016#14 R
(1720633665.896009) can0 00E#0C82 R
(1720633665.896164) can0 05C#0C820C82 R
(1720633665.896281) can0 041#01 R
(1720633665.896393) can0 016#14 R
(1720633665.896509) can0 015#01 R
(1720633665.896627) can0 017#01 R
(1720633665.896745) can0 007#01 R
(1720633665.896862) can0 056#01 R
(1720633665.927331) can0 00D#4183 R
(1720633665.927465) can0 05B#4183 R
(1720633665.927580) can0 014#01 R
(1720633665.927696) can0 008#01 R
(1720633665.927811) can0 055#01 R
(1720633665.927929) can0 05D#01 R
(1720633665.929152) can0 015#01 R
(1720633665.930139) can0 016#14 R
(1720633665.930257) can0 041#01 R
(1720633665.930387) can0 00E#7483 R
(1720633665.930536) can0 00E#7483 R
(1720633665.930692) can0 05C#74837483 R
(1720633665.931121) can0 05C#74837483 R
(1720633665.931229) can0 056#01 R
(1720633665.931344) can0 016#14 R
(1720633665.946014) can0 00E#0F84 R
(1720633665.946183) can0 05C#0F840E84 R
(1720633665.946296) can0 041#01 R
(1720633665.946414) can0 016#14 R
(1720633665.946535) can0 015#01 R
(1720633665.946647) can0 017#01 R
(1720633665.946766) can0 056#01 R
(1720633665.958758) can0 007#01 R
(1720633665.989787) can0 00D#BF85 R
(1720633665.989921) can0 05B#BF85 R
(1720633665.990036) can0 014#01 R
(1720633665.990156) can0 008#01 R
(1720633665.990268) can0 055#01 R
(1720633665.990391) can0 05D#01 R
(1720633665.991758) can0 00E#E885 R
(1720633665.991882) can0 00E#E885 R
(1720633665.992654) can0 015#01 R
(1720633665.992767) can0 016#14 R
(1720633665.992885) can0 041#01 R
(1720633665.993051) can0 05C#F285F285 R
(1720633665.993163) can0 016#14 R
(1720633665.993575) can0 05C#FC85FC85 R
(1720633665.993690) can0 056#01 R
(1720633665.995642) can0 00E#1186 R
(1720633665.995807) can0 05C#11861186 R
(1720633665.995922) can0 041#01 R
(1720633665.996048) can0 016#14 R
(1720633665.996152) can0 015#01 R
(1720633665.996277) can0 017#01 R
(1720633665.996388) can0 056#01 R
(1720633666.019678) can0 007#01 R
(1720633666.045361) can0 00E#1388 R
(1720633666.045532) can0 05C#13881388 R
(1720633666.045652) can0 041#01 R
(1720633666.045764) can0 016#15 R
(1720633666.045880) can0 015#01 R
(1720633666.045997) can0 017#01 R
(1720633666.046113) can0 056#01 R
(1720633666.050660) can0 00D#3288 R
(1720633666.050790) can0 05B#3288 R
(1720633666.050907) can0 014#01 R
(1720633666.051018) can0 008#01 R
(1720633666.051139) can0 055#01 R
(1720633666.051256) can0 05D#01 R
(1720633666.053836) can0 05C#65886588 R
(1720633666.053967) can0 00E#6588 R
(1720633666.054212) can0 015#01 R
(1720633666.054326) can0 016#15 R
(1720633666.054444) can0 041#01 R
(1720633666.054561) can0 056#01 R
(1720633666.054693) can0 00E#6F88 R
(1720633666.054861) can0 05C#6F886F88 R
(1720633666.054991) can0 016#15 R
(1720633666.081575) can0 007#01 R
(1720633666.096060) can0 00E#148A R
(1720633666.096223) can0 05C#148A148A R
(1720633666.096345) can0 041#01 R
(1720633666.096456) can0 016#15 R
(1720633666.096575) can0 015#01 R
(1720633666.096697) can0 017#01 R
(1720633666.096808) can0 056#01 R
(1720633666.112439) can0 00D#AE8A R
(1720633666.112564) can0 05B#AE8A R
(1720633666.112680) can0 014#01 R
(1720633666.112794) can0 008#01 R
(1720633666.112911) can0 055#01 R
(1720633666.113029) can0 05D#01 R
(1720633666.114553) can0 015#01 R
(1720633666.114659) can0 016#15 R
(1720633666.114785) can0 00E#D78A R
(1720633666.115580) can0 041#01 R
(1720633666.115707) can0 00E#E18A R
(1720633666.115872) can0 05C#E18AE18A R
(1720633666.115983) can0 016#15 R
(1720633666.116680) can0 05C#EC8AEC8A R
(1720633666.116795) can0 056#01 R
(1720633666.143092) can0 007#01 R
(1720633666.145984) can0 00E#158C R
(1720633666.146154) can0 05C#158C158C R
(1720633666.146269) can0 041#01 R
(1720633666.146387) can0 016#15 R
(1720633666.146502) can0 015#01 R
(1720633666.146621) can0 017#01 R
(1720633666.146736) can0 056#01 R
(1720633666.173763) can0 00D#1F8D R
(1720633666.173893) can0 05B#1F8D R
(1720633666.174008) can0 014#01 R
(1720633666.174124) can0 008#01 R
(1720633666.174240) can0 055#01 R
