(1722448974.883105) can0 05C#EE2CEE2C R
(1722448974.883191) can0 00D#352D R
(1722448974.883335) can0 05B#352D R
(1722448974.883443) can0 014#00 R
(1722448974.883558) can0 008#00 R
(1722448974.883679) can0 055#00 R
(1722448974.883795) can0 05D#00 R
(1722448974.888861) can0 007#00 R
(1722448974.914057) can0 056#00 R
(1722448974.914190) can0 00E#042C R
(1722448974.914318) can0 00E#042C R
(1722448974.914487) can0 05C#042C042C R
(1722448974.914610) can0 041#00 R
(1722448974.914724) can0 016#06 R
(1722448974.914845) can0 015#00 R
(1722448974.914960) can0 017#00 R
(1722448974.915079) can0 056#00 R
(1722448974.929766) can0 015#00 R
(1722448974.929882) can0 016#06 R
(1722448974.930012) can0 00E#882B R
(1722448974.930180) can0 05C#882B882B R
(1722448974.930295) can0 016#06 R
(1722448974.930418) can0 041#00 R
(1722448974.930587) can0 05C#882B882B R
(1722448974.938770) can0 007#00 R
(1722448974.945030) can0 00D#522B R
(1722448974.945187) can0 05B#522B R
(1722448974.945299) can0 014#00 R
(1722448974.945417) can0 008#00 R
(1722448974.945536) can0 055#00 R
(1722448974.945653) can0 05D#00 R
(1722448974.975567) can0 056#00 R
(1722448974.975697) can0 00E#272A R
(1722448974.975854) can0 05C#272A272A R
(1722448974.975975) can0 041#00 R
(1722448974.976092) can0 016#06 R
(1722448974.976212) can0 015#00 R
(1722448974.976330) can0 017#00 R
(1722448974.976453) can0 056#00 R
(1722448974.991585) can0 00E#AD29 R
(1722448974.991707) can0 00E#AD29 R
(1722448974.991866) can0 05C#AD29AD29 R
(1722448974.994727) can0 007#00 R
(1722448975.006707) can0 015#00 R
(1722448975.006841) can0 00D#7829 R
(1722448975.006955) can0 016#06 R
(1722448975.007079) can0 041#00 R
(1722448975.007209) can0 05B#7829 R
(1722448975.007326) can0 014#00 R
(1722448975.007443) can0 008#00 R
(1722448975.007564) can0 055#00 R
(1722448975.007729) can0 05C#3B293B29 R
(1722448975.007844) can0 016#06 R
(1722448975.007960) can0 05D#00 R
(1722448975.037161) can0 056#00 R
(1722448975.037287) can0 00E#5128 R
(1722448975.037418) can0 00E#5128 R
(1722448975.037546) can0 00E#5128 R
(1722448975.037713) can0 05C#51285128 R
(1722448975.037834) can0 041#00 R
(1722448975.037958) can0 016#06 R
(1722448975.038072) can0 015#00 R
(1722448975.038187) can0 017#00 R
(1722448975.038308) can0 056#00 R
(1722448975.044384) can0 007#00 R
(1722448975.052608) can0 05C#E127E127 R
(1722448975.052759) can0 016#06 R
(1722448975.067760) can0 00D#AD27 R
(1722448975.067881) can0 015#00 R
(1722448975.067996) can0 016#06 R
(1722448975.068118) can0 041#00 R
(1722448975.068248) can0 05B#AD27 R
(1722448975.068365) can0 014#00 R
(1722448975.068482) can0 008#00 R
(1722448975.068602) can0 055#00 R
(1722448975.068720) can0 05D#00 R
(1722448975.083567) can0 05C#FB26FB26 R
(1722448975.095035) can0 007#00 R
(1722448975.099330) can0 056#00 R
(1722448975.099460) can0 00E#8526 R
(1722448975.099590) can0 00E#8526 R
(1722448975.099750) can0 05C#85268526 R
(1722448975.099871) can0 041#00 R
(1722448975.099990) can0 016#06 R
(1722448975.100111) can0 015#00 R
(1722448975.100228) can0 017#00 R
(1722448975.100349) can0 056#00 R
(1722448975.114332) can0 00E#1626 R
(1722448975.114498) can0 05C#16261626 R
(1722448975.114618) can0 016#05 R
(1722448975.130384) can0 015#00 R
(1722448975.130501) can0 016#05 R
(1722448975.131125) can0 00D#E325 R
(1722448975.131258) can0 05B#E325 R
(1722448975.131376) can0 014#00 R
(1722448975.131495) can0 008#00 R
(1722448975.131615) can0 055#00 R
(1722448975.131733) can0 05D#00 R
(1722448975.144257) can0 007#00 R
(1722448975.145856) can0 041#00 R
(1722448975.146018) can0 05C#34253425 R
(1722448975.146138) can0 056#00 R
(1722448975.160797) can0 00E#C824 R
(1722448975.160903) can0 00E#C824 R
(1722448975.161072) can0 05C#C824C824 R
(1722448975.161193) can0 041#00 R
(1722448975.161313) can0 016#05 R
(1722448975.161432) can0 015#00 R
(1722448975.161545) can0 017#00 R
(1722448975.161669) can0 056#00 R
(1722448975.176856) can0 00E#5524 R
(1722448975.177019) can0 05C#55245524 R
(1722448975.177135) can0 016#05 R
(1722448975.192599) can0 00D#2224 R
(1722448975.192728) can0 05B#2224 R
(1722448975.192854) can0 014#00 R
(1722448975.192962) can0 008#00 R
(1722448975.193085) can0 015#00 R
(1722448975.193204) can0 055#00 R
(1722448975.193319) can0 05D#00 R
(1722448975.194454) can0 007#00 R
(1722448975.207650) can0 016#05 R
(1722448975.207753) can0 041#00 R
(1722448975.208034) can0 05C#77237723 R
(1722448975.223178) can0 056#00 R
(1722448975.223614) can0 00E#0523 R
(1722448975.223777) can0 05C#05230523 R
(1722448975.223900) can0 041#00 R
(1722448975.224017) can0 016#05 R
(1722448975.224143) can0 015#00 R
(1722448975.224253) can0 017#00 R
(1722448975.224376) can0 056#00 R
(1722448975.238762) can0 00E#9C22 R
(1722448975.238894) can0 00E#9C22 R
(1722448975.239057) can0 05C#9C229C22 R
(1722448975.244401) can0 007#00 R
(1722448975.253859) can0 00D#6A22 R
(1722448975.253974) can0 016#05 R
(1722448975.254106) can0 05B#6A22 R
(1722448975.254221) can0 014#00 R
(1722448975.254341) can0 008#00 R
(1722448975.254461) can0 055#00 R
(1722448975.254581) can0 05D#00 R
(1722448975.269835) can0 015#00 R
(1722448975.269927) can0 016#05 R
(1722448975.270050) can0 041#00 R
(1722448975.270214) can0 05C#C321C321 R
(1722448975.284014) can0 056#00 R
(1722448975.284144) can0 00E#5A21 R
(1722448975.284277) can0 00E#5A21 R
(1722448975.284408) can0 00E#5A21 R
(1722448975.284571) can0 05C#5A215A21 R
(1722448975.284694) can0 041#00 R
(1722448975.284818) can0 016#05 R
(1722448975.284933) can0 015#00 R
(1722448975.285049) can0 017#00 R
(1722448975.285168) can0 056#00 R
(1722448975.299385) can0 05C#F320F320 R
(1722448975.299507) can0 016#05 R
(1722448975.301887) can0 007#00 R
(1722448975.315516) can0 00D#C220 R
(1722448975.315647) can0 05B#C220 R
(1722448975.315760) can0 014#00 R
(1722448975.315881) can0 008#00 R
(1722448975.315998) can0 055#00 R
(1722448975.316119) can0 05D#00 R
(1722448975.330411) can0 015#00 R
(1722448975.330530) can0 016#05 R
(1722448975.330651) can0 041#00 R
(1722448975.345482) can0 05C#B81FB81F R
(1722448975.345625) can0 056#00 R
(1722448975.345759) can0 00E#B81F R
(1722448975.345893) can0 00E#B81F R
(1722448975.346062) can0 05C#B81FB81F R
(1722448975.346185) can0 041#00 R
(1722448975.346301) can0 016#04 R
(1722448975.346421) can0 015#00 R
(1722448975.346538) can0 017#00 R
(1722448975.346659) can0 056#00 R
(1722448975.350551) can0 007#00 R
(1722448975.360854) can0 00E#531F R
(1722448975.361021) can0 05C#531F531F R
(1722448975.361137) can0 016#04 R
(1722448975.376317) can0 00D#231F R
(1722448975.376460) can0 05B#231F R
(1722448975.376574) can0 014#00 R
(1722448975.376693) can0 008#00 R
(1722448975.376808) can0 055#00 R
(1722448975.376933) can0 05D#00 R
(1722448975.391959) can0 015#00 R
(1722448975.392081) can0 016#04 R
(1722448975.400931) can0 007#00 R
(1722448975.407084) can0 041#00 R
(1722448975.407254) can0 05C#181E181E R
(1722448975.407373) can0 056#00 R
(1722448975.407508) can0 00E#181E R
(1722448975.407641) can0 00E#181E R
(1722448975.407810) can0 05C#181E181E R
(1722448975.407930) can0 041#00 R
(1722448975.408050) can0 016#04 R
(1722448975.408169) can0 015#00 R
(1722448975.408288) can0 017#00 R
(1722448975.408407) can0 056#00 R
(1722448975.422820) can0 00E#B51D R
(1722448975.422986) can0 05C#B51DB51D R
(1722448975.423104) can0 016#04 R
(1722448975.437857) can0 00D#8D1D R
(1722448975.437987) can0 05B#8D1D R
(1722448975.438101) can0 014#00 R
(1722448975.438219) can0 008#00 R
(1722448975.438338) can0 055#00 R
(1722448975.438461) can0 05D#00 R
(1722448975.450857) can0 007#00 R
(1722448975.453024) can0 015#00 R
(1722448975.453144) can0 056#00 R
(1722448975.468786) can0 016#04 R
(1722448975.468903) can0 041#00 R
(1722448975.469070) can0 05C#881C881C R
(1722448975.469208) can0 00E#881C R
(1722448975.469370) can0 05C#881C881C R
(1722448975.469493) can0 041#00 R
(1722448975.469608) can0 016#04 R
(1722448975.469731) can0 015#00 R
(1722448975.469845) can0 017#00 R
(1722448975.469966) can0 056#00 R
(1722448975.483499) can0 00E#271C R
(1722448975.483628) can0 00E#271C R
(1722448975.483790) can0 05C#271C271C R
(1722448975.499333) can0 00D#FA1B R
(1722448975.499467) can0 05B#FA1B R
(1722448975.499582) can0 014#00 R
(1722448975.499703) can0 008#00 R
(1722448975.499826) can0 055#00 R
(1722448975.499939) can0 016#04 R
(1722448975.500057) can0 05D#00 R
(1722448975.501096) can0 007#00 R
(1722448975.529566) can0 015#00 R
(1722448975.529646) can0 016#04 R
(1722448975.529738) can0 041#00 R
(1722448975.529901) can0 05C#021B021B R
(1722448975.530020) can0 056#00 R
(1722448975.530151) can0 00E#021B R
(1722448975.530283) can0 00E#021B R
(1722448975.530415) can0 00E#021B R
(1722448975.530583) can0 05C#021B021B R
(1722448975.530709) can0 041#00 R
(1722448975.530821) can0 016#04 R
(1722448975.530940) can0 015#00 R
(1722448975.531056) can0 017#00 R
(1722448975.531178) can0 056#00 R
(1722448975.545308) can0 05C#A31AA31A R
(1722448975.545426) can0 016#04 R
(1722448975.551455) can0 007#00 R
(1722448975.561371) can0 00D#771A R
(1722448975.561511) can0 05B#771A R
(1722448975.561615) can0 014#00 R
(1722448975.561735) can0 008#00 R
(1722448975.561853) can0 055#00 R
(1722448975.561975) can0 05D#00 R
(1722448975.592017) can0 015#00 R
(1722448975.592131) can0 016#03 R
(1722448975.592254) can0 041#00 R
(1722448975.592373) can0 056#00 R
(1722448975.592507) can0 00E#7819 R
(1722448975.592641) can0 00E#7819 R
(1722448975.592810) can0 05C#78197819 R
(1722448975.592930) can0 041#00 R
(1722448975.593046) can0 016#03 R
(1722448975.593165) can0 015#00 R
(1722448975.593282) can0 017#00 R
(1722448975.593401) can0 056#00 R
(1722448975.601861) can0 007#00 R
(1722448975.608188) can0 05C#1C191C19 R
(1722448975.608323) can0 00E#1C19 R
(1722448975.608493) can0 05C#1C191C19 R
(1722448975.608606) can0 016#03 R
(1722448975.623262) can0 00D#F118 R
(1722448975.623372) can0 05B#F118 R
(1722448975.623505) can0 014#00 R
(1722448975.623608) can0 008#00 R
(1722448975.623728) can0 055#00 R
(1722448975.623844) can0 05D#00 R
(1722448975.651339) can0 007#00 R
(1722448975.653797) can0 056#00 R
(1722448975.653909) can0 00E#FF17 R
(1722448975.654035) can0 00E#FF17 R
(1722448975.654206) can0 05C#FF17FF17 R
(1722448975.654331) can0 041#00 R
(1722448975.654441) can0 016#03 R
(1722448975.654561) can0 015#00 R
(1722448975.654677) can0 017#00 R
(1722448975.654797) can0 056#00 R
(1722448975.669328) can0 015#00 R
(1722448975.669464) can0 00E#A617 R
(1722448975.669623) can0 05C#A617A617 R
(1722448975.669740) can0 016#03 R
(1722448975.684339) can0 016#03 R
(1722448975.684473) can0 00D#8217 R
(1722448975.684594) can0 041#00 R
(1722448975.684728) can0 05B#8217 R
(1722448975.684898) can0 05C#4C174C17 R
(1722448975.685013) can0 014#00 R
(1722448975.685130) can0 008#00 R
(1722448975.685251) can0 055#00 R
(1722448975.685368) can0 05D#00 R
(1722448975.701797) can0 007#00 R
(1722448975.714834) can0 056#00 R
(1722448975.714959) can0 00E#9616 R
(1722448975.715126) can0 05C#96169616 R
(1722448975.715247) can0 041#00 R
(1722448975.715364) can0 016#03 R
(1722448975.715483) can0 015#00 R
(1722448975.715599) can0 017#00 R
(1722448975.715720) can0 056#00 R
(1722448975.731065) can0 00E#3F16 R
(1722448975.731177) can0 00E#3F16 R
(1722448975.731340) can0 05C#3F163F16 R
(1722448975.746198) can0 015#00 R
(1722448975.746314) can0 016#03 R
(1722448975.746446) can0 00D#1616 R
(1722448975.746564) can0 041#00 R
(1722448975.746699) can0 05B#1616 R
(1722448975.746866) can0 05C#E815E815 R
(1722448975.746981) can0 014#00 R
(1722448975.747099) can0 008#00 R
(1722448975.747215) can0 016#03 R
(1722448975.747335) can0 055#00 R
(1722448975.747453) can0 05D#00 R
(1722448975.752522) can0 007#00 R
(1722448975.761774) can0 056#00 R
(1722448975.777500) can0 00E#3115 R
(1722448975.777629) can0 00E#3115 R
(1722448975.777756) can0 00E#3115 R
(1722448975.777920) can0 05C#31153115 R
(1722448975.778046) can0 041#00 R
(1722448975.778163) can0 016#03 R
(1722448975.778276) can0 015#00 R
(1722448975.778399) can0 017#00 R
(1722448975.778519) can0 056#00 R
(1722448975.792792) can0 05C#DC14DC14 R
(1722448975.792887) can0 016#03 R
(1722448975.801940) can0 007#00 R
(1722448975.808271) can0 015#00 R
(1722448975.808401) can0 00D#B514 R
(1722448975.808520) can0 016#03 R
(1722448975.808643) can0 041#00 R
(1722448975.808798) can0 05B#B514 R
(1722448975.808889) can0 014#00 R
(1722448975.809006) can0 008#00 R
(1722448975.809129) can0 055#00 R
(1722448975.809250) can0 05D#00 R
(1722448975.823627) can0 05C#2F142F14 R
(1722448975.823753) can0 056#00 R
(1722448975.824291) can0 00E#2F14 R
(1722448975.839815) can0 00E#D713 R
(1722448975.839959) can0 05C#D713D713 R
(1722448975.840072) can0 016#03 R
(1722448975.840203) can0 00E#D713 R
(1722448975.840364) can0 05C#D713D713 R
(1722448975.840487) can0 041#00 R
(1722448975.841387) can0 016#03 R
(1722448975.841507) can0 015#00 R
(1722448975.841623) can0 017#00 R
(1722448975.841742) can0 056#00 R
(1722448975.853673) can0 007#00 R
(1722448975.855252) can0 015#00 R
(1722448975.855367) can0 016#03 R
(1722448975.870842) can0 041#00 R
(1722448975.870970) can0 00D#5913 R
(1722448975.871104) can0 05B#5913 R
(1722448975.871218) can0 014#00 R
(1722448975.871340) can0 008#00 R
(1722448975.871456) can0 055#00 R
(1722448975.871620) can0 05C#2D132D13 R
(1722448975.871736) can0 05D#00 R
(1722448975.886750) can0 056#00 R
(1722448975.886940) can0 00E#D712 R
(1722448975.901806) can0 015#00 R
(1722448975.901944) can0 00E#8712 R
(1722448975.902099) can0 05C#87128712 R
(1722448975.902221) can0 016#02 R
(1722448975.902345) can0 00E#8712 R
(1722448975.902509) can0 05C#87128712 R
(1722448975.902629) can0 041#00 R
(1722448975.902750) can0 016#02 R
(1722448975.902865) can0 015#00 R
(1722448975.902986) can0 017#00 R
(1722448975.903101) can0 056#00 R
(1722448975.903642) can0 007#00 R
(1722448975.917529) can0 016#02 R
(1722448975.917646) can0 041#00 R
(1722448975.918123) can0 05C#32123212 R
(1722448975.932495) can0 00D#1212 R
(1722448975.932623) can0 05B#1212 R
(1722448975.932755) can0 014#00 R
(1722448975.932858) can0 008#00 R
(1722448975.932982) can0 055#00 R
(1722448975.933094) can0 05D#00 R
(1722448975.947486) can0 056#00 R
(1722448975.962937) can0 015#00 R
(1722448975.963053) can0 016#02 R
(1722448975.963173) can0 041#00 R
(1722448975.963306) can0 00E#4111 R
(1722448975.963436) can0 00E#4111 R
(1722448975.963604) can0 05C#41114111 R
(1722448975.963738) can0 00E#4111 R
(1722448975.963902) can0 05C#41114111 R
(1722448975.964026) can0 041#00 R
(1722448975.964142) can0 016#02 R
(1722448975.964263) can0 015#00 R
(1722448975.964376) can0 017#00 R
(1722448975.964498) can0 056#00 R
(1722448975.964667) can0 05C#41114111 R
(1722448975.964787) can0 016#02 R
(1722448975.965015) can0 007#00 R
(1722448975.994487) can0 00D#CB10 R
(1722448975.994617) can0 05B#CB10 R
(1722448975.994733) can0 014#00 R
(1722448975.994850) can0 008#00 R
(1722448975.994971) can0 055#00 R
(1722448975.995087) can0 05D#00 R
(1722448976.015043) can0 007#00 R
(1722448976.025315) can0 056#00 R
(1722448976.025450) can0 00E#0710 R
(1722448976.025582) can0 00E#0710 R
(1722448976.025717) can0 00E#0710 R
(1722448976.025889) can0 05C#07100710 R
(1722448976.026011) can0 041#00 R
(1722448976.026122) can0 016#02 R
(1722448976.026247) can0 015#00 R
(1722448976.026359) can0 017#00 R
(1722448976.026481) can0 056#00 R
(1722448976.040724) can0 05C#BC0FBC0F R
(1722448976.040848) can0 016#02 R
(1722448976.056835) can0 015#00 R
(1722448976.057043) can0 00D#950F R
(1722448976.057175) can0 05B#950F R
(1722448976.057292) can0 014#00 R
(1722448976.057409) can0 008#00 R
(1722448976.057528) can0 055#00 R
(1722448976.057650) can0 05D#00 R
(1722448976.057979) can0 016#02 R
(1722448976.058099) can0 041#00 R
(1722448976.065541) can0 007#00 R
(1722448976.072451) can0 05C#1F0F1F0F R
(1722448976.072823) can0 056#00 R
(1722448976.072959) can0 00E#1A0F R
(1722448976.087161) can0 00E#D70E R
(1722448976.087325) can0 05C#D70ED70E R
(1722448976.087448) can0 016#02 R
(1722448976.087570) can0 00E#D70E R
(1722448976.087737) can0 05C#D70ED70E R
(1722448976.087856) can0 041#00 R
(1722448976.087978) can0 016#02 R
(1722448976.088093) can0 015#00 R
(1722448976.088215) can0 017#00 R
(1722448976.088329) can0 056#00 R
(1722448976.102898) can0 015#00 R
(1722448976.103030) can0 016#02 R
(1722448976.115773) can0 007#00 R
(1722448976.118926) can0 00D#6E0E R
(1722448976.119042) can0 041#00 R
(1722448976.119182) can0 05B#6E0E R
(1722448976.119291) can0 014#00 R
(1722448976.119415) can0 008#00 R
(1722448976.119528) can0 055#00 R
(1722448976.119695) can0 05C#430E430E R
(1722448976.119811) can0 05D#00 R
(1722448976.134083) can0 056#00 R
(1722448976.149526) can0 00E#B20D R
(1722448976.149657) can0 00E#B20D R
(1722448976.149846) can0 05C#B20DB20D R
(1722448976.149933) can0 041#00 R
(1722448976.150060) can0 016#02 R
(1722448976.150185) can0 015#00 R
(1722448976.150293) can0 017#00 R
(1722448976.150422) can0 056#00 R
(1722448976.150546) can0 00E#AD0D R
(1722448976.150717) can0 05C#AD0DAD0D R
(1722448976.150827) can0 016#02 R
(1722448976.164369) can0 015#00 R
(1722448976.164472) can0 016#02 R
(1722448976.164590) can0 041#00 R
(1722448976.164793) can0 05C#6D0D6D0D R
(1722448976.166146) can0 007#00 R
(1722448976.179321) can0 00D#510D R
(1722448976.179447) can0 05B#510D R
(1722448976.179565) can0 014#00 R
(1722448976.179687) can0 008#00 R
(1722448976.179802) can0 055#00 R
(1722448976.179926) can0 05D#00 R
(1722448976.209994) can0 056#00 R
(1722448976.210568) can0 00E#9D0C R
(1722448976.210722) can0 05C#9D0C9D0C R
(1722448976.210847) can0 041#00 R
(1722448976.210962) can0 016#01 R
(1722448976.211082) can0 015#00 R
(1722448976.211198) can0 017#00 R
(1722448976.211321) can0 056#00 R
(1722448976.216577) can0 007#00 R
(1722448976.225461) can0 015#00 R
(1722448976.225571) can0 016#01 R
(1722448976.225696) can0 041#00 R
(1722448976.225829) can0 00E#5A0C R
(1722448976.225967) can0 00E#5A0C R
(1722448976.226133) can0 05C#5A0C5A0C R
(1722448976.240106) can0 05C#180C180C R
(1722448976.240221) can0 016#01 R
(1722448976.240357) can0 00D#400C R
(1722448976.240495) can0 05B#400C R
(1722448976.240606) can0 014#00 R
(1722448976.240746) can0 008#00 R
(1722448976.240856) can0 055#00 R
(1722448976.240967) can0 05D#00 R
(1722448976.255385) can0 056#00 R
(1722448976.255514) can0 00E#D70B R
(1722448976.255655) can0 00E#D70B R
(1722448976.266316) can0 007#00 R
(1722448976.270700) can0 015#00 R
(1722448976.270812) can0 016#01 R
(1722448976.270981) can0 05C#970B970B R
(1722448976.271090) can0 016#01 R
(1722448976.271225) can0 00E#970B R
(1722448976.271387) can0 05C#970B970B R
(1722448976.271508) can0 041#00 R
(1722448976.271624) can0 016#01 R
(1722448976.271744) can0 015#00 R
(1722448976.271861) can0 017#00 R
(1722448976.271980) can0 056#00 R
(1722448976.272102) can0 041#00 R
(1722448976.272780) can0 05C#920B920B R
(1722448976.301030) can0 00D#390B R
(1722448976.301153) can0 05B#390B R
(1722448976.301269) can0 014#00 R
(1722448976.301387) can0 008#00 R
(1722448976.301509) can0 055#00 R
(1722448976.301624) can0 05D#00 R
(1722448976.316116) can0 007#00 R
(1722448976.331076) can0 056#00 R
(1722448976.331205) can0 00E#970A R
(1722448976.331334) can0 00E#970A R
(1722448976.331505) can0 05C#970A970A R
(1722448976.331618) can0 041#00 R
(1722448976.331735) can0 016#01 R
(1722448976.331855) can0 015#00 R
(1722448976.331971) can0 017#00 R
(1722448976.332094) can0 056#00 R
(1722448976.332214) can0 015#00 R
(1722448976.332329) can0 016#01 R
(1722448976.332460) can0 00E#970A R
(1722448976.332620) can0 05C#970A970A R
(1722448976.332761) can0 016#01 R
(1722448976.346800) can0 041#00 R
(1722448976.346967) can0 05C#560A560A R
(1722448976.361882) can0 00D#3D0A R
(1722448976.362008) can0 05B#3D0A R
(1722448976.362123) can0 014#00 R
(1722448976.362241) can0 008#00 R
(1722448976.362361) can0 055#00 R
(1722448976.362479) can0 05D#00 R
(1722448976.366312) can0 007#00 R
(1722448976.377725) can0 056#00 R
(1722448976.393033) can0 00E#9E09 R
(1722448976.393165) can0 00E#9E09 R
(1722448976.393332) can0 05C#9E099E09 R
(1722448976.393452) can0 041#00 R
(1722448976.393568) can0 016#01 R
(1722448976.393688) can0 015#00 R
(1722448976.393804) can0 017#00 R
(1722448976.393925) can0 056#00 R
(1722448976.394059) can0 00E#9E09 R
(1722448976.394225) can0 05C#9E099E09 R
(1722448976.394338) can0 016#01 R
(1722448976.409060) can0 015#00 R
(1722448976.409170) can0 016#01 R
(1722448976.409296) can0 041#00 R
(1722448976.416652) can0 007#00 R
(1722448976.424717) can0 00D#4509 R
(1722448976.424852) can0 05B#4509 R
(1722448976.424961) can0 014#00 R
(1722448976.425079) can0 008#00 R
(1722448976.425202) can0 055#00 R
(1722448976.425364) can0 05C#27092709 R
(1722448976.425480) can0 05D#00 R
(1722448976.454840) can0 056#00 R
(1722448976.454968) can0 00E#B508 R
(1722448976.455134) can0 05C#B508B508 R
(1722448976.455255) can0 041#00 R
(1722448976.455371) can0 016#01 R
(1722448976.455490) can0 015#00 R
(1722448976.455607) can0 017#00 R
(1722448976.455726) can0 056#00 R
(1722448976.468328) can0 007#00 R
(1722448976.470492) can0 015#00 R
(1722448976.470605) can0 016#01 R
(1722448976.470738) can0 00E#7A08 R
(1722448976.470870) can0 00E#7A08 R
(1722448976.471044) can0 05C#7A087A08 R
(1722448976.486768) can0 041#00 R
(1722448976.486934) can0 05C#3F083F08 R
(1722448976.487049) can0 016#01 R
(1722448976.487673) can0 00D#6008 R
(1722448976.487811) can0 05B#6008 R
(1722448976.487918) can0 014#00 R
(1722448976.488038) can0 008#00 R
(1722448976.488157) can0 055#00 R
(1722448976.488276) can0 05D#00 R
(1722448976.516987) can0 056#00 R
(1722448976.517117) can0 00E#D007 R
(1722448976.517254) can0 00E#D007 R
(1722448976.517381) can0 00E#D007 R
(1722448976.517557) can0 05C#D007D007 R
(1722448976.517672) can0 041#00 R
(1722448976.517794) can0 016#01 R
(1722448976.517930) can0 007#00 R
(1722448976.518025) can0 015#00 R
(1722448976.518142) can0 017#00 R
(1722448976.518261) can0 056#00 R
(1722448976.518441) can0 05C#D007D007 R
(1722448976.518546) can0 016#01 R
(1722448976.533272) can0 015#00 R
(1722448976.533384) can0 016#01 R
(1722448976.533509) can0 041#00 R
(1722448976.533677) can0 05C#9B079B07 R
(1722448976.548057) can0 00D#8607 R
(1722448976.548189) can0 05B#8607 R
(1722448976.548306) can0 014#00 R
(1722448976.548422) can0 008#00 R
(1722448976.548542) can0 055#00 R
(1722448976.548660) can0 05D#00 R
(1722448976.568753) can0 007#00 R
(1722448976.578124) can0 056#00 R
(1722448976.578757) can0 00E#FE06 R
(1722448976.578895) can0 00E#FE06 R
(1722448976.579068) can0 05C#FE06FE06 R
(1722448976.579190) can0 041#00 R
(1722448976.579307) can0 016#01 R
(1722448976.579430) can0 015#00 R
(1722448976.579542) can0 017#00 R
(1722448976.579663) can0 056#00 R
(1722448976.579783) can0 015#00 R
(1722448976.579901) can0 016#01 R
(1722448976.580023) can0 041#00 R
(1722448976.580167) can0 00E#FE06 R
(1722448976.580336) can0 05C#FE06FE06 R
(1722448976.580449) can0 016#01 R
(1722448976.593983) can0 05C#CC06CC06 R
(1722448976.608800) can0 00D#B506 R
(1722448976.608906) can0 05B#B506 R
(1722448976.609011) can0 014#00 R
(1722448976.609129) can0 008#00 R
(1722448976.609251) can0 055#00 R
(1722448976.609366) can0 05D#00 R
(1722448976.618044) can0 007#00 R
(1722448976.639745) can0 056#00 R
(1722448976.639876) can0 00E#3306 R
(1722448976.640012) can0 00E#3306 R
(1722448976.640175) can0 05C#33063306 R
(1722448976.640296) can0 041#00 R
(1722448976.640410) can0 016#00 R
(1722448976.640532) can0 015#00 R
(1722448976.640647) can0 017#00 R
(1722448976.640792) can0 056#00 R
(1722448976.654891) can0 015#00 R
(1722448976.655024) can0 00E#0406 R
(1722448976.655198) can0 05C#04060406 R
(1722448976.655312) can0 016#00 R
(1722448976.668556) can0 007#00 R
(1722448976.670857) can0 00D#EF05 R
(1722448976.670971) can0 016#00 R
(1722448976.671093) can0 041#00 R
(1722448976.671226) can0 05B#EF05 R
(1722448976.671341) can0 014#00 R
(1722448976.671459) can0 008#00 R
(1722448976.671579) can0 055#00 R
(1722448976.671750) can0 05C#D605D605 R
(1722448976.671865) can0 05D#00 R
(1722448976.702053) can0 056#00 R
(1722448976.702185) can0 00E#7805 R
(1722448976.702350) can0 05C#78057805 R
(1722448976.702471) can0 041#00 R
(1722448976.702586) can0 016#00 R
(1722448976.702706) can0 015#00 R
(1722448976.702823) can0 017#00 R
(1722448976.702943) can0 056#00 R
(1722448976.717732) can0 00E#4905 R
(1722448976.717950) can0 00E#4905 R
(1722448976.718095) can0 05C#49054905 R
(1722448976.718510) can0 007#00 R
(1722448976.732375) can0 00D#3705 R
(1722448976.732507) can0 05B#3705 R
(1722448976.732620) can0 014#00 R
(1722448976.732751) can0 008#00 R
(1722448976.732857) can0 015#00 R
(1722448976.732977) can0 016#00 R
(1722448976.733096) can0 041#00 R
(1722448976.733218) can0 055#00 R
(1722448976.733386) can0 05C#1D051D05 R
(1722448976.733503) can0 016#00 R
(1722448976.733621) can0 05D#00 R
(1722448976.763619) can0 056#00 R
(1722448976.763748) can0 00E#C804 R
(1722448976.763884) can0 00E#C804 R
(1722448976.764011) can0 00E#C804 R
(1722448976.764179) can0 05C#C804C804 R
(1722448976.764299) can0 041#00 R
(1722448976.764415) can0 016#00 R
(1722448976.764540) can0 015#00 R
(1722448976.764650) can0 017#00 R
(1722448976.764798) can0 056#00 R
(1722448976.768286) can0 007#00 R
(1722448976.779118) can0 05C#9C049C04 R
(1722448976.779222) can0 016#00 R
(1722448976.793872) can0 015#00 R
(1722448976.794005) can0 00D#8904 R
(1722448976.794119) can0 016#00 R
(1722448976.794243) can0 041#00 R
(1722448976.794374) can0 05B#8904 R
(1722448976.794490) can0 014#00 R
(1722448976.794607) can0 008#00 R
(1722448976.794730) can0 055#00 R
(1722448976.794848) can0 05D#00 R
(1722448976.810582) can0 05C#46044604 R
(1722448976.818470) can0 007#00 R
(1722448976.825208) can0 056#00 R
(1722448976.825344) can0 00E#2104 R
(1722448976.825488) can0 00E#2104 R
(1722448976.825650) can0 05C#21042104 R
(1722448976.825768) can0 041#00 R
(1722448976.825885) can0 016#00 R
(1722448976.826007) can0 015#00 R
(1722448976.826121) can0 017#00 R
(1722448976.826241) can0 056#00 R
(1722448976.840567) can0 00E#F803 R
(1722448976.840755) can0 05C#F803F803 R
(1722448976.840840) can0 016#00 R
(1722448976.855565) can0 00D#E903 R
(1722448976.855683) can0 015#00 R
(1722448976.855799) can0 016#00 R
(1722448976.855930) can0 05B#E903 R
(1722448976.856048) can0 014#00 R
(1722448976.856164) can0 008#00 R
(1722448976.856285) can0 055#00 R
(1722448976.856402) can0 05D#00 R
(1722448976.868640) can0 007#00 R
(1722448976.871459) can0 041#00 R
(1722448976.871627) can0 05C#AD03AD03 R
(1722448976.871744) can0 056#00 R
(1722448976.885792) can0 00E#8903 R
(1722448976.885861) can0 00E#8903 R
(1722448976.886052) can0 05C#89038903 R
(1722448976.886174) can0 041#00 R
(1722448976.886295) can0 016#00 R
(1722448976.886410) can0 015#00 R
(1722448976.886531) can0 017#00 R
(1722448976.886646) can0 056#00 R
(1722448976.901047) can0 00E#6303 R
(1722448976.901211) can0 05C#63036303 R
(1722448976.901325) can0 016#00 R
(1722448976.916236) can0 00D#5503 R
(1722448976.916354) can0 015#00 R
(1722448976.916487) can0 05B#5503 R
(1722448976.916603) can0 014#00 R
(1722448976.916721) can0 008#00 R
(1722448976.916838) can0 055#00 R
(1722448976.916959) can0 05D#00 R
(1722448976.918455) can0 007#00 R
(1722448976.931872) can0 016#00 R
(1722448976.931993) can0 041#00 R
(1722448976.932166) can0 05C#1E031E03 R
(1722448976.946583) can0 056#00 R
(1722448976.946718) can0 00E#FC02 R
(1722448976.946887) can0 05C#FC02FC02 R
(1722448976.947009) can0 041#00 R
(1722448976.947126) can0 016#00 R
(1722448976.947245) can0 015#00 R
(1722448976.947361) can0 017#00 R
(1722448976.947482) can0 056#00 R
(1722448976.962472) can0 00E#D902 R
(1722448976.962602) can0 00E#D902 R
(1722448976.962769) can0 05C#D902D902 R
(1722448976.967736) can0 007#00 R
(1722448976.976972) can0 00D#CC02 R
(1722448976.977084) can0 016#00 R
(1722448976.977220) can0 05B#CC02 R
(1722448976.977335) can0 014#00 R
(1722448976.977453) can0 008#00 R
(1722448976.977573) can0 055#00 R
(1722448976.977690) can0 05D#00 R
(1722448976.992183) can0 015#00 R
(1722448976.992289) can0 016#00 R
(1722448976.992407) can0 041#00 R
(1722448976.992586) can0 05C#9A029A02 R
(1722448977.007448) can0 056#00 R
(1722448977.007590) can0 00E#7B02 R
(1722448977.007721) can0 00E#7B02 R
(1722448977.007855) can0 00E#7B02 R
(1722448977.008026) can0 05C#7B027B02 R
(1722448977.008147) can0 041#00 R
(1722448977.008262) can0 016#00 R
(1722448977.008383) can0 015#00 R
(1722448977.008498) can0 017#00 R
(1722448977.008619) can0 056#00 R
(1722448977.017713) can0 007#00 R
(1722448977.023358) can0 05C#5B025B02 R
(1722448977.023469) can0 016#00 R
(1722448977.038023) can0 00D#5002 R
(1722448977.038160) can0 05B#5002 R
(1722448977.038269) can0 014#00 R
(1722448977.038392) can0 008#00 R
(1722448977.038507) can0 055#00 R
(1722448977.038626) can0 05D#00 R
(1722448977.053158) can0 015#00 R
(1722448977.053270) can0 016#00 R
(1722448977.053395) can0 041#00 R
(1722448977.068761) can0 007#00 R
(1722448977.069597) can0 05C#06020602 R
(1722448977.069713) can0 056#00 R
(1722448977.069864) can0 00E#0402 R
(1722448977.069987) can0 00E#0402 R
(1722448977.070159) can0 05C#04020402 R
(1722448977.070279) can0 041#00 R
(1722448977.070394) can0 016#00 R
(1722448977.070517) can0 015#00 R
(1722448977.070632) can0 017#00 R
(1722448977.070753) can0 056#00 R
(1722448977.084362) can0 00E#E901 R
(1722448977.084530) can0 05C#E901E901 R
(1722448977.084642) can0 016#00 R
(1722448977.100104) can0 00D#DD01 R
(1722448977.100226) can0 05B#DD01 R
(1722448977.100337) can0 014#00 R
(1722448977.100456) can0 008#00 R
(1722448977.100576) can0 055#00 R
(1722448977.100694) can0 05D#00 R
(1722448977.115156) can0 015#00 R
(1722448977.115265) can0 016#00 R
(1722448977.120651) can0 007#00 R
(1722448977.130111) can0 041#00 R
(1722448977.130281) can0 05C#9B019B01 R
(1722448977.130399) can0 056#00 R
(1722448977.130532) can0 00E#9B01 R
(1722448977.130668) can0 00E#9B01 R
(1722448977.130836) can0 05C#9B019B01 R
(1722448977.130955) can0 041#00 R
(1722448977.131071) can0 016#00 R
(1722448977.131190) can0 015#00 R
(1722448977.131307) can0 017#00 R
(1722448977.131429) can0 056#00 R
(1722448977.146319) can0 00E#8101 R
(1722448977.146482) can0 05C#81018101 R
(1722448977.146598) can0 016#00 R
(1722448977.161394) can0 00D#7801 R
(1722448977.161525) can0 05B#7801 R
(1722448977.161640) can0 014#00 R
(1722448977.161758) can0 008#00 R
(1722448977.161878) can0 055#00 R
(1722448977.161996) can0 05D#00 R
(1722448977.167633) can0 007#00 R
(1722448977.176655) can0 015#00 R
(1722448977.176792) can0 056#00 R
(1722448977.192677) can0 016#00 R
(1722448977.192813) can0 041#00 R
(1722448977.192971) can0 05C#3C013C01 R
(1722448977.193098) can0 00E#3C01 R
(1722448977.193266) can0 05C#3C013C01 R
(1722448977.193388) can0 041#00 R
(1722448977.193506) can0 016#00 R
(1722448977.193625) can0 015#00 R
(1722448977.193742) can0 017#00 R
(1722448977.193861) can0 056#00 R
(1722448977.208212) can0 00E#2701 R
(1722448977.208348) can0 00E#2701 R
(1722448977.208515) can0 05C#27012701 R
(1722448977.217618) can0 007#00 R
(1722448977.224218) can0 00D#1E01 R
(1722448977.224333) can0 016#00 R
(1722448977.224466) can0 05B#1E01 R
(1722448977.224581) can0 014#00 R
(1722448977.224698) can0 008#00 R
(1722448977.224819) can0 055#00 R
(1722448977.224936) can0 05D#00 R
(1722448977.253340) can0 015#00 R
(1722448977.253451) can0 016#00 R
(1722448977.253574) can0 041#00 R
(1722448977.253748) can0 05C#EB00EB00 R
(1722448977.253862) can0 056#00 R
(1722448977.253997) can0 00E#EB00 R
(1722448977.254129) can0 00E#EB00 R
(1722448977.254263) can0 00E#EB00 R
(1722448977.254431) can0 05C#EB00EB00 R
(1722448977.254550) can0 041#00 R
(1722448977.254667) can0 016#00 R
(1722448977.254787) can0 015#00 R
(1722448977.254902) can0 017#00 R
(1722448977.255022) can0 056#00 R
(1722448977.268690) can0 007#00 R
(1722448977.268866) can0 05C#D900D900 R
(1722448977.268984) can0 016#00 R
(1722448977.284138) can0 00D#D100 R
(1722448977.284275) can0 05B#D100 R
(1722448977.284385) can0 014#00 R
(1722448977.284509) can0 008#00 R
(1722448977.284623) can0 055#00 R
(1722448977.284757) can0 05D#00 R
(1722448977.316352) can0 015#00 R
(1722448977.316453) can0 016#00 R
(1722448977.316578) can0 041#00 R
(1722448977.316696) can0 056#00 R
(1722448977.316828) can0 00E#A500 R
(1722448977.316961) can0 00E#A500 R
(1722448977.317134) can0 05C#A500A500 R
(1722448977.317255) can0 041#00 R
(1722448977.317365) can0 016#00 R
(1722448977.317487) can0 015#00 R
(1722448977.317602) can0 017#00 R
(1722448977.317722) can0 056#00 R
(1722448977.318623) can0 007#00 R
(1722448977.330901) can0 05C#95009500 R
(1722448977.331032) can0 00E#9500 R
(1722448977.331198) can0 05C#95009500 R
(1722448977.331310) can0 016#00 R
(1722448977.346238) can0 00D#8F00 R
(1722448977.346367) can0 05B#8F00 R
(1722448977.346483) can0 014#00 R
(1722448977.346599) can0 008#00 R
(1722448977.346720) can0 055#00 R
(1722448977.346838) can0 05D#00 R
(1722448977.368079) can0 007#00 R
(1722448977.376416) can0 056#00 R
(1722448977.376556) can0 00E#6C00 R
(1722448977.376685) can0 00E#6C00 R
(1722448977.376865) can0 05C#6C006C00 R
(1722448977.376979) can0 041#00 R
(1722448977.377099) can0 016#00 R
(1722448977.377220) can0 015#00 R
(1722448977.377331) can0 017#00 R
(1722448977.377450) can0 056#00 R
(1722448977.392295) can0 015#00 R
(1722448977.392425) can0 00E#5F00 R
(1722448977.392601) can0 05C#5F005F00 R
(1722448977.392712) can0 016#00 R
(1722448977.407923) can0 00D#5A00 R
(1722448977.408039) can0 016#00 R
(1722448977.408156) can0 041#00 R
(1722448977.408287) can0 05B#5A00 R
(1722448977.408402) can0 014#00 R
(1722448977.408520) can0 008#00 R
(1722448977.408640) can0 055#00 R
(1722448977.408816) can0 05C#54005400 R
(1722448977.408934) can0 05D#00 R
(1722448977.417946) can0 007#00 R
(1722448977.438364) can0 056#00 R
(1722448977.438498) can0 00E#3E00 R
(1722448977.438675) can0 05C#3E003E00 R
(1722448977.438793) can0 041#00 R
(1722448977.438909) can0 016#00 R
(1722448977.439032) can0 015#00 R
(1722448977.439145) can0 017#00 R
(1722448977.439265) can0 056#00 R
(1722448977.453553) can0 00E#3500 R
(1722448977.453683) can0 00E#3500 R
(1722448977.453857) can0 05C#35003500 R
(1722448977.467804) can0 007#00 R
(1722448977.469420) can0 00D#3100 R
(1722448977.469555) can0 05B#3100 R
(1722448977.469669) can0 014#00 R
(1722448977.469788) can0 008#00 R
(1722448977.469912) can0 015#00 R
(1722448977.470023) can0 016#00 R
(1722448977.470148) can0 041#00 R
(1722448977.470265) can0 055#00 R
(1722448977.470441) can0 05C#2C002C00 R
(1722448977.470553) can0 016#00 R
(1722448977.470674) can0 05D#00 R
(1722448977.485309) can0 056#00 R
(1722448977.500911) can0 00E#1D00 R
(1722448977.501041) can0 00E#1D00 R
(1722448977.501178) can0 00E#1D00 R
(1722448977.501353) can0 05C#1D001D00 R
(1722448977.501467) can0 041#00 R
(1722448977.501584) can0 016#00 R
(1722448977.501704) can0 015#00 R
(1722448977.501819) can0 017#00 R
(1722448977.501941) can0 056#00 R
(1722448977.513924) can0 05C#17001700 R
(1722448977.514037) can0 016#00 R
(1722448977.517632) can0 007#00 R
(1722448977.529867) can0 00D#1500 R
(1722448977.529971) can0 015#00 R
(1722448977.530089) can0 016#00 R
(1722448977.530212) can0 041#00 R
(1722448977.530345) can0 05B#1500 R
(1722448977.530460) can0 014#00 R
(1722448977.530578) can0 008#00 R
(1722448977.530699) can0 055#00 R
(1722448977.530816) can0 05D#00 R
(1722448977.544298) can0 05C#0D000D00 R
(1722448977.560683) can0 056#00 R
(1722448977.560819) can0 00E#0900 R
(1722448977.561202) can0 00E#0900 R
(1722448977.561372) can0 05C#09000900 R
(1722448977.561498) can0 041#00 R
(1722448977.561608) can0 016#00 R
(1722448977.561729) can0 015#00 R
(1722448977.561844) can0 017#00 R
(1722448977.561964) can0 056#00 R
(1722448977.567645) can0 007#00 R
(1722448977.576417) can0 00E#0500 R
(1722448977.576590) can0 05C#05000500 R
(1722448977.576704) can0 016#00 R
(1722448977.590890) can0 00D#0400 R
(1722448977.591028) can0 05B#0400 R
(1722448977.591144) can0 015#00 R
(1722448977.591265) can0 014#00 R
(1722448977.591377) can0 008#00 R
(1722448977.591499) can0 016#00 R
(1722448977.591613) can0 055#00 R
(1722448977.591734) can0 05D#00 R
(1722448977.606675) can0 041#00 R
(1722448977.606852) can0 05C#01000100 R
(1722448977.617980) can0 007#00 R
(1722448977.622382) can0 056#00 R
(1722448977.622523) can0 00E#0000 R
(1722448977.622659) can0 00E#0000 R
(1722448977.622836) can0 05C#00000000 R
(1722448977.622954) can0 041#00 R
(1722448977.623071) can0 016#00 R
(1722448977.623191) can0 015#00 R
(1722448977.623307) can0 017#00 R
(1722448977.623427) can0 056#00 R
(1722448977.638355) can0 00E#0000 R
(1722448977.638525) can0 05C#00000000 R
(1722448977.638629) can0 016#00 R
(1722448977.652859) can0 00D#0000 R
(1722448977.652973) can0 015#00 R
(1722448977.653092) can0 016#00 R
(1722448977.653226) can0 05B#0000 R
(1722448977.653342) can0 014#00 R
(1722448977.653460) can0 008#00 R
(1722448977.653580) can0 055#00 R
(1722448977.653697) can0 05D#00 R
(1722448977.668119) can0 007#00 R
(1722448977.668445) can0 041#00 R
(1722448977.668622) can0 05C#01000100 R
(1722448977.684440) can0 056#00 R
(1722448977.684572) can0 00E#0300 R
(1722448977.684753) can0 05C#03000300 R
(1722448977.684866) can0 041#00 R
(1722448977.684985) can0 016#00 R
(1722448977.685101) can0 015#00 R
(1722448977.685220) can0 017#00 R
(1722448977.685338) can0 056#00 R
(1722448977.699888) can0 00E#0600 R
(1722448977.700026) can0 00E#0600 R
(1722448977.700193) can0 05C#06000600 R
(1722448977.715779) can0 00D#0800 R
(1722448977.715914) can0 05B#0800 R
(1722448977.716027) can0 014#00 R
(1722448977.716146) can0 008#00 R
(1722448977.716273) can0 015#00 R
(1722448977.716382) can0 016#00 R
(1722448977.716500) can0 016#00 R
(1722448977.716620) can0 055#00 R
(1722448977.716757) can0 05D#00 R
(1722448977.720572) can0 007#00 R
(1722448977.730969) can0 041#00 R
(1722448977.731134) can0 05C#0E000E00 R
(1722448977.746820) can0 056#00 R
(1722448977.746933) can0 00E#1300 R
(1722448977.747070) can0 00E#1300 R
(1722448977.747201) can0 00E#1300 R
(1722448977.747374) can0 05C#13001300 R
(1722448977.747494) can0 041#00 R
(1722448977.747609) can0 016#00 R
(1722448977.747730) can0 015#00 R
(1722448977.747845) can0 017#00 R
(1722448977.747966) can0 056#00 R
(1722448977.762278) can0 05C#1A001A00 R
(1722448977.762392) can0 016#00 R
(1722448977.768540) can0 007#00 R
(1722448977.776932) can0 015#00 R
(1722448977.777042) can0 016#00 R
(1722448977.777182) can0 00D#1C00 R
(1722448977.777324) can0 05B#1C00 R
(1722448977.777431) can0 014#00 R
(1722448977.777550) can0 008#00 R
(1722448977.777671) can0 055#00 R
(1722448977.777789) can0 05D#00 R
(1722448977.793723) can0 041#00 R
(1722448977.793895) can0 05C#28002800 R
(1722448977.794010) can0 056#00 R
(1722448977.807796) can0 00E#2F00 R
(1722448977.807929) can0 00E#2F00 R
(1722448977.808098) can0 05C#2F002F00 R
(1722448977.808219) can0 041#00 R
(1722448977.808334) can0 016#00 R
(1722448977.808454) can0 015#00 R
(1722448977.808570) can0 017#00 R
(1722448977.808690) can0 056#00 R
(1722448977.818201) can0 007#00 R
(1722448977.823328) can0 00E#3900 R
(1722448977.823503) can0 05C#39003900 R
(1722448977.823609) can0 016#00 R
(1722448977.838901) can0 00D#3D00 R
(1722448977.839017) can0 015#00 R
(1722448977.839152) can0 05B#3D00 R
(1722448977.839267) can0 014#00 R
(1722448977.839385) can0 008#00 R
(1722448977.839507) can0 055#00 R
(1722448977.839622) can0 05D#00 R
(1722448977.855015) can0 016#00 R
(1722448977.855122) can0 041#00 R
(1722448977.855295) can0 05C#4D004D00 R
(1722448977.868129) can0 007#00 R
(1722448977.870380) can0 056#00 R
(1722448977.870515) can0 00E#5900 R
(1722448977.870645) can0 00E#5900 R
(1722448977.870806) can0 05C#59005900 R
(1722448977.870931) can0 041#00 R
(1722448977.871044) can0 016#00 R
(1722448977.871165) can0 015#00 R
(1722448977.871280) can0 017#00 R
(1722448977.871401) can0 056#00 R
(1722448977.886400) can0 00E#6500 R
(1722448977.886568) can0 05C#65006500 R
(1722448977.886680) can0 016#00 R
(1722448977.901700) can0 00D#6A00 R
(1722448977.901832) can0 05B#6A00 R
(1722448977.901947) can0 014#00 R
(1722448977.902066) can0 008#00 R
(1722448977.902185) can0 055#00 R
(1722448977.902304) can0 05D#00 R
(1722448977.916857) can0 015#00 R
(1722448977.916971) can0 016#00 R
(1722448977.917093) can0 041#00 R
(1722448977.917272) can0 05C#7F007F00 R
(1722448977.920222) can0 007#00 R
(1722448977.932049) can0 056#00 R
(1722448977.932180) can0 00E#8D00 R
(1722448977.932347) can0 05C#8D008D00 R
(1722448977.932467) can0 041#00 R
(1722448977.932583) can0 016#00 R
(1722448977.932705) can0 015#00 R
(1722448977.932808) can0 017#00 R
(1722448977.932942) can0 056#00 R
(1722448977.947052) can0 00E#9D00 R
(1722448977.947186) can0 00E#9D00 R
(1722448977.947358) can0 05C#9D009D00 R
(1722448977.962476) can0 016#00 R
(1722448977.962601) can0 00D#A400 R
(1722448977.962733) can0 05B#A400 R
(1722448977.962847) can0 014#00 R
(1722448977.962966) can0 008#00 R
(1722448977.963086) can0 055#00 R
(1722448977.963204) can0 05D#00 R
(1722448977.969002) can0 007#00 R
(1722448977.977988) can0 015#00 R
(1722448977.978096) can0 016#00 R
(1722448977.978218) can0 041#00 R
(1722448977.992882) can0 05C#CD00CD00 R
(1722448977.993003) can0 056#00 R
(1722448977.993131) can0 00E#CD00 R
(1722448977.993270) can0 00E#CD00 R
(1722448977.993397) can0 00E#CD00 R
(1722448977.993564) can0 05C#CD00CD00 R
(1722448977.993684) can0 041#00 R
(1722448977.993799) can0 016#00 R
(1722448977.993919) can0 015#00 R
(1722448977.994036) can0 017#00 R
(1722448977.994156) can0 056#00 R
(1722448978.008067) can0 05C#DF00DF00 R
(1722448978.008179) can0 016#00 R
(1722448978.022920) can0 007#00 R
(1722448978.023480) can0 00D#E900 R
(1722448978.023619) can0 05B#E900 R
(1722448978.023726) can0 014#00 R
(1722448978.023848) can0 008#00 R
(1722448978.023966) can0 055#00 R
(1722448978.024084) can0 05D#00 R
(1722448978.039496) can0 015#00 R
(1722448978.039607) can0 016#00 R
(1722448978.054557) can0 041#00 R
(1722448978.054729) can0 05C#1B011B01 R
(1722448978.054845) can0 056#00 R
(1722448978.054991) can0 00E#1B01 R
(1722448978.055114) can0 00E#1B01 R
(1722448978.055286) can0 05C#1B011B01 R
(1722448978.055406) can0 041#00 R
(1722448978.055521) can0 016#00 R
(1722448978.055642) can0 015#00 R
(1722448978.055764) can0 017#00 R
(1722448978.055880) can0 056#00 R
(1722448978.070949) can0 00E#3101 R
(1722448978.071100) can0 05C#31013101 R
(1722448978.071216) can0 016#00 R
(1722448978.072954) can0 007#00 R
(1722448978.086760) can0 00D#3C01 R
(1722448978.086892) can0 05B#3C01 R
(1722448978.087005) can0 014#00 R
(1722448978.087128) can0 008#00 R
(1722448978.087243) can0 015#00 R
(1722448978.087366) can0 055#00 R
(1722448978.087481) can0 05D#00 R
(1722448978.101641) can0 016#00 R
(1722448978.101761) can0 041#00 R
(1722448978.101931) can0 05C#5E015E01 R
(1722448978.117555) can0 056#00 R
(1722448978.117685) can0 00E#7601 R
(1722448978.117822) can0 00E#7601 R
(1722448978.117988) can0 05C#76017601 R
(1722448978.118103) can0 041#00 R
(1722448978.118221) can0 016#00 R
(1722448978.118340) can0 015#00 R
(1722448978.118456) can0 017#00 R
(1722448978.118576) can0 056#00 R
(1722448978.122477) can0 007#00 R
(1722448978.134123) can0 00E#9001 R
(1722448978.134294) can0 05C#90019001 R
(1722448978.134405) can0 016#00 R
(1722448978.149374) can0 00D#9B01 R
(1722448978.149507) can0 05B#9B01 R
(1722448978.149615) can0 014#00 R
(1722448978.149738) can0 008#00 R
(1722448978.149868) can0 055#00 R
(1722448978.149972) can0 05D#00 R
(1722448978.164835) can0 015#00 R
(1722448978.164943) can0 016#00 R
(1722448978.165065) can0 041#00 R
(1722448978.165236) can0 05C#C501C501 R
(1722448978.172203) can0 007#00 R
(1722448978.180871) can0 056#00 R
(1722448978.181003) can0 00E#DF01 R
(1722448978.181175) can0 05C#DF01DF01 R
(1722448978.181298) can0 041#00 R
(1722448978.181413) can0 016#00 R
(1722448978.181534) can0 015#00 R
(1722448978.181649) can0 017#00 R
(1722448978.181769) can0 056#00 R
(1722448978.196294) can0 00E#FB01 R
(1722448978.196427) can0 00E#FB01 R
(1722448978.196600) can0 05C#FB01FB01 R
(1722448978.211065) can0 016#00 R
(1722448978.211209) can0 00D#0602 R
(1722448978.211336) can0 05B#0602 R
(1722448978.211458) can0 014#00 R
(1722448978.211570) can0 008#00 R
(1722448978.211694) can0 055#00 R
(1722448978.211810) can0 05D#00 R
(1722448978.222682) can0 007#00 R
(1722448978.226730) can0 015#00 R
(1722448978.227244) can0 016#00 R
(1722448978.227358) can0 041#00 R
(1722448978.227485) can0 056#00 R
(1722448978.227652) can0 05C#33023302 R
(1722448978.227784) can0 00E#3502 R
(1722448978.227919) can0 00E#3502 R
(1722448978.243120) can0 05C#51025102 R
(1722448978.243233) can0 016#00 R
(1722448978.243366) can0 00E#5102 R
(1722448978.243537) can0 05C#51025102 R
(1722448978.243656) can0 041#00 R
(1722448978.243772) can0 016#00 R
(1722448978.243892) can0 015#00 R
(1722448978.244008) can0 017#00 R
(1722448978.244128) can0 056#00 R
(1722448978.257917) can0 015#00 R
(1722448978.258031) can0 016#00 R
(1722448978.271851) can0 007#00 R
(1722448978.273144) can0 00D#7D02 R
(1722448978.273250) can0 041#00 R
(1722448978.273389) can0 05B#7D02 R
(1722448978.273502) can0 014#00 R
(1722448978.273621) can0 008#00 R
(1722448978.273741) can0 055#00 R
(1722448978.273912) can0 05C#8F028F02 R
(1722448978.274025) can0 05D#00 R
(1722448978.303527) can0 056#00 R
(1722448978.303659) can0 00E#CE02 R
(1722448978.303804) can0 00E#CE02 R
(1722448978.303960) can0 05C#CE02CE02 R
(1722448978.304078) can0 041#00 R
(1722448978.304195) can0 016#00 R
(1722448978.304318) can0 015#00 R
(1722448978.304431) can0 017#00 R
(1722448978.304552) can0 056#00 R
(1722448978.319120) can0 015#00 R
(1722448978.319255) can0 00E#F102 R
(1722448978.319416) can0 05C#F102F102 R
(1722448978.319531) can0 016#00 R
(1722448978.321640) can0 007#00 R
(1722448978.334165) can0 016#00 R
(1722448978.334282) can0 041#00 R
(1722448978.334419) can0 00D#FE02 R
(1722448978.334554) can0 05B#FE02 R
(1722448978.334727) can0 05C#12031203 R
(1722448978.334834) can0 014#00 R
(1722448978.334957) can0 008#00 R
(1722448978.335073) can0 055#00 R
(1722448978.335191) can0 05D#00 R
(1722448978.365140) can0 056#00 R
(1722448978.365271) can0 00E#5903 R
(1722448978.365414) can0 00E#5903 R
(1722448978.365570) can0 05C#59035903 R
(1722448978.365689) can0 041#00 R
(1722448978.365807) can0 016#00 R
(1722448978.365926) can0 015#00 R
(1722448978.366042) can0 017#00 R
(1722448978.366163) can0 056#00 R
(1722448978.372491) can0 007#00 R
(1722448978.381090) can0 00E#7D03 R
(1722448978.381256) can0 05C#7D037D03 R
(1722448978.381362) can0 016#00 R
(1722448978.396608) can0 015#00 R
(1722448978.396761) can0 00D#9003 R
(1722448978.396846) can0 016#00 R
(1722448978.396984) can0 041#00 R
(1722448978.397142) can0 05B#9003 R
(1722448978.397210) can0 014#00 R
(1722448978.397358) can0 008#00 R
(1722448978.397471) can0 055#00 R
(1722448978.397590) can0 05D#00 R
(1722448978.412178) can0 05C#CB03CB03 R
(1722448978.421989) can0 007#00 R
(1722448978.427069) can0 056#00 R
(1722448978.427201) can0 00E#F003 R
(1722448978.427375) can0 05C#F003F003 R
(1722448978.427494) can0 041#00 R
(1722448978.427611) can0 016#00 R
(1722448978.427730) can0 015#00 R
(1722448978.427847) can0 017#00 R
(1722448978.427967) can0 056#00 R
(1722448978.442685) can0 00E#1704 R
(1722448978.442816) can0 00E#1704 R
(1722448978.442991) can0 05C#17041704 R
(1722448978.458261) can0 00D#2904 R
(1722448978.458384) can0 015#00 R
(1722448978.458496) can0 016#00 R
(1722448978.458611) can0 016#00 R
(1722448978.458744) can0 05B#2904 R
(1722448978.458859) can0 014#00 R
(1722448978.458978) can0 008#00 R
(1722448978.459098) can0 055#00 R
(1722448978.459216) can0 05D#00 R
(1722448978.472649) can0 007#00 R
(1722448978.473617) can0 041#00 R
(1722448978.473833) can0 05C#68046804 R
(1722448978.488361) can0 056#00 R
(1722448978.488482) can0 00E#9104 R
(1722448978.488617) can0 00E#9104 R
(1722448978.488758) can0 00E#9104 R
(1722448978.488915) can0 05C#91049104 R
(1722448978.489035) can0 041#00 R
(1722448978.489149) can0 016#00 R
(1722448978.489270) can0 015#00 R
(1722448978.489385) can0 017#00 R
(1722448978.489506) can0 056#00 R
(1722448978.489676) can0 05C#91049104 R
(1722448978.489787) can0 016#00 R
(1722448978.504667) can0 015#00 R
(1722448978.519640) can0 00D#CE04 R
(1722448978.519770) can0 05B#CE04 R
(1722448978.519885) can0 014#00 R
(1722448978.520004) can0 008#00 R
(1722448978.520121) can0 016#00 R
(1722448978.520240) can0 041#00 R
(1722448978.520362) can0 055#00 R
(1722448978.520536) can0 05C#E704E704 R
(1722448978.520648) can0 05D#00 R
(1722448978.522728) can0 007#00 R
(1722448978.550748) can0 056#00 R
(1722448978.550884) can0 00E#4005 R
(1722448978.551025) can0 00E#4005 R
(1722448978.551193) can0 05C#40054005 R
(1722448978.551314) can0 041#00 R
(1722448978.551429) can0 016#00 R
(1722448978.551550) can0 015#00 R
(1722448978.551665) can0 017#00 R
(1722448978.551787) can0 056#00 R
(1722448978.566798) can0 00E#6F05 R
(1722448978.566968) can0 05C#6F056F05 R
(1722448978.567078) can0 016#00 R
(1722448978.572801) can0 007#00 R
(1722448978.582227) can0 015#00 R
(1722448978.582359) can0 00D#8405 R
(1722448978.582475) can0 016#00 R
(1722448978.582597) can0 041#00 R
(1722448978.582731) can0 05B#8405 R
(1722448978.582843) can0 014#00 R
(1722448978.582963) can0 008#00 R
(1722448978.583082) can0 055#00 R
(1722448978.583257) can0 05C#9F059F05 R
(1722448978.583370) can0 05D#00 R
(1722448978.612893) can0 056#00 R
(1722448978.613022) can0 00E#FE05 R
(1722448978.613157) can0 00E#FE05 R
(1722448978.613328) can0 05C#FE05FE05 R
(1722448978.613448) can0 041#00 R
(1722448978.613563) can0 016#00 R
(1722448978.613684) can0 015#00 R
(1722448978.613805) can0 017#00 R
(1722448978.613919) can0 056#00 R
(1722448978.627999) can0 00E#2D06 R
(1722448978.628161) can0 05C#2D062D06 R
(1722448978.628270) can0 016#00 R
(1722448978.628392) can0 015#00 R
(1722448978.628506) can0 016#00 R
(1722448978.628629) can0 041#00 R
(1722448978.633756) can0 007#00 R
(1722448978.643010) can0 00D#4006 R
(1722448978.643140) can0 05B#4006 R
(1722448978.643254) can0 014#00 R
(1722448978.643372) can0 008#00 R
(1722448978.643492) can0 055#00 R
(1722448978.643660) can0 05C#5D065D06 R
(1722448978.643780) can0 05D#00 R
(1722448978.673073) can0 056#00 R
(1722448978.673203) can0 00E#BE06 R
(1722448978.673381) can0 05C#BE06BE06 R
(1722448978.673503) can0 041#00 R
(1722448978.673616) can0 016#01 R
(1722448978.673737) can0 015#00 R
(1722448978.673853) can0 017#00 R
(1722448978.673972) can0 056#00 R
(1722448978.684119) can0 007#00 R
(1722448978.688418) can0 015#00 R
(1722448978.688530) can0 016#01 R
(1722448978.688667) can0 00E#F006 R
(1722448978.688813) can0 00E#F006 R
(1722448978.688965) can0 05C#F006F006 R
(1722448978.703556) can0 041#00 R
(1722448978.703684) can0 00D#0407 R
(1722448978.703814) can0 05B#0407 R
(1722448978.703930) can0 014#00 R
(1722448978.704048) can0 008#00 R
(1722448978.704168) can0 055#00 R
(1722448978.704334) can0 05C#23072307 R
(1722448978.704452) can0 016#01 R
(1722448978.704570) can0 05D#00 R
(1722448978.734641) can0 007#00 R
(1722448978.734808) can0 056#00 R
(1722448978.734947) can0 00E#8D07 R
(1722448978.735077) can0 00E#8D07 R
(1722448978.735211) can0 00E#8D07 R
(1722448978.735384) can0 05C#8D078D07 R
(1722448978.735504) can0 041#00 R
(1722448978.735618) can0 016#01 R
(1722448978.735739) can0 015#00 R
(1722448978.735855) can0 017#00 R
(1722448978.735978) can0 056#00 R
(1722448978.750423) can0 015#00 R
(1722448978.750592) can0 05C#C507C507 R
(1722448978.750706) can0 016#01 R
(1722448978.765365) can0 00D#DA07 R
(1722448978.765472) can0 016#01 R
(1722448978.765613) can0 05B#DA07 R
(1722448978.765721) can0 014#00 R
(1722448978.765839) can0 008#00 R
(1722448978.765969) can0 041#00 R
(1722448978.766083) can0 055#00 R
(1722448978.766260) can0 05C#FB07FB07 R
(1722448978.766374) can0 05D#00 R
(1722448978.784051) can0 007#00 R
(1722448978.796619) can0 056#00 R
(1722448978.796759) can0 00E#6B08 R
(1722448978.796877) can0 00E#6B08 R
(1722448978.797042) can0 05C#6B086B08 R
(1722448978.797160) can0 041#00 R
(1722448978.797277) can0 016#01 R
(1722448978.797396) can0 015#00 R
(1722448978.797513) can0 017#00 R
(1722448978.797634) can0 056#00 R
(1722448978.811619) can0 00E#A208 R
(1722448978.811776) can0 05C#A208A208 R
(1722448978.811887) can0 016#01 R
(1722448978.827559) can0 00D#BC08 R
(1722448978.827691) can0 05B#BC08 R
(1722448978.827806) can0 014#00 R
(1722448978.827924) can0 008#00 R
(1722448978.828044) can0 015#00 R
(1722448978.828160) can0 016#01 R
(1722448978.828280) can0 055#00 R
(1722448978.828402) can0 041#00 R
(1722448978.828576) can0 05C#DE08DE08 R
(1722448978.828690) can0 05D#00 R
(1722448978.834252) can0 007#00 R
(1722448978.842718) can0 056#00 R
(1722448978.857595) can0 00E#5109 R
(1722448978.857722) can0 00E#5109 R
(1722448978.857885) can0 05C#51095109 R
(1722448978.858006) can0 041#00 R
(1722448978.858121) can0 016#01 R
(1722448978.858242) can0 015#00 R
(1722448978.858363) can0 017#00 R
(1722448978.858478) can0 056#00 R
(1722448978.873576) can0 00E#8F09 R
(1722448978.873743) can0 05C#8F098F09 R
(1722448978.873852) can0 016#01 R
(1722448978.884484) can0 007#00 R
(1722448978.888806) can0 00D#AA09 R
(1722448978.888938) can0 05B#AA09 R
(1722448978.889053) can0 014#00 R
(1722448978.889173) can0 015#00 R
(1722448978.889291) can0 008#00 R
(1722448978.889407) can0 016#01 R
(1722448978.889529) can0 041#00 R
(1722448978.889649) can0 055#00 R
(1722448978.889767) can0 05D#00 R
(1722448978.904151) can0 05C#090A090A R
(1722448978.904269) can0 056#00 R
(1722448978.919273) can0 00E#450A R
(1722448978.919388) can0 00E#450A R
(1722448978.919554) can0 05C#450A450A R
(1722448978.919688) can0 00E#450A R
(1722448978.919852) can0 05C#450A450A R
(1722448978.919970) can0 041#00 R
(1722448978.920088) can0 016#01 R
(1722448978.920208) can0 015#00 R
(1722448978.920325) can0 017#00 R
(1722448978.920446) can0 056#00 R
(1722448978.934145) can0 007#00 R
(1722448978.935410) can0 015#00 R
(1722448978.935521) can0 016#01 R
(1722448978.935642) can0 016#01 R
(1722448978.951352) can0 00D#A30A R
(1722448978.951472) can0 041#00 R
(1722448978.951602) can0 05B#A30A R
(1722448978.951718) can0 014#00 R
(1722448978.951835) can0 008#00 R
(1722448978.951956) can0 055#00 R
(1722448978.952128) can0 05C#C80AC80A R
(1722448978.952239) can0 05D#00 R
(1722448978.967479) can0 056#00 R
(1722448978.982972) can0 00E#4E0B R
(1722448978.983104) can0 00E#4E0B R
(1722448978.983242) can0 00E#4E0B R
(1722448978.983407) can0 05C#4E0B4E0B R
(1722448978.983527) can0 041#00 R
(1722448978.983642) can0 016#01 R
(1722448978.983763) can0 015#00 R
(1722448978.983878) can0 017#00 R
(1722448978.983999) can0 056#00 R
(1722448978.985204) can0 007#00 R
(1722448978.997733) can0 015#00 R
(1722448978.997899) can0 05C#8E0B8E0B R
(1722448978.998012) can0 016#01 R
(1722448979.013107) can0 00D#A70B R
(1722448979.013219) can0 016#01 R
(1722448979.013342) can0 041#00 R
(1722448979.013474) can0 05B#A70B R
(1722448979.013590) can0 014#00 R
(1722448979.013707) can0 008#00 R
(1722448979.013891) can0 05C#CE0BCE0B R
(1722448979.013997) can0 055#00 R
(1722448979.014117) can0 05D#00 R
(1722448979.034589) can0 007#00 R
(1722448979.042916) can0 056#00 R
(1722448979.043047) can0 00E#510C R
(1722448979.043188) can0 00E#510C R
(1722448979.043348) can0 05C#510C510C R
(1722448979.043473) can0 041#00 R
(1722448979.043582) can0 016#01 R
(1722448979.043703) can0 015#00 R
(1722448979.043819) can0 017#00 R
(1722448979.043939) can0 056#00 R
(1722448979.058383) can0 00E#940C R
(1722448979.058550) can0 05C#940C940C R
(1722448979.058661) can0 016#01 R
(1722448979.073451) can0 00D#AE0C R
(1722448979.073582) can0 05B#AE0C R
(1722448979.073697) can0 014#00 R
(1722448979.073814) can0 008#00 R
(1722448979.073938) can0 015#00 R
(1722448979.074050) can0 016#02 R
(1722448979.074172) can0 041#00 R
(1722448979.074291) can0 055#00 R
(1722448979.074466) can0 05C#D70CD70C R
(1722448979.074573) can0 05D#00 R
(1722448979.087484) can0 007#00 R
(1722448979.088259) can0 056#00 R
(1722448979.088389) can0 00E#1A0D R
(1722448979.104100) can0 00E#5F0D R
(1722448979.104273) can0 05C#5F0D5F0D R
(1722448979.104388) can0 016#02 R
(1722448979.104523) can0 00E#5F0D R
(1722448979.104700) can0 05C#5F0D5F0D R
(1722448979.104810) can0 041#00 R
(1722448979.104941) can0 016#02 R
(1722448979.105057) can0 015#00 R
(1722448979.105174) can0 017#00 R
(1722448979.105294) can0 056#00 R
(1722448979.119443) can0 015#00 R
(1722448979.119556) can0 016#02 R
(1722448979.119680) can0 041#00 R
(1722448979.120063) can0 05C#A80DA80D R
(1722448979.134376) can0 00D#C40D R
(1722448979.134509) can0 05B#C40D R
(1722448979.134621) can0 014#00 R
(1722448979.134742) can0 008#00 R
(1722448979.134863) can0 055#00 R
(1722448979.134980) can0 05D#00 R
(1722448979.137324) can0 007#00 R
(1722448979.164460) can0 056#00 R
(1722448979.164646) can0 00E#7C0E R
(1722448979.164819) can0 05C#7C0E7C0E R
(1722448979.164939) can0 041#00 R
(1722448979.165056) can0 016#02 R
(1722448979.165175) can0 015#00 R
(1722448979.165292) can0 017#00 R
(1722448979.165414) can0 056#00 R
(1722448979.180817) can0 00E#C80E R
(1722448979.180923) can0 00E#C80E R
(1722448979.181085) can0 05C#C80EC80E R
(1722448979.187400) can0 007#00 R
(1722448979.195908) can0 00D#EA0E R
(1722448979.196028) can0 015#00 R
(1722448979.196142) can0 016#02 R
(1722448979.196264) can0 041#00 R
(1722448979.196399) can0 05B#EA0E R
(1722448979.196513) can0 014#00 R
(1722448979.196631) can0 008#00 R
(1722448979.196810) can0 05C#150F150F R
(1722448979.196915) can0 055#00 R
(1722448979.197032) can0 016#02 R
(1722448979.197149) can0 05D#00 R
(1722448979.226275) can0 056#00 R
(1722448979.226408) can0 00E#A80F R
(1722448979.226545) can0 00E#A80F R
(1722448979.226675) can0 00E#A80F R
(1722448979.226850) can0 05C#A80FA80F R
(1722448979.226965) can0 041#00 R
(1722448979.227086) can0 016#02 R
(1722448979.227200) can0 015#00 R
(1722448979.227317) can0 017#00 R
(1722448979.227437) can0 056#00 R
(1722448979.242453) can0 05C#F70FF70F R
(1722448979.242540) can0 016#02 R
(1722448979.248199) can0 007#00 R
(1722448979.257393) can0 015#00 R
(1722448979.257523) can0 00D#1510 R
(1722448979.257635) can0 016#02 R
(1722448979.257758) can0 041#00 R
(1722448979.257888) can0 05B#1510 R
(1722448979.258004) can0 014#00 R
(1722448979.258121) can0 008#00 R
(1722448979.258242) can0 055#00 R
(1722448979.258360) can0 05D#00 R
(1722448979.273058) can0 05C#93109310 R
(1722448979.273172) can0 056#00 R
(1722448979.273308) can0 00E#9310 R
(1722448979.288550) can0 00E#DF10 R
(1722448979.288719) can0 05C#DF10DF10 R
(1722448979.288811) can0 016#02 R
(1722448979.288974) can0 00E#DF10 R
(1722448979.289140) can0 05C#DF10DF10 R
(1722448979.289256) can0 041#00 R
(1722448979.289374) can0 016#02 R
(1722448979.289493) can0 015#00 R
(1722448979.289610) can0 017#00 R
(1722448979.289734) can0 056#00 R
(1722448979.289849) can0 015#00 R
(1722448979.289970) can0 016#02 R
(1722448979.297007) can0 007#00 R
(1722448979.304442) can0 041#00 R
(1722448979.304610) can0 05C#31113111 R
(1722448979.320756) can0 00D#5611 R
(1722448979.320871) can0 05B#5611 R
(1722448979.320988) can0 014#00 R
(1722448979.321108) can0 008#00 R
(1722448979.321225) can0 055#00 R
(1722448979.321347) can0 05D#00 R
(1722448979.347254) can0 007#00 R
(1722448979.350556) can0 056#00 R
(1722448979.350685) can0 00E#2112 R
(1722448979.350818) can0 00E#2112 R
(1722448979.350980) can0 05C#21122112 R
(1722448979.351104) can0 041#00 R
(1722448979.351215) can0 016#02 R
(1722448979.351341) can0 015#00 R
(1722448979.351453) can0 017#00 R
(1722448979.351577) can0 056#00 R
(1722448979.366782) can0 00E#7612 R
(1722448979.366941) can0 05C#76127612 R
(1722448979.367058) can0 016#02 R
(1722448979.381739) can0 00D#9C12 R
(1722448979.381857) can0 015#00 R
(1722448979.381972) can0 016#02 R
(1722448979.382094) can0 041#00 R
(1722448979.382230) can0 05B#9C12 R
(1722448979.382343) can0 014#00 R
(1722448979.382463) can0 008#00 R
(1722448979.382582) can0 055#00 R
(1722448979.382752) can0 05C#CC12CC12 R
(1722448979.382868) can0 05D#00 R
(1722448979.397498) can0 007#00 R
(1722448979.413070) can0 056#00 R
(1722448979.413198) can0 00E#6E13 R
(1722448979.413364) can0 05C#6E136E13 R
(1722448979.413485) can0 041#00 R
(1722448979.413600) can0 016#03 R
(1722448979.413719) can0 015#00 R
(1722448979.413842) can0 017#00 R
(1722448979.413956) can0 056#00 R
(1722448979.428134) can0 00E#C613 R
(1722448979.428264) can0 00E#C613 R
(1722448979.428428) can0 05C#C613C613 R
(1722448979.442876) can0 00D#E713 R
(1722448979.442995) can0 015#00 R
(1722448979.443110) can0 016#03 R
(1722448979.443233) can0 041#00 R
(1722448979.443354) can0 016#03 R
(1722448979.443481) can0 05B#E713 R
(1722448979.443600) can0 014#00 R
(1722448979.443713) can0 008#00 R
(1722448979.443839) can0 055#00 R
(1722448979.443951) can0 05D#00 R
(1722448979.446837) can0 007#00 R
(1722448979.458022) can0 05C#6C146C14 R
(1722448979.472792) can0 056#00 R
(1722448979.472903) can0 00E#BA14 R
(1722448979.473027) can0 00E#BA14 R
(1722448979.473157) can0 00E#BA14 R
(1722448979.473329) can0 05C#BA14BA14 R
(1722448979.473441) can0 041#00 R
(1722448979.473560) can0 016#03 R
(1722448979.473679) can0 015#00 R
(1722448979.473794) can0 017#00 R
(1722448979.473915) can0 056#00 R
(1722448979.489106) can0 05C#14151415 R
(1722448979.489219) can0 016#03 R
(1722448979.497100) can0 007#00 R
(1722448979.504616) can0 00D#3C15 R
(1722448979.504773) can0 05B#3C15 R
(1722448979.504873) can0 014#00 R
(1722448979.504982) can0 008#00 R
(1722448979.505101) can0 015#00 R
(1722448979.505215) can0 016#03 R
(1722448979.505336) can0 055#00 R
(1722448979.505452) can0 05D#00 R
(1722448979.519625) can0 041#00 R
(1722448979.519787) can0 05C#C515C515 R
(1722448979.519900) can0 056#00 R
(1722448979.520033) can0 00E#C515 R
(1722448979.535219) can0 00E#2116 R
(1722448979.535383) can0 05C#21162116 R
(1722448979.535492) can0 016#03 R
(1722448979.535622) can0 00E#2116 R
(1722448979.535786) can0 05C#21162116 R
(1722448979.535908) can0 041#00 R
(1722448979.536021) can0 016#03 R
(1722448979.536146) can0 015#00 R
(1722448979.536259) can0 017#00 R
(1722448979.536380) can0 056#00 R
(1722448979.547999) can0 007#00 R
(1722448979.550939) can0 015#00 R
(1722448979.566325) can0 016#03 R
(1722448979.566430) can0 041#00 R
(1722448979.566565) can0 00D#A116 R
(1722448979.566697) can0 05B#A116 R
(1722448979.566812) can0 014#00 R
(1722448979.566931) can0 008#00 R
(1722448979.567050) can0 055#00 R
(1722448979.567213) can0 05C#D616D616 R
(1722448979.567331) can0 05D#00 R
(1722448979.596575) can0 056#00 R
(1722448979.596712) can0 00E#8717 R
(1722448979.596839) can0 00E#8717 R
(1722448979.597009) can0 05C#87178717 R
(1722448979.597126) can0 041#00 R
(1722448979.597241) can0 016#03 R
(1722448979.597362) can0 015#00 R
(1722448979.597477) can0 017#00 R
(1722448979.597594) can0 007#00 R
(1722448979.597720) can0 056#00 R
(1722448979.612128) can0 00E#E717 R
(1722448979.612295) can0 05C#E717E717 R
(1722448979.612407) can0 016#03 R
(1722448979.627944) can0 00D#1118 R
(1722448979.628061) can0 015#00 R
(1722448979.628177) can0 016#03 R
(1722448979.628299) can0 041#00 R
(1722448979.628431) can0 05B#1118 R
(1722448979.628549) can0 014#00 R
(1722448979.628716) can0 05C#41184118 R
(1722448979.628805) can0 008#00 R
(1722448979.628952) can0 055#00 R
(1722448979.629071) can0 05D#00 R
(1722448979.647207) can0 007#00 R
(1722448979.657921) can0 056#00 R
(1722448979.658053) can0 00E#FD18 R
(1722448979.658219) can0 05C#FD18FD18 R
(1722448979.658343) can0 041#00 R
(1722448979.658456) can0 016#03 R
(1722448979.658581) can0 015#00 R
(1722448979.658691) can0 017#00 R
(1722448979.658818) can0 056#00 R
(1722448979.673185) can0 00E#5919 R
(1722448979.673293) can0 00E#5919 R
(1722448979.673468) can0 05C#59195919 R
(1722448979.688246) can0 015#00 R
(1722448979.688359) can0 016#04 R
(1722448979.688493) can0 00D#7E19 R
(1722448979.688613) can0 041#00 R
(1722448979.688777) can0 05B#7E19 R
(1722448979.688849) can0 014#00 R
(1722448979.688984) can0 008#00 R
(1722448979.689099) can0 016#04 R
(1722448979.689218) can0 055#00 R
(1722448979.689341) can0 05D#00 R
(1722448979.697617) can0 007#00 R
(1722448979.702854) can0 05C#131A131A R
(1722448979.702973) can0 056#00 R
(1722448979.703102) can0 00E#131A R
(1722448979.703233) can0 00E#131A R
(1722448979.717989) can0 05C#711A701A R
(1722448979.718104) can0 016#04 R
(1722448979.718236) can0 00E#711A R
(1722448979.718401) can0 05C#711A701A R
(1722448979.718520) can0 041#00 R
(1722448979.718638) can0 016#04 R
(1722448979.718757) can0 015#00 R
(1722448979.718873) can0 017#00 R
(1722448979.718993) can0 056#00 R
(1722448979.734009) can0 015#00 R
(1722448979.734122) can0 016#04 R
(1722448979.749024) can0 041#00 R
(1722448979.749156) can0 00D#FB1A R
(1722448979.749302) can0 05B#FB1A R
(1722448979.749405) can0 014#00 R
(1722448979.749521) can0 008#00 R
(1722448979.749642) can0 055#00 R
(1722448979.749810) can0 05C#341B341B R
(1722448979.749923) can0 007#00 R
(1722448979.750044) can0 05D#00 R
(1722448979.780589) can0 056#00 R
(1722448979.780783) can0 00E#FA1B R
(1722448979.780894) can0 00E#FA1B R
(1722448979.781066) can0 05C#FA1BFA1B R
(1722448979.781185) can0 041#00 R
(1722448979.781298) can0 016#04 R
(1722448979.781419) can0 015#00 R
(1722448979.781535) can0 017#00 R
(1722448979.781655) can0 056#00 R
(1722448979.795680) can0 015#00 R
(1722448979.795806) can0 00E#5B1C R
(1722448979.795974) can0 05C#5B1C5B1C R
(1722448979.796085) can0 016#04 R
(1722448979.800718) can0 007#00 R
(1722448979.811690) can0 00D#881C R
(1722448979.811882) can0 05B#881C R
(1722448979.812005) can0 014#00 R
(1722448979.812115) can0 008#00 R
(1722448979.812234) can0 016#04 R
(1722448979.812353) can0 041#00 R
(1722448979.812477) can0 055#00 R
(1722448979.812636) can0 05C#C21CC21C R
(1722448979.812779) can0 05D#00 R
(1722448979.827445) can0 056#00 R
(1722448979.841902) can0 00E#8D1D R
(1722448979.842039) can0 00E#8D1D R
(1722448979.842200) can0 05C#8D1D8D1D R
(1722448979.842322) can0 041#00 R
(1722448979.842441) can0 016#04 R
(1722448979.842559) can0 015#00 R
(1722448979.842673) can0 017#00 R
(1722448979.842795) can0 056#00 R
(1722448979.850140) can0 007#00 R
(1722448979.857834) can0 00E#F01D R
(1722448979.858005) can0 05C#F01DF01D R
(1722448979.858124) can0 016#04 R
(1722448979.873138) can0 015#00 R
(1722448979.873256) can0 016#04 R
(1722448979.873386) can0 00D#1E1E R
(1722448979.873507) can0 041#00 R
(1722448979.873640) can0 05B#1E1E R
(1722448979.873755) can0 014#00 R
(1722448979.873873) can0 008#00 R
(1722448979.873992) can0 055#00 R
(1722448979.874156) can0 05C#531E531E R
(1722448979.874273) can0 05D#00 R
(1722448979.887879) can0 056#00 R
(1722448979.903217) can0 007#00 R
(1722448979.903346) can0 00E#231F R
(1722448979.903476) can0 00E#231F R
(1722448979.903645) can0 05C#231F231F R
(1722448979.903778) can0 00E#231F R
(1722448979.903945) can0 05C#231F231F R
(1722448979.904066) can0 041#00 R
(1722448979.904183) can0 016#04 R
(1722448979.904302) can0 015#00 R
(1722448979.904419) can0 017#00 R
(1722448979.904538) can0 056#00 R
(1722448979.918732) can0 015#00 R
(1722448979.918856) can0 016#04 R
(1722448979.918970) can0 041#00 R
(1722448979.919085) can0 016#04 R
(1722448979.934626) can0 00D#BE1F R
(1722448979.934760) can0 05B#BE1F R
(1722448979.934876) can0 014#00 R
(1722448979.934993) can0 008#00 R
(1722448979.935114) can0 055#00 R
(1722448979.935282) can0 05C#F51FF51F R
(1722448979.935400) can0 05D#00 R
(1722448979.953338) can0 007#00 R
(1722448979.965348) can0 056#00 R
(1722448979.965482) can0 00E#C920 R
(1722448979.965617) can0 00E#C920 R
(1722448979.965755) can0 00E#C920 R
(1722448979.965917) can0 05C#C920C920 R
(1722448979.966039) can0 041#00 R
(1722448979.966157) can0 016#05 R
(1722448979.966277) can0 015#00 R
(1722448979.966392) can0 017#00 R
(1722448979.966514) can0 056#00 R
(1722448979.981202) can0 015#00 R
(1722448979.981362) can0 05C#37213721 R
(1722448979.981479) can0 016#05 R
(1722448979.997375) can0 00D#6821 R
(1722448979.997495) can0 05B#6821 R
(1722448979.997611) can0 014#00 R
(1722448979.997730) can0 008#00 R
(1722448979.997848) can0 016#05 R
(1722448979.997968) can0 041#00 R
(1722448979.998091) can0 055#00 R
(1722448979.998250) can0 05C#A621A621 R
(1722448979.998369) can0 05D#00 R
(1722448980.003155) can0 007#00 R
(1722448980.027500) can0 056#00 R
(1722448980.027633) can0 00E#7822 R
(1722448980.027759) can0 00E#7822 R
(1722448980.027927) can0 05C#78227822 R
(1722448980.028047) can0 041#00 R
(1722448980.028169) can0 016#05 R
(1722448980.028288) can0 015#00 R
(1722448980.028406) can0 017#00 R
(1722448980.028524) can0 056#00 R
(1722448980.043612) can0 00E#E922 R
(1722448980.043809) can0 05C#E922E922 R
(1722448980.043926) can0 016#05 R
(1722448980.053062) can0 007#00 R
(1722448980.059301) can0 00D#1A23 R
(1722448980.059432) can0 05B#1A23 R
(1722448980.059543) can0 014#00 R
(1722448980.059660) can0 008#00 R
(1722448980.059781) can0 015#00 R
(1722448980.059898) can0 016#05 R
(1722448980.060021) can0 041#00 R
(1722448980.060141) can0 055#00 R
(1722448980.060305) can0 05C#5A235A23 R
(1722448980.060422) can0 05D#00 R
(1722448980.073757) can0 056#00 R
(1722448980.089045) can0 00E#3024 R
(1722448980.089180) can0 00E#3024 R
(1722448980.089345) can0 05C#30243024 R
(1722448980.089468) can0 041#00 R
(1722448980.089587) can0 016#05 R
(1722448980.089709) can0 015#00 R
(1722448980.089828) can0 017#00 R
(1722448980.089944) can0 056#00 R
(1722448980.090084) can0 00E#3024 R
(1722448980.090246) can0 05C#30243024 R
(1722448980.090364) can0 016#05 R
(1722448980.103114) can0 007#00 R
(1722448980.105290) can0 015#00 R
(1722448980.105410) can0 016#05 R
(1722448980.105533) can0 041#00 R
(1722448980.120332) can0 00D#CF24 R
(1722448980.120464) can0 05B#CF24 R
(1722448980.120579) can0 014#00 R
(1722448980.120698) can0 008#00 R
(1722448980.120815) can0 055#00 R
(1722448980.120988) can0 05C#10251025 R
(1722448980.121110) can0 05D#00 R
(1722448980.152075) can0 056#00 R
(1722448980.152209) can0 00E#F925 R
(1722448980.152370) can0 05C#F925F925 R
(1722448980.152492) can0 041#00 R
(1722448980.152612) can0 016#05 R
(1722448980.152755) can0 015#00 R
(1722448980.152851) can0 017#00 R
(1722448980.152969) can0 056#00 R
(1722448980.154076) can0 007#00 R
(1722448980.167076) can0 015#00 R
(1722448980.167191) can0 016#06 R
(1722448980.167321) can0 00E#6726 R
(1722448980.167451) can0 00E#6726 R
(1722448980.167616) can0 05C#67266726 R
(1722448980.182131) can0 00D#9326 R
(1722448980.182260) can0 05B#9326 R
(1722448980.182376) can0 014#00 R
(1722448980.182493) can0 008#00 R
(1722448980.182616) can0 041#00 R
(1722448980.182735) can0 055#00 R
(1722448980.182898) can0 05C#D526D526 R
(1722448980.183014) can0 016#06 R
(1722448980.183132) can0 05D#00 R
(1722448980.198110) can0 056#00 R
(1722448980.204258) can0 007#00 R
(1722448980.212628) can0 00E#B427 R
(1722448980.212779) can0 00E#B427 R
(1722448980.212886) can0 00E#B427 R
(1722448980.213053) can0 05C#B427B427 R
(1722448980.213173) can0 041#00 R
(1722448980.213294) can0 016#06 R
(1722448980.213411) can0 015#00 R
(1722448980.213529) can0 017#00 R
(1722448980.213647) can0 056#00 R
(1722448980.227791) can0 015#00 R
(1722448980.227959) can0 05C#24282428 R
(1722448980.228077) can0 016#06 R
(1722448980.243339) can0 016#06 R
(1722448980.243473) can0 00D#5828 R
(1722448980.243598) can0 041#00 R
(1722448980.243728) can0 05B#5828 R
(1722448980.243850) can0 014#00 R
(1722448980.243962) can0 008#00 R
(1722448980.244087) can0 055#00 R
(1722448980.244246) can0 05C#9C289C28 R
(1722448980.244368) can0 05D#00 R
(1722448980.262074) can0 007#00 R
(1722448980.273754) can0 056#00 R
(1722448980.273883) can0 00E#8629 R
(1722448980.274015) can0 00E#8629 R
(1722448980.274176) can0 05C#86298629 R
(1722448980.274300) can0 041#00 R
(1722448980.274414) can0 016#06 R
(1722448980.274535) can0 015#00 R
(1722448980.274651) can0 017#00 R
(1722448980.274772) can0 056#00 R
(1722448980.289269) can0 00E#F829 R
(1722448980.289442) can0 05C#F829F829 R
(1722448980.289559) can0 016#06 R
(1722448980.305142) can0 00D#2E2A R
(1722448980.305259) can0 015#00 R
(1722448980.305377) can0 016#06 R
(1722448980.305496) can0 041#00 R
(1722448980.305628) can0 05B#2E2A R
(1722448980.305742) can0 014#00 R
(1722448980.305865) can0 008#00 R
(1722448980.305981) can0 055#00 R
(1722448980.306145) can0 05C#732A732A R
(1722448980.306261) can0 05D#00 R
(1722448980.310586) can0 007#00 R
(1722448980.320677) can0 056#00 R
(1722448980.320810) can0 00E#E62A R
(1722448980.336804) can0 00E#612B R
(1722448980.336959) can0 05C#612B612B R
(1722448980.337080) can0 016#06 R
(1722448980.337206) can0 00E#612B R
(1722448980.337366) can0 05C#612B612B R
(1722448980.337488) can0 041#00 R
(1722448980.337604) can0 016#06 R
(1722448980.337724) can0 015#00 R
(1722448980.337840) can0 017#00 R
(1722448980.337961) can0 056#00 R
(1722448980.353016) can0 015#00 R
(1722448980.353139) can0 016#06 R
(1722448980.353253) can0 041#00 R
(1722448980.366706) can0 007#00 R
(1722448980.367741) can0 05C#592C592C R
(1722448980.367869) can0 00D#132C R
(1722448980.368003) can0 05B#132C R
(1722448980.368117) can0 014#00 R
(1722448980.368239) can0 008#00 R
(1722448980.368355) can0 055#00 R
(1722448980.368477) can0 05D#00 R
(1722448980.399237) can0 056#00 R
(1722448980.399368) can0 00E#4C2D R
(1722448980.399534) can0 05C#4C2D4C2D R
(1722448980.399656) can0 041#00 R
(1722448980.399772) can0 016#07 R
(1722448980.399892) can0 015#00 R
(1722448980.400009) can0 017#00 R
(1722448980.400131) can0 056#00 R
(1722448980.414521) can0 015#00 R
(1722448980.414624) can0 016#07 R
(1722448980.414759) can0 00E#C22D R
(1722448980.414889) can0 00E#C22D R
(1722448980.415005) can0 007#00 R
(1722448980.415167) can0 05C#C22DC22D R
(1722448980.430466) can0 00D#F92D R
(1722448980.430597) can0 05B#F92D R
(1722448980.430713) can0 014#00 R
(1722448980.430830) can0 008#00 R
(1722448980.430955) can0 041#00 R
(1722448980.431078) can0 055#00 R
(1722448980.431241) can0 05C#402E402E R
(1722448980.431356) can0 016#07 R
(1722448980.431475) can0 05D#00 R
(1722448980.459982) can0 056#00 R
(1722448980.460118) can0 00E#2F2F R
(1722448980.460254) can0 00E#2F2F R
(1722448980.460388) can0 00E#2F2F R
(1722448980.460554) can0 05C#2F2F2F2F R
(1722448980.460679) can0 041#00 R
(1722448980.460812) can0 016#07 R
(1722448980.460911) can0 015#00 R
(1722448980.461028) can0 017#00 R
(1722448980.461152) can0 056#00 R
(1722448980.463911) can0 007#00 R
(1722448980.476110) can0 015#00 R
(1722448980.476276) can0 05C#A72FA72F R
(1722448980.476393) can0 016#07 R
(1722448980.491600) can0 016#07 R
(1722448980.491723) can0 041#00 R
(1722448980.491854) can0 00D#DF2F R
(1722448980.491989) can0 05B#DF2F R
(1722448980.492104) can0 014#00 R
(1722448980.492223) can0 008#00 R
(1722448980.492343) can0 055#00 R
(1722448980.492511) can0 05C#27302730 R
(1722448980.492628) can0 05D#00 R
(1722448980.506686) can0 056#00 R
(1722448980.506823) can0 00E#A030 R
(1722448980.514563) can0 007#00 R
(1722448980.522768) can0 00E#2231 R
(1722448980.522936) can0 05C#22312231 R
(1722448980.523054) can0 016#07 R
(1722448980.523178) can0 00E#2231 R
(1722448980.523344) can0 05C#22312231 R
(1722448980.523464) can0 041#00 R
(1722448980.523581) can0 016#07 R
(1722448980.523702) can0 015#00 R
(1722448980.523824) can0 017#00 R
(1722448980.523943) can0 056#00 R
(1722448980.538692) can0 015#00 R
(1722448980.538806) can0 016#07 R
(1722448980.538928) can0 041#00 R
(1722448980.539236) can0 05C#A431A431 R
(1722448980.553401) can0 00D#DD31 R
(1722448980.553532) can0 05B#DD31 R
(1722448980.553648) can0 014#00 R
(1722448980.553766) can0 008#00 R
(1722448980.553885) can0 055#00 R
(1722448980.554004) can0 05D#00 R
(1722448980.563743) can0 007#00 R
(1722448980.569192) can0 056#00 R
(1722448980.569325) can0 00E#A132 R
(1722448980.583910) can0 015#00 R
(1722448980.584026) can0 016#07 R
(1722448980.584149) can0 041#00 R
(1722448980.584277) can0 00E#1C33 R
(1722448980.584443) can0 05C#1C331C33 R
(1722448980.584562) can0 016#07 R
(1722448980.584689) can0 00E#1C33 R
(1722448980.584852) can0 05C#1C331C33 R
(1722448980.584974) can0 041#00 R
(1722448980.585089) can0 016#07 R
(1722448980.585210) can0 015#00 R
(1722448980.585325) can0 017#00 R
(1722448980.585448) can0 056#00 R
(1722448980.599534) can0 05C#98339833 R
(1722448980.613617) can0 007#00 R
(1722448980.614784) can0 00D#D233 R
(1722448980.614917) can0 05B#D233 R
(1722448980.615023) can0 014#00 R
(1722448980.615141) can0 008#00 R
(1722448980.615255) can0 055#00 R
(1722448980.615378) can0 05D#00 R
(1722448980.645194) can0 056#00 R
(1722448980.645328) can0 00E#1635 R
(1722448980.645488) can0 05C#16351635 R
(1722448980.645610) can0 041#00 R
(1722448980.645722) can0 016#08 R
(1722448980.645843) can0 015#00 R
(1722448980.645960) can0 017#00 R
(1722448980.646078) can0 056#00 R
(1722448980.661797) can0 015#00 R
(1722448980.661919) can0 00E#9C35 R
(1722448980.662056) can0 00E#9C35 R
(1722448980.662211) can0 05C#9C359C35 R
(1722448980.664484) can0 007#00 R
(1722448980.677645) can0 00D#D635 R
(1722448980.677772) can0 05B#D635 R
(1722448980.677894) can0 014#00 R
(1722448980.678011) can0 008#00 R
(1722448980.678120) can0 016#08 R
(1722448980.678244) can0 041#00 R
(1722448980.678362) can0 055#00 R
(1722448980.678528) can0 05C#22362236 R
(1722448980.678646) can0 05D#00 R
(1722448980.678763) can0 016#08 R
(1722448980.707798) can0 056#00 R
(1722448980.707931) can0 00E#1F37 R
(1722448980.708064) can0 00E#1F37 R
(1722448980.708200) can0 00E#1F37 R
(1722448980.708371) can0 05C#1F371F37 R
(1722448980.708491) can0 041#00 R
(1722448980.708607) can0 016#08 R
(1722448980.708725) can0 015#00 R
(1722448980.708819) can0 017#00 R
(1722448980.708963) can0 056#00 R
(1722448980.714084) can0 007#00 R
(1722448980.723961) can0 05C#A737A737 R
(1722448980.724059) can0 016#08 R
(1722448980.739098) can0 00D#E237 R
(1722448980.739221) can0 015#00 R
(1722448980.739344) can0 05B#E237 R
(1722448980.739462) can0 014#00 R
(1722448980.739578) can0 008#00 R
(1722448980.739692) can0 016#08 R
(1722448980.739815) can0 041#00 R
(1722448980.739934) can0 055#00 R
(1722448980.740098) can0 05C#2F382F38 R
(1722448980.740221) can0 05D#00 R
(1722448980.764892) can0 007#00 R
(1722448980.770348) can0 056#00 R
(1722448980.770482) can0 00E#3839 R
(1722448980.770612) can0 00E#3839 R
(1722448980.770779) can0 05C#38393839 R
(1722448980.770900) can0 041#00 R
(1722448980.771017) can0 016#08 R
(1722448980.771135) can0 015#00 R
(1722448980.771252) can0 017#00 R
(1722448980.771371) can0 056#00 R
(1722448980.785045) can0 00E#B939 R
(1722448980.785209) can0 05C#B939B939 R
(1722448980.785322) can0 016#09 R
(1722448980.800055) can0 015#00 R
(1722448980.800176) can0 016#09 R
(1722448980.800303) can0 00D#EC39 R
(1722448980.800427) can0 041#00 R
(1722448980.800554) can0 05B#EC39 R
(1722448980.800671) can0 014#00 R
(1722448980.800791) can0 008#00 R
(1722448980.800907) can0 055#00 R
(1722448980.801032) can0 05D#00 R
(1722448980.815091) can0 007#00 R
(1722448980.815307) can0 05C#BC3ABC3A R
(1722448980.829694) can0 056#00 R
(1722448980.829829) can0 00E#353B R
(1722448980.829938) can0 00E#353B R
(1722448980.830097) can0 05C#353B353B R
(1722448980.830219) can0 041#00 R
(1722448980.830336) can0 016#09 R
(1722448980.830456) can0 015#00 R
(1722448980.830570) can0 017#00 R
(1722448980.830697) can0 056#00 R
(1722448980.845704) can0 00E#C03B R
(1722448980.845874) can0 05C#C03BC03B R
(1722448980.845987) can0 016#09 R
(1722448980.860757) can0 015#00 R
(1722448980.860849) can0 016#09 R
(1722448980.860977) can0 00D#F43B R
(1722448980.861107) can0 05B#F43B R
(1722448980.861222) can0 014#00 R
(1722448980.861341) can0 008#00 R
(1722448980.861460) can0 055#00 R
(1722448980.861579) can0 05D#00 R
(1722448980.864562) can0 007#00 R
(1722448980.876590) can0 041#00 R
(1722448980.876774) can0 05C#CF3CCF3C R
(1722448980.876870) can0 056#00 R
(1722448980.892315) can0 00E#5B3D R
(1722448980.892477) can0 05C#5B3D5B3D R
(1722448980.892603) can0 041#00 R
(1722448980.892714) can0 016#09 R
(1722448980.892834) can0 015#00 R
(1722448980.892950) can0 017#00 R
(1722448980.893075) can0 056#00 R
(1722448980.907522) can0 00E#DF3D R
(1722448980.907653) can0 00E#DF3D R
(1722448980.907821) can0 05C#DF3DDF3D R
(1722448980.913964) can0 007#00 R
(1722448980.922465) can0 00D#1D3E R
(1722448980.922589) can0 015#00 R
(1722448980.922699) can0 016#09 R
(1722448980.922824) can0 016#09 R
(1722448980.922937) can0 041#00 R
(1722448980.923073) can0 05B#1D3E R
(1722448980.923187) can0 014#00 R
(1722448980.923305) can0 008#00 R
(1722448980.923426) can0 055#00 R
(1722448980.923593) can0 05C#643E643E R
(1722448980.923710) can0 05D#00 R
(1722448980.953541) can0 056#00 R
(1722448980.953672) can0 00E#763F R
(1722448980.953806) can0 00E#763F R
(1722448980.953945) can0 00E#763F R
(1722448980.954107) can0 05C#763F763F R
(1722448980.954231) can0 041#00 R
(1722448980.954344) can0 016#09 R
(1722448980.954469) can0 015#00 R
(1722448980.954581) can0 017#00 R
(1722448980.954703) can0 056#00 R
(1722448980.963666) can0 007#00 R
(1722448980.969399) can0 05C#05400540 R
(1722448980.969514) can0 016#0A R
(1722448980.985291) can0 00D#4340 R
(1722448980.985416) can0 015#00 R
(1722448980.985525) can0 016#0A R
(1722448980.985646) can0 041#00 R
(1722448980.985779) can0 05B#4340 R
(1722448980.985894) can0 014#00 R
(1722448980.986017) can0 008#00 R
(1722448980.986137) can0 055#00 R
(1722448980.986302) can0 05C#94409440 R
(1722448980.986423) can0 05D#00 R
(1722448981.014034) can0 007#00 R
(1722448981.015395) can0 056#00 R
(1722448981.015535) can0 00E#A141 R
(1722448981.015657) can0 00E#A141 R
(1722448981.015824) can0 05C#A141A141 R
(1722448981.015948) can0 041#00 R
(1722448981.016065) can0 016#0A R
(1722448981.016185) can0 015#00 R
(1722448981.016305) can0 017#00 R
(1722448981.016425) can0 056#00 R
(1722448981.031535) can0 015#00 R
(1722448981.031620) can0 016#0A R
(1722448981.031730) can0 041#00 R
(1722448981.031855) can0 00E#3142 R
(1722448981.032018) can0 05C#31423142 R
(1722448981.032131) can0 016#0A R
(1722448981.046461) can0 00D#6742 R
(1722448981.046589) can0 05B#6742 R
(1722448981.046704) can0 014#00 R
(1722448981.046868) can0 05C#B842B842 R
(1722448981.046987) can0 008#00 R
(1722448981.047107) can0 055#00 R
(1722448981.047224) can0 05D#00 R
(1722448981.063970) can0 007#00 R
(1722448981.076204) can0 056#00 R
(1722448981.076330) can0 00E#C843 R
(1722448981.076460) can0 00E#C843 R
(1722448981.076622) can0 05C#C843C843 R
(1722448981.076757) can0 041#00 R
(1722448981.076861) can0 016#0A R
(1722448981.076980) can0 015#00 R
(1722448981.077094) can0 017#00 R
(1722448981.077215) can0 056#00 R
(1722448981.091914) can0 015#00 R
(1722448981.092029) can0 016#0A R
(1722448981.092167) can0 00E#5044 R
(1722448981.092336) can0 05C#50445044 R
(1722448981.092451) can0 016#0A R
(1722448981.092572) can0 041#00 R
(1722448981.092751) can0 05C#50445044 R
(1722448981.107342) can0 00D#9044 R
(1722448981.107476) can0 05B#9044 R
(1722448981.107590) can0 014#00 R
(1722448981.107710) can0 008#00 R
(1722448981.107828) can0 055#00 R
(1722448981.107948) can0 05D#00 R
(1722448981.114808) can0 007#00 R
(1722448981.137784) can0 056#00 R
(1722448981.137967) can0 00E#F545 R
(1722448981.138132) can0 05C#F545F545 R
(1722448981.138252) can0 041#00 R
(1722448981.138369) can0 016#0A R
(1722448981.138488) can0 015#00 R
(1722448981.138605) can0 017#00 R
(1722448981.138725) can0 056#00 R
(1722448981.138857) can0 00E#FE45 R
(1722448981.138989) can0 00E#FE45 R
(1722448981.139157) can0 05C#FE45FE45 R
(1722448981.152847) can0 015#00 R
(1722448981.152959) can0 016#0B R
(1722448981.153079) can0 041#00 R
(1722448981.153245) can0 05C#88468846 R
(1722448981.153358) can0 016#0B R
(1722448981.165136) can0 007#00 R
(1722448981.168510) can0 00D#BF46 R
(1722448981.168639) can0 05B#BF46 R
(1722448981.168776) can0 014#00 R
(1722448981.168877) can0 008#00 R
(1722448981.168996) can0 055#00 R
(1722448981.169112) can0 05D#00 R
(1722448981.198650) can0 056#00 R
(1722448981.198777) can0 00E#2748 R
(1722448981.198912) can0 00E#2748 R
(1722448981.199041) can0 00E#2748 R
(1722448981.199206) can0 05C#27482748 R
(1722448981.199329) can0 041#00 R
(1722448981.199440) can0 016#0B R
(1722448981.199562) can0 015#00 R
(1722448981.199683) can0 017#00 R
(1722448981.199798) can0 056#00 R
(1722448981.214247) can0 015#00 R
(1722448981.214359) can0 016#0B R
(1722448981.214480) can0 041#00 R
(1722448981.214642) can0 05C#BC48BC48 R
(1722448981.214754) can0 016#0B R
(1722448981.215158) can0 007#00 R
(1722448981.229433) can0 05C#47494749 R
(1722448981.229558) can0 00D#FD48 R
(1722448981.229708) can0 05B#FD48 R
(1722448981.229831) can0 014#00 R
(1722448981.229926) can0 008#00 R
(1722448981.230052) can0 055#00 R
(1722448981.230166) can0 05D#00 R
(1722448981.260693) can0 056#00 R
(1722448981.260848) can0 00E#724A R
(1722448981.260982) can0 00E#724A R
(1722448981.261152) can0 05C#724A724A R
(1722448981.261266) can0 041#00 R
(1722448981.261382) can0 016#0B R
(1722448981.261501) can0 015#00 R
(1722448981.261616) can0 017#00 R
(1722448981.261739) can0 056#00 R
(1722448981.265022) can0 007#00 R
(1722448981.276502) can0 015#00 R
(1722448981.276612) can0 016#0B R
(1722448981.276758) can0 00E#FE4A R
(1722448981.276924) can0 05C#FE4AFE4A R
(1722448981.277030) can0 016#0B R
(1722448981.291835) can0 041#00 R
(1722448981.291966) can0 00D#404B R
(1722448981.292104) can0 05B#404B R
(1722448981.292212) can0 014#00 R
(1722448981.292332) can0 008#00 R
(1722448981.292453) can0 055#00 R
(1722448981.292614) can0 05C#944B944B R
(1722448981.292765) can0 05D#00 R
(1722448981.315491) can0 007#00 R
(1722448981.322691) can0 056#00 R
(1722448981.322820) can0 00E#AE4C R
(1722448981.322951) can0 00E#AE4C R
(1722448981.323117) can0 05C#AE4CAE4C R
(1722448981.323235) can0 041#00 R
(1722448981.323350) can0 016#0B R
(1722448981.323471) can0 015#00 R
(1722448981.323587) can0 017#00 R
(1722448981.323707) can0 056#00 R
(1722448981.337930) can0 015#00 R
(1722448981.338055) can0 00E#464D R
(1722448981.338221) can0 05C#464D454D R
(1722448981.338332) can0 016#0C R
(1722448981.353407) can0 016#0C R
(1722448981.353521) can0 041#00 R
(1722448981.353690) can0 05C#D34DD34D R
(1722448981.354086) can0 00D#7E4D R
(1722448981.354217) can0 05B#7E4D R
(1722448981.354331) can0 014#00 R
(1722448981.354451) can0 008#00 R
(1722448981.354569) can0 055#00 R
(1722448981.354688) can0 05D#00 R
(1722448981.365398) can0 007#00 R
(1722448981.383553) can0 056#00 R
(1722448981.383684) can0 00E#F04E R
(1722448981.383851) can0 05C#F04EF04E R
(1722448981.383968) can0 041#00 R
(1722448981.384083) can0 016#0C R
(1722448981.384203) can0 015#00 R
(1722448981.384319) can0 017#00 R
(1722448981.384439) can0 056#00 R
(1722448981.399635) can0 00E#884F R
(1722448981.399763) can0 00E#884F R
(1722448981.399933) can0 05C#884F884F R
(1722448981.414138) can0 015#00 R
(1722448981.414269) can0 00D#C24F R
(1722448981.414382) can0 016#0C R
(1722448981.414515) can0 05B#C24F R
(1722448981.414630) can0 014#00 R
(1722448981.414747) can0 008#00 R
(1722448981.414864) can0 007#00 R
(1722448981.414986) can0 041#00 R
(1722448981.415100) can0 016#0C R
(1722448981.415220) can0 055#00 R
(1722448981.415339) can0 05D#00 R
(1722448981.430041) can0 05C#A750A750 R
(1722448981.445305) can0 056#00 R
(1722448981.445434) can0 00E#4051 R
(1722448981.445579) can0 00E#4051 R
(1722448981.445702) can0 00E#4051 R
(1722448981.445874) can0 05C#40514051 R
(1722448981.445992) can0 041#00 R
(1722448981.446108) can0 016#0C R
(1722448981.446227) can0 015#00 R
(1722448981.446343) can0 017#00 R
(1722448981.446463) can0 056#00 R
(1722448981.461309) can0 05C#D951D951 R
(1722448981.461424) can0 016#0C R
(1722448981.464929) can0 007#00 R
(1722448981.476178) can0 00D#1352 R
(1722448981.476289) can0 05B#1352 R
(1722448981.476412) can0 014#00 R
(1722448981.476523) can0 008#00 R
(1722448981.476648) can0 015#00 R
(1722448981.476784) can0 055#00 R
(1722448981.476880) can0 016#0C R
(1722448981.476995) can0 05D#00 R
(1722448981.491053) can0 041#00 R
(1722448981.491221) can0 05C#FA52FA52 R
(1722448981.491335) can0 056#00 R
(1722448981.491469) can0 00E#FA52 R
(1722448981.507082) can0 00E#8B53 R
(1722448981.507248) can0 05C#8B538B53 R
(1722448981.507359) can0 016#0D R
(1722448981.507496) can0 00E#8B53 R
(1722448981.507670) can0 05C#8B538B53 R
(1722448981.507784) can0 041#00 R
(1722448981.507903) can0 016#0D R
(1722448981.508019) can0 015#00 R
(1722448981.508134) can0 017#00 R
(1722448981.508257) can0 056#00 R
(1722448981.514665) can0 007#00 R
(1722448981.522544) can0 015#00 R
(1722448981.538575) can0 00D#6954 R
(1722448981.538666) can0 016#0D R
(1722448981.538778) can0 041#00 R
(1722448981.538906) can0 05B#6954 R
(1722448981.539024) can0 014#00 R
(1722448981.539135) can0 008#00 R
(1722448981.539256) can0 055#00 R
(1722448981.539423) can0 05C#C054C054 R
(1722448981.539545) can0 05D#00 R
(1722448981.564793) can0 007#00 R
(1722448981.568931) can0 056#00 R
(1722448981.569063) can0 00E#ED55 R
(1722448981.569191) can0 00E#ED55 R
(1722448981.569355) can0 05C#ED55ED55 R
(1722448981.569473) can0 041#00 R
(1722448981.569589) can0 016#0D R
(1722448981.569708) can0 015#00 R
(1722448981.569825) can0 017#00 R
(1722448981.569944) can0 056#00 R
(1722448981.584473) can0 00E#7F56 R
(1722448981.584624) can0 05C#7F567F56 R
(1722448981.584763) can0 016#0D R
(1722448981.600245) can0 00D#C356 R
(1722448981.600371) can0 05B#C356 R
(1722448981.600488) can0 014#00 R
(1722448981.600605) can0 008#00 R
(1722448981.600726) can0 015#00 R
(1722448981.600834) can0 016#0D R
(1722448981.600964) can0 041#00 R
(1722448981.601081) can0 055#00 R
(1722448981.601249) can0 05C#1B571B57 R
(1722448981.601364) can0 05D#00 R
(1722448981.615514) can0 007#00 R
(1722448981.631791) can0 056#00 R
(1722448981.631926) can0 00E#5458 R
(1722448981.632085) can0 05C#54585458 R
(1722448981.632204) can0 041#00 R
(1722448981.632319) can0 016#0D R
(1722448981.632439) can0 015#00 R
(1722448981.632555) can0 017#00 R
(1722448981.632676) can0 056#00 R
(1722448981.632819) can0 015#00 R
(1722448981.632919) can0 016#0D R
(1722448981.633030) can0 041#00 R
(1722448981.633169) can0 00E#5458 R
(1722448981.633292) can0 00E#5458 R
(1722448981.633456) can0 05C#54585458 R
(1722448981.647017) can0 05C#DD58DD58 R
(1722448981.647128) can0 016#0D R
(1722448981.662244) can0 00D#2159 R
(1722448981.662372) can0 05B#2159 R
(1722448981.662485) can0 014#00 R
(1722448981.662603) can0 008#00 R
(1722448981.662723) can0 055#00 R
(1722448981.662841) can0 05D#00 R
(1722448981.664997) can0 007#00 R
(1722448981.677060) can0 056#00 R
(1722448981.677190) can0 00E#0D5A R
(1722448981.677321) can0 00E#0D5A R
(1722448981.692518) can0 015#00 R
(1722448981.692668) can0 05C#A15AA15A R
(1722448981.692804) can0 016#0E R
(1722448981.692913) can0 00E#A15A R
(1722448981.693073) can0 05C#A15AA15A R
(1722448981.693194) can0 041#00 R
(1722448981.693308) can0 016#0E R
(1722448981.693426) can0 015#00 R
(1722448981.693544) can0 017#00 R
(1722448981.693670) can0 056#00 R
(1722448981.707682) can0 016#0E R
(1722448981.707800) can0 041#00 R
(1722448981.707970) can0 05C#345B345B R
(1722448981.714702) can0 007#00 R
(1722448981.721887) can0 00D#705B R
(1722448981.722017) can0 05B#705B R
(1722448981.722133) can0 014#00 R
(1722448981.722251) can0 008#00 R
(1722448981.722373) can0 055#00 R
(1722448981.722492) can0 05D#00 R
(1722448981.752972) can0 056#00 R
(1722448981.753102) can0 00E#F15C R
(1722448981.753232) can0 00E#F15C R
(1722448981.753405) can0 05C#F15CF15C R
(1722448981.753517) can0 041#00 R
(1722448981.753634) can0 016#0E R
(1722448981.753756) can0 015#00 R
(1722448981.753872) can0 017#00 R
(1722448981.753992) can0 056#00 R
(1722448981.768022) can0 00E#905D R
(1722448981.768192) can0 05C#905D905D R
(1722448981.768304) can0 016#0E R
(1722448981.768424) can0 015#00 R
(1722448981.768542) can0 016#0E R
(1722448981.768663) can0 041#00 R
(1722448981.770049) can0 007#00 R
(1722448981.783049) can0 05C#245E245E R
(1722448981.783265) can0 00D#CB5D R
(1722448981.783394) can0 05B#CB5D R
(1722448981.783508) can0 014#00 R
(1722448981.783628) can0 008#00 R
(1722448981.783746) can0 055#00 R
(1722448981.783865) can0 05D#00 R
(1722448981.798047) can0 056#00 R
(1722448981.813257) can0 00E#4F5F R
(1722448981.813395) can0 00E#4F5F R
(1722448981.813561) can0 05C#4F5F4F5F R
(1722448981.813692) can0 041#00 R
(1722448981.813817) can0 016#0E R
(1722448981.813911) can0 015#00 R
(1722448981.814035) can0 017#00 R
(1722448981.814150) can0 056#00 R
(1722448981.819503) can0 007#00 R
(1722448981.828354) can0 015#00 R
(1722448981.828518) can0 016#0E R
(1722448981.828660) can0 00E#E45F R
(1722448981.828823) can0 05C#E45FE45F R
(1722448981.828937) can0 016#0E R
(1722448981.843839) can0 00D#2060 R
(1722448981.843972) can0 05B#2060 R
(1722448981.844087) can0 014#00 R
(1722448981.844206) can0 008#00 R
(1722448981.844327) can0 041#00 R
(1722448981.844448) can0 055#00 R
(1722448981.844616) can0 05C#7A607A60 R
(1722448981.844754) can0 05D#00 R
(1722448981.874978) can0 056#00 R
(1722448981.875106) can0 00E#B961 R
(1722448981.875269) can0 05C#B961B961 R
(1722448981.875394) can0 041#00 R
(1722448981.875504) can0 007#00 R
(1722448981.875620) can0 016#0F R
(1722448981.875741) can0 015#00 R
(1722448981.875857) can0 017#00 R
(1722448981.875976) can0 056#00 R
(1722448981.890182) can0 015#00 R
(1722448981.890312) can0 00E#4F62 R
(1722448981.890440) can0 00E#4F62 R
(1722448981.890609) can0 05C#4F624F62 R
(1722448981.905983) can0 016#0F R
(1722448981.906109) can0 00D#9562 R
(1722448981.906233) can0 041#00 R
(1722448981.906364) can0 05B#9562 R
(1722448981.906479) can0 014#00 R
(1722448981.906597) can0 008#00 R
(1722448981.906719) can0 055#00 R
(1722448981.906883) can0 05C#F062F062 R
(1722448981.907000) can0 016#0F R
(1722448981.907118) can0 05D#00 R
(1722448981.921223) can0 056#00 R
(1722448981.925024) can0 007#00 R
(1722448981.937433) can0 00E#2764 R
(1722448981.937559) can0 00E#2764 R
(1722448981.937696) can0 00E#2764 R
(1722448981.937860) can0 05C#27642764 R
(1722448981.937971) can0 041#00 R
(1722448981.938090) can0 016#0F R
(1722448981.938209) can0 015#00 R
(1722448981.938326) can0 017#00 R
(1722448981.938445) can0 056#00 R
(1722448981.952762) can0 05C#BE64BE64 R
(1722448981.952829) can0 016#0F R
(1722448981.968493) can0 00D#0465 R
(1722448981.968623) can0 05B#0465 R
(1722448981.968753) can0 015#00 R
(1722448981.968859) can0 016#0F R
(1722448981.968984) can0 041#00 R
(1722448981.969460) can0 05C#5F655F65 R
(1722448981.969572) can0 014#00 R
(1722448981.969691) can0 008#00 R
(1722448981.969812) can0 055#00 R
(1722448981.969929) can0 05D#00 R
(1722448981.975533) can0 007#00 R
(1722448981.998536) can0 056#00 R
(1722448981.998667) can0 00E#8D66 R
(1722448981.998800) can0 00E#8D66 R
(1722448981.998957) can0 05C#8D668D66 R
(1722448981.999083) can0 041#00 R
(1722448981.999194) can0 016#10 R
(1722448981.999316) can0 015#00 R
(1722448981.999431) can0 017#00 R
(1722448981.999561) can0 056#00 R
(1722448982.014062) can0 015#00 R
(1722448982.014172) can0 016#10 R
(1722448982.014306) can0 00E#2E67 R
(1722448982.014472) can0 05C#2E672E67 R
(1722448982.014583) can0 016#10 R
(1722448982.025591) can0 007#00 R
(1722448982.029932) can0 00D#7567 R
(1722448982.030061) can0 05B#7567 R
(1722448982.030175) can0 014#00 R
(1722448982.030294) can0 008#00 R
(1722448982.030416) can0 041#00 R
(1722448982.030538) can0 055#00 R
(1722448982.030702) can0 05C#C667C667 R
(1722448982.030817) can0 05D#00 R
(1722448982.044709) can0 056#00 R
(1722448982.059913) can0 00E#F668 R
(1722448982.060035) can0 00E#F668 R
(1722448982.060200) can0 05C#F668F568 R
(1722448982.060322) can0 041#00 R
(1722448982.060433) can0 016#10 R
(1722448982.060555) can0 015#00 R
(1722448982.060670) can0 017#00 R
(1722448982.060807) can0 056#00 R
(1722448982.075221) can0 007#00 R
(1722448982.075392) can0 015#00 R
(1722448982.075522) can0 00E#9869 R
(1722448982.075686) can0 05C#98699869 R
(1722448982.075797) can0 016#10 R
(1722448982.090489) can0 016#10 R
(1722448982.090621) can0 00D#DF69 R
(1722448982.090742) can0 041#00 R
(1722448982.090882) can0 05B#DF69 R
(1722448982.090988) can0 014#00 R
(1722448982.091111) can0 008#00 R
(1722448982.091228) can0 055#00 R
(1722448982.091409) can0 05C#306A306A R
(1722448982.091514) can0 05D#00 R
(1722448982.122151) can0 056#00 R
(1722448982.122262) can0 00E#756B R
(1722448982.122433) can0 05C#756B756B R
(1722448982.122551) can0 041#00 R
(1722448982.122667) can0 016#10 R
(1722448982.122789) can0 015#00 R
(1722448982.122908) can0 017#00 R
(1722448982.123023) can0 056#00 R
(1722448982.124712) can0 007#00 R
(1722448982.137249) can0 00E#0D6C R
(1722448982.137384) can0 00E#0D6C R
(1722448982.137549) can0 05C#0D6C0D6C R
(1722448982.152136) can0 015#00 R
(1722448982.152245) can0 016#10 R
(1722448982.152374) can0 00D#4A6C R
(1722448982.152494) can0 041#00 R
(1722448982.152632) can0 05B#4A6C R
(1722448982.152757) can0 014#00 R
(1722448982.152860) can0 008#00 R
(1722448982.152981) can0 055#00 R
(1722448982.153146) can0 05C#A66CA66C R
(1722448982.153255) can0 016#10 R
(1722448982.153380) can0 05D#00 R
(1722448982.174690) can0 007#00 R
(1722448982.181788) can0 056#00 R
(1722448982.181913) can0 00E#D76D R
(1722448982.182044) can0 00E#D76D R
(1722448982.182177) can0 00E#D76D R
(1722448982.182340) can0 05C#D76DD76D R
(1722448982.182459) can0 041#00 R
(1722448982.182573) can0 016#11 R
(1722448982.182693) can0 015#00 R
(1722448982.182809) can0 017#00 R
(1722448982.182930) can0 056#00 R
(1722448982.196985) can0 05C#706E706E R
(1722448982.197096) can0 016#11 R
(1722448982.212556) can0 015#00 R
(1722448982.212670) can0 016#11 R
(1722448982.212811) can0 041#00 R
(1722448982.212998) can0 00D#B76E R
(1722448982.213122) can0 05B#B76E R
(1722448982.213237) can0 014#00 R
(1722448982.213358) can0 008#00 R
(1722448982.213475) can0 055#00 R
(1722448982.213593) can0 05D#00 R
(1722448982.228858) can0 05C#B76FB76F R
(1722448982.234029) can0 007#00 R
(1722448982.244291) can0 056#00 R
(1722448982.244423) can0 00E#5070 R
(1722448982.244565) can0 00E#5070 R
(1722448982.244726) can0 05C#50705070 R
(1722448982.244839) can0 041#00 R
(1722448982.244961) can0 016#11 R
(1722448982.245079) can0 015#00 R
(1722448982.245197) can0 017#00 R
(1722448982.245316) can0 056#00 R
(1722448982.259570) can0 00E#F370 R
(1722448982.259739) can0 05C#F370F370 R
(1722448982.259843) can0 016#11 R
(1722448982.275203) can0 00D#3171 R
(1722448982.275317) can0 015#00 R
(1722448982.275433) can0 016#11 R
(1722448982.275564) can0 05B#3171 R
(1722448982.275678) can0 014#00 R
(1722448982.275797) can0 008#00 R
(1722448982.275917) can0 055#00 R
(1722448982.276037) can0 05D#00 R
(1722448982.284435) can0 007#00 R
(1722448982.290690) can0 041#00 R
(1722448982.290855) can0 05C#26722672 R
(1722448982.306436) can0 056#00 R
(1722448982.306566) can0 00E#CA72 R
(1722448982.306694) can0 00E#CA72 R
(1722448982.306859) can0 05C#CA72CA72 R
(1722448982.306978) can0 041#00 R
(1722448982.307092) can0 016#11 R
(1722448982.307212) can0 015#00 R
(1722448982.307329) can0 017#00 R
(1722448982.307448) can0 056#00 R
(1722448982.321804) can0 00E#6E73 R
(1722448982.321967) can0 05C#6E736E73 R
(1722448982.322076) can0 016#12 R
(1722448982.334144) can0 007#00 R
(1722448982.337118) can0 00D#AB73 R
(1722448982.337235) can0 015#00 R
(1722448982.337369) can0 05B#AB73 R
(1722448982.337483) can0 014#00 R
(1722448982.337601) can0 008#00 R
(1722448982.337721) can0 055#00 R
(1722448982.337841) can0 05D#00 R
(1722448982.353427) can0 016#12 R
(1722448982.353546) can0 041#00 R
(1722448982.353717) can0 05C#AB74AB74 R
(1722448982.353834) can0 056#00 R
(1722448982.368206) can0 00E#4575 R
(1722448982.368373) can0 05C#45754575 R
(1722448982.368489) can0 041#00 R
(1722448982.368602) can0 016#12 R
(1722448982.368723) can0 015#00 R
(1722448982.368848) can0 017#00 R
(1722448982.368960) can0 056#00 R
(1722448982.384405) can0 007#00 R
(1722448982.384585) can0 00E#EA75 R
(1722448982.384713) can0 00E#EA75 R
(1722448982.384876) can0 05C#E975E975 R
(1722448982.400367) can0 016#12 R
(1722448982.400578) can0 00D#3C76 R
(1722448982.400715) can0 05B#3C76 R
(1722448982.400806) can0 014#00 R
(1722448982.401153) can0 008#00 R
(1722448982.401267) can0 055#00 R
(1722448982.401392) can0 05D#00 R
(1722448982.415558) can0 015#00 R
(1722448982.415669) can0 016#12 R
(1722448982.415792) can0 041#00 R
(1722448982.415953) can0 05C#28772877 R
(1722448982.416076) can0 056#00 R
(1722448982.416207) can0 00E#2877 R
(1722448982.416342) can0 00E#2877 R
(1722448982.430881) can0 05C#CC77CC77 R
(1722448982.430993) can0 016#12 R
(1722448982.431131) can0 00E#CC77 R
(1722448982.431286) can0 05C#CC77CC77 R
(1722448982.431409) can0 041#00 R
