(1722446935.162713) can0 007#00 R
(1722446935.163947) can0 05C#DC25DC25 R
(1722446935.164067) can0 016#05 R
(1722446935.178866) can0 00D#B025 R
(1722446935.178981) can0 015#00 R
(1722446935.179101) can0 016#05 R
(1722446935.179221) can0 041#00 R
(1722446935.179354) can0 05B#B025 R
(1722446935.179468) can0 014#00 R
(1722446935.179588) can0 008#00 R
(1722446935.179706) can0 055#00 R
(1722446935.179869) can0 05C#6F256F25 R
(1722446935.179987) can0 05D#00 R
(1722446935.194504) can0 00E#0225 R
(1722446935.194675) can0 05C#02250225 R
(1722446935.194795) can0 041#00 R
(1722446935.194914) can0 016#05 R
(1722446935.195032) can0 015#00 R
(1722446935.195150) can0 017#00 R
(1722446935.195269) can0 056#00 R
(1722446935.209572) can0 056#00 R
(1722446935.209703) can0 00E#9524 R
(1722446935.209835) can0 00E#9524 R
(1722446935.209999) can0 05C#95249524 R
(1722446935.210118) can0 016#05 R
(1722446935.212717) can0 007#00 R
(1722446935.225045) can0 015#00 R
(1722446935.225164) can0 016#05 R
(1722446935.225285) can0 041#00 R
(1722446935.240631) can0 00D#F723 R
(1722446935.240763) can0 05B#F723 R
(1722446935.240878) can0 014#00 R
(1722446935.240994) can0 008#00 R
(1722446935.241116) can0 055#00 R
(1722446935.241276) can0 05C#B723B723 R
(1722446935.241396) can0 05D#00 R
(1722446935.255702) can0 056#00 R
(1722446935.255833) can0 00E#4C23 R
(1722446935.255996) can0 05C#4C234C23 R
(1722446935.256119) can0 041#00 R
(1722446935.256237) can0 016#05 R
(1722446935.256357) can0 015#00 R
(1722446935.256474) can0 017#00 R
(1722446935.256593) can0 056#00 R
(1722446935.263457) can0 007#00 R
(1722446935.271759) can0 00E#DB22 R
(1722446935.271961) can0 015#00 R
(1722446935.272080) can0 016#05 R
(1722446935.272209) can0 00E#D422 R
(1722446935.272373) can0 05C#D422D422 R
(1722446935.272491) can0 016#05 R
(1722446935.287662) can0 041#00 R
(1722446935.287825) can0 05C#6A226A22 R
(1722446935.302514) can0 00D#3922 R
(1722446935.302749) can0 05B#3922 R
(1722446935.302864) can0 014#00 R
(1722446935.302984) can0 008#00 R
(1722446935.303102) can0 055#00 R
(1722446935.303222) can0 05D#00 R
(1722446935.313032) can0 007#00 R
(1722446935.318698) can0 00E#9221 R
(1722446935.318858) can0 05C#92219221 R
(1722446935.318981) can0 041#00 R
(1722446935.319098) can0 016#05 R
(1722446935.319219) can0 015#00 R
(1722446935.319334) can0 017#00 R
(1722446935.319458) can0 056#00 R
(1722446935.333849) can0 056#00 R
(1722446935.349156) can0 00E#BC20 R
(1722446935.349289) can0 00E#BC20 R
(1722446935.349457) can0 05C#BC20BC20 R
(1722446935.349578) can0 015#00 R
(1722446935.349694) can0 016#05 R
(1722446935.349816) can0 041#00 R
(1722446935.349985) can0 05C#BC20BC20 R
(1722446935.350105) can0 016#05 R
(1722446935.363695) can0 007#00 R
(1722446935.364700) can0 00D#8B20 R
(1722446935.364886) can0 05B#8B20 R
(1722446935.365003) can0 014#00 R
(1722446935.365120) can0 008#00 R
(1722446935.365240) can0 055#00 R
(1722446935.365359) can0 05D#00 R
(1722446935.380559) can0 00E#E81F R
(1722446935.380745) can0 05C#E81FE81F R
(1722446935.380854) can0 041#00 R
(1722446935.380970) can0 016#04 R
(1722446935.381091) can0 015#00 R
(1722446935.381206) can0 017#00 R
(1722446935.381326) can0 056#00 R
(1722446935.394706) can0 056#00 R
(1722446935.394840) can0 00E#891F R
(1722446935.394970) can0 00E#891F R
(1722446935.409983) can0 015#00 R
(1722446935.410098) can0 016#04 R
(1722446935.410218) can0 041#00 R
(1722446935.410388) can0 05C#1D1F1D1F R
(1722446935.410504) can0 016#04 R
(1722446935.413708) can0 007#00 R
(1722446935.425225) can0 00D#F41E R
(1722446935.425358) can0 05B#F41E R
(1722446935.425476) can0 014#00 R
(1722446935.425592) can0 008#00 R
(1722446935.425713) can0 055#00 R
(1722446935.425830) can0 05D#00 R
(1722446935.426475) can0 05C#B81EB81E R
(1722446935.440127) can0 00E#541E R
(1722446935.440296) can0 05C#541E541E R
(1722446935.440418) can0 041#00 R
(1722446935.440534) can0 016#04 R
(1722446935.440654) can0 015#00 R
(1722446935.440771) can0 017#00 R
(1722446935.440891) can0 056#00 R
(1722446935.455748) can0 056#00 R
(1722446935.455880) can0 00E#F01D R
(1722446935.470759) can0 015#00 R
(1722446935.470873) can0 016#04 R
(1722446935.471006) can0 00E#871D R
(1722446935.471165) can0 05C#871D871D R
(1722446935.471281) can0 016#04 R
(1722446935.471864) can0 007#00 R
(1722446935.485977) can0 00D#5F1D R
(1722446935.486097) can0 041#00 R
(1722446935.486229) can0 05B#5F1D R
(1722446935.486346) can0 014#00 R
(1722446935.486465) can0 008#00 R
(1722446935.486583) can0 055#00 R
(1722446935.486751) can0 05C#241D241D R
(1722446935.486869) can0 05D#00 R
(1722446935.501110) can0 056#00 R
(1722446935.501242) can0 00E#C31C R
(1722446935.501404) can0 05C#C31CC31C R
(1722446935.501525) can0 041#00 R
(1722446935.501642) can0 016#04 R
(1722446935.501761) can0 015#00 R
(1722446935.501879) can0 017#00 R
(1722446935.501997) can0 056#00 R
(1722446935.516471) can0 00E#611C R
(1722446935.522523) can0 007#00 R
(1722446935.532510) can0 015#00 R
(1722446935.532610) can0 00E#FA1B R
(1722446935.532775) can0 05C#FA1BFA1B R
(1722446935.532889) can0 016#04 R
(1722446935.533005) can0 016#04 R
(1722446935.533127) can0 041#00 R
(1722446935.533295) can0 05C#FA1BFA1B R
(1722446935.547632) can0 00D#CD1B R
(1722446935.547757) can0 05B#CD1B R
(1722446935.547872) can0 014#00 R
(1722446935.547990) can0 008#00 R
(1722446935.548109) can0 055#00 R
(1722446935.548227) can0 05D#00 R
(1722446935.563315) can0 00E#341B R
(1722446935.563538) can0 05C#341B341B R
(1722446935.563657) can0 041#00 R
(1722446935.563774) can0 016#04 R
(1722446935.563893) can0 015#00 R
(1722446935.564010) can0 017#00 R
(1722446935.564129) can0 056#00 R
(1722446935.572597) can0 007#00 R
(1722446935.578796) can0 056#00 R
(1722446935.594468) can0 00E#711A R
(1722446935.594596) can0 00E#711A R
(1722446935.594759) can0 05C#711A711A R
(1722446935.609742) can0 015#00 R
(1722446935.609900) can0 00D#451A R
(1722446935.610015) can0 016#04 R
(1722446935.610137) can0 041#00 R
(1722446935.610253) can0 016#04 R
(1722446935.610385) can0 05B#451A R
(1722446935.610501) can0 014#00 R
(1722446935.610619) can0 008#00 R
(1722446935.610739) can0 055#00 R
(1722446935.610857) can0 05D#00 R
(1722446935.622274) can0 007#00 R
(1722446935.625611) can0 05C#B019B019 R
(1722446935.625741) can0 056#00 R
(1722446935.625877) can0 00E#B019 R
(1722446935.626043) can0 05C#B019B019 R
(1722446935.626167) can0 041#00 R
(1722446935.626283) can0 016#04 R
(1722446935.626404) can0 015#00 R
(1722446935.626519) can0 017#00 R
(1722446935.626639) can0 056#00 R
(1722446935.640647) can0 00E#5319 R
(1722446935.640782) can0 00E#5319 R
(1722446935.640942) can0 05C#53195319 R
(1722446935.641059) can0 016#03 R
(1722446935.656259) can0 015#00 R
(1722446935.656374) can0 016#03 R
(1722446935.671321) can0 00D#CD18 R
(1722446935.671451) can0 05B#CD18 R
(1722446935.671569) can0 014#00 R
(1722446935.671685) can0 008#00 R
(1722446935.671807) can0 041#00 R
(1722446935.671927) can0 055#00 R
(1722446935.672093) can0 05C#96189618 R
(1722446935.672212) can0 05D#00 R
(1722446935.672335) can0 007#00 R
(1722446935.686729) can0 00E#3518 R
(1722446935.686894) can0 05C#35183518 R
(1722446935.687016) can0 041#00 R
(1722446935.687131) can0 016#03 R
(1722446935.687252) can0 015#00 R
(1722446935.687367) can0 017#00 R
(1722446935.687488) can0 056#00 R
(1722446935.702071) can0 056#00 R
(1722446935.702205) can0 00E#E117 R
(1722446935.717629) can0 015#00 R
(1722446935.717761) can0 00E#8217 R
(1722446935.717928) can0 05C#82178217 R
(1722446935.718043) can0 016#03 R
(1722446935.722830) can0 007#00 R
(1722446935.732702) can0 016#03 R
(1722446935.732835) can0 00D#5817 R
(1722446935.732957) can0 041#00 R
(1722446935.733088) can0 05B#5817 R
(1722446935.733216) can0 014#00 R
(1722446935.733323) can0 008#00 R
(1722446935.733443) can0 055#00 R
(1722446935.733605) can0 05C#23172317 R
(1722446935.733723) can0 05D#00 R
(1722446935.748857) can0 056#00 R
(1722446935.748986) can0 00E#CB16 R
(1722446935.749152) can0 05C#CB16CB16 R
(1722446935.749274) can0 041#00 R
(1722446935.749389) can0 016#03 R
(1722446935.749509) can0 015#00 R
(1722446935.749625) can0 017#00 R
(1722446935.749745) can0 056#00 R
(1722446935.764374) can0 00E#7316 R
(1722446935.776471) can0 007#00 R
(1722446935.778749) can0 00E#1616 R
(1722446935.778912) can0 05C#16161616 R
(1722446935.779028) can0 016#03 R
(1722446935.793500) can0 015#00 R
(1722446935.793632) can0 00D#F415 R
(1722446935.793749) can0 016#03 R
(1722446935.793870) can0 041#00 R
(1722446935.794003) can0 05B#F415 R
(1722446935.794118) can0 014#00 R
(1722446935.794237) can0 008#00 R
(1722446935.794356) can0 055#00 R
(1722446935.794522) can0 05C#C615C615 R
(1722446935.794638) can0 05D#00 R
(1722446935.808851) can0 00E#6A15 R
(1722446935.809012) can0 05C#6A156A15 R
(1722446935.809134) can0 041#00 R
(1722446935.809250) can0 016#03 R
(1722446935.809371) can0 015#00 R
(1722446935.809487) can0 017#00 R
(1722446935.809607) can0 056#00 R
(1722446935.824245) can0 056#00 R
(1722446935.824377) can0 00E#1515 R
(1722446935.824507) can0 00E#1515 R
(1722446935.824671) can0 05C#15151515 R
(1722446935.827863) can0 007#00 R
(1722446935.839789) can0 015#00 R
(1722446935.839905) can0 016#03 R
(1722446935.840026) can0 041#00 R
(1722446935.840143) can0 016#03 R
(1722446935.856496) can0 05C#61146114 R
(1722446935.856627) can0 00D#9314 R
(1722446935.856760) can0 05B#9314 R
(1722446935.856876) can0 014#00 R
(1722446935.856992) can0 008#00 R
(1722446935.857113) can0 055#00 R
(1722446935.857230) can0 05D#00 R
(1722446935.870548) can0 00E#1314 R
(1722446935.870714) can0 05C#13141314 R
(1722446935.870837) can0 041#00 R
(1722446935.870952) can0 016#03 R
(1722446935.871073) can0 015#00 R
(1722446935.871191) can0 017#00 R
(1722446935.871309) can0 056#00 R
(1722446935.878215) can0 007#00 R
(1722446935.886548) can0 056#00 R
(1722446935.886678) can0 00E#BB13 R
(1722446935.886811) can0 00E#BB13 R
(1722446935.901992) can0 015#00 R
(1722446935.902309) can0 05C#64136413 R
(1722446935.902422) can0 016#03 R
(1722446935.917046) can0 016#02 R
(1722446935.917176) can0 00D#4313 R
(1722446935.917301) can0 041#00 R
(1722446935.917429) can0 05B#4313 R
(1722446935.917544) can0 014#00 R
(1722446935.917662) can0 008#00 R
(1722446935.917782) can0 055#00 R
(1722446935.917948) can0 05C#12131213 R
(1722446935.918068) can0 05D#00 R
(1722446935.929047) can0 007#00 R
(1722446935.933285) can0 00E#BC12 R
(1722446935.933458) can0 05C#BC12BC12 R
(1722446935.933578) can0 041#00 R
(1722446935.933695) can0 016#02 R
(1722446935.933815) can0 015#00 R
(1722446935.933930) can0 017#00 R
(1722446935.934053) can0 056#00 R
(1722446935.948304) can0 056#00 R
(1722446935.948439) can0 00E#6C12 R
(1722446935.948830) can0 00E#6C12 R
(1722446935.948997) can0 05C#6C126C12 R
(1722446935.949112) can0 016#02 R
(1722446935.962833) can0 015#00 R
(1722446935.962949) can0 016#02 R
(1722446935.963072) can0 041#00 R
(1722446935.963242) can0 05C#1C121C12 R
(1722446935.978417) can0 00D#FD11 R
(1722446935.978548) can0 05B#FD11 R
(1722446935.978784) can0 014#00 R
(1722446935.978903) can0 008#00 R
(1722446935.979024) can0 055#00 R
(1722446935.979143) can0 05D#00 R
(1722446935.979258) can0 007#00 R
(1722446935.994225) can0 00E#7A11 R
(1722446935.994398) can0 05C#7A117A11 R
(1722446935.994522) can0 041#00 R
(1722446935.994637) can0 016#02 R
(1722446935.994757) can0 015#00 R
(1722446935.994873) can0 017#00 R
(1722446935.994994) can0 056#00 R
(1722446936.009262) can0 056#00 R
(1722446936.009393) can0 00E#2D11 R
(1722446936.024588) can0 015#00 R
(1722446936.024704) can0 016#02 R
(1722446936.024825) can0 041#00 R
(1722446936.024961) can0 00E#E010 R
(1722446936.025127) can0 05C#E010E010 R
(1722446936.025244) can0 016#02 R
(1722446936.028797) can0 007#00 R
(1722446936.040201) can0 00D#BC10 R
(1722446936.040336) can0 05B#BC10 R
(1722446936.040451) can0 014#00 R
(1722446936.040570) can0 008#00 R
(1722446936.040689) can0 055#00 R
(1722446936.040855) can0 05C#93109310 R
(1722446936.040972) can0 05D#00 R
(1722446936.055889) can0 00E#4310 R
(1722446936.056051) can0 05C#43104310 R
(1722446936.056174) can0 041#00 R
(1722446936.056289) can0 016#02 R
(1722446936.056410) can0 015#00 R
(1722446936.056528) can0 017#00 R
(1722446936.056647) can0 056#00 R
(1722446936.071243) can0 056#00 R
(1722446936.071449) can0 015#00 R
(1722446936.071564) can0 016#02 R
(1722446936.071702) can0 00E#F80F R
(1722446936.071843) can0 00E#F80F R
(1722446936.072018) can0 05C#F80FF80F R
(1722446936.080019) can0 007#00 R
(1722446936.086142) can0 041#00 R
(1722446936.086308) can0 05C#A80FA80F R
(1722446936.086425) can0 016#02 R
(1722446936.102136) can0 00D#860F R
(1722446936.102274) can0 05B#860F R
(1722446936.102390) can0 014#00 R
(1722446936.102508) can0 008#00 R
(1722446936.102628) can0 055#00 R
(1722446936.102746) can0 05D#00 R
(1722446936.117509) can0 00E#110F R
(1722446936.117673) can0 05C#110F110F R
(1722446936.117796) can0 041#00 R
(1722446936.117910) can0 016#02 R
(1722446936.118030) can0 015#00 R
(1722446936.118146) can0 017#00 R
(1722446936.118266) can0 056#00 R
(1722446936.129900) can0 007#00 R
(1722446936.132973) can0 056#00 R
(1722446936.133106) can0 00E#C40E R
(1722446936.133240) can0 00E#C40E R
(1722446936.148437) can0 05C#7C0E7C0E R
(1722446936.148552) can0 016#02 R
(1722446936.163845) can0 00D#5F0E R
(1722446936.163964) can0 015#00 R
(1722446936.164079) can0 016#02 R
(1722446936.164201) can0 041#00 R
(1722446936.164335) can0 05B#5F0E R
(1722446936.164451) can0 014#00 R
(1722446936.164569) can0 008#00 R
(1722446936.164689) can0 055#00 R
(1722446936.164856) can0 05C#350E350E R
(1722446936.164974) can0 05D#00 R
(1722446936.178678) can0 00E#EE0D R
(1722446936.178849) can0 05C#EE0DEE0D R
(1722446936.178969) can0 041#00 R
(1722446936.179086) can0 016#02 R
(1722446936.179207) can0 015#00 R
(1722446936.179325) can0 017#00 R
(1722446936.179444) can0 056#00 R
(1722446936.180442) can0 007#00 R
(1722446936.193492) can0 056#00 R
(1722446936.193625) can0 00E#A90D R
(1722446936.209130) can0 00E#5F0D R
(1722446936.209303) can0 05C#5F0D5F0D R
(1722446936.209419) can0 016#02 R
(1722446936.224381) can0 015#00 R
(1722446936.224514) can0 00D#3F0D R
(1722446936.224629) can0 016#02 R
(1722446936.224766) can0 041#00 R
(1722446936.224883) can0 05B#3F0D R
(1722446936.225000) can0 014#00 R
(1722446936.225116) can0 008#00 R
(1722446936.225240) can0 055#00 R
(1722446936.225357) can0 05D#00 R
(1722446936.231361) can0 007#00 R
(1722446936.239915) can0 05C#D20CD20C R
(1722446936.240036) can0 056#00 R
(1722446936.240170) can0 00E#D20C R
(1722446936.240337) can0 05C#D20CD20C R
(1722446936.240459) can0 041#00 R
(1722446936.240575) can0 016#02 R
(1722446936.240697) can0 015#00 R
(1722446936.240814) can0 017#00 R
(1722446936.240934) can0 056#00 R
(1722446936.254943) can0 00E#8F0C R
(1722446936.270052) can0 00E#4D0C R
(1722446936.270216) can0 05C#4D0C4D0C R
(1722446936.270331) can0 016#01 R
(1722446936.283613) can0 007#00 R
(1722446936.284802) can0 015#00 R
(1722446936.284934) can0 00D#330C R
(1722446936.285048) can0 016#01 R
(1722446936.285182) can0 05B#330C R
(1722446936.285298) can0 014#00 R
(1722446936.285416) can0 008#00 R
(1722446936.285535) can0 055#00 R
(1722446936.285658) can0 05D#00 R
(1722446936.300759) can0 041#00 R
(1722446936.300912) can0 05C#CA0BCA0B R
(1722446936.301043) can0 00E#CA0B R
(1722446936.301210) can0 05C#CA0BCA0B R
(1722446936.301334) can0 041#00 R
(1722446936.301454) can0 016#01 R
(1722446936.301573) can0 015#00 R
(1722446936.301690) can0 017#00 R
(1722446936.301811) can0 056#00 R
(1722446936.316149) can0 056#00 R
(1722446936.331595) can0 00E#460B R
(1722446936.331727) can0 00E#460B R
(1722446936.331893) can0 05C#460B460B R
(1722446936.334299) can0 007#00 R
(1722446936.346250) can0 00D#2D0B R
(1722446936.346371) can0 015#00 R
(1722446936.346486) can0 016#01 R
(1722446936.346621) can0 05B#2D0B R
(1722446936.346736) can0 014#00 R
(1722446936.346855) can0 008#00 R
(1722446936.346974) can0 055#00 R
(1722446936.347094) can0 05D#00 R
(1722446936.362581) can0 016#01 R
(1722446936.362996) can0 041#00 R
(1722446936.363162) can0 05C#C40AC40A R
(1722446936.363296) can0 00E#C40A R
(1722446936.363460) can0 05C#C40AC40A R
(1722446936.363584) can0 041#00 R
(1722446936.363698) can0 016#01 R
(1722446936.363820) can0 015#00 R
(1722446936.363935) can0 017#00 R
(1722446936.364056) can0 056#00 R
(1722446936.378336) can0 056#00 R
(1722446936.378469) can0 00E#830A R
(1722446936.378603) can0 00E#830A R
(1722446936.383673) can0 007#00 R
(1722446936.393050) can0 05C#460A460A R
(1722446936.393165) can0 016#01 R
(1722446936.408197) can0 00D#2D0A R
(1722446936.408330) can0 05B#2D0A R
(1722446936.408444) can0 014#00 R
(1722446936.408563) can0 008#00 R
(1722446936.408682) can0 055#00 R
(1722446936.408802) can0 05D#00 R
(1722446936.423998) can0 015#00 R
(1722446936.424112) can0 016#01 R
(1722446936.424547) can0 041#00 R
(1722446936.424717) can0 05C#CE09CE09 R
(1722446936.424849) can0 00E#CA09 R
(1722446936.425018) can0 05C#CA09CA09 R
(1722446936.425137) can0 041#00 R
(1722446936.425253) can0 016#01 R
(1722446936.425372) can0 015#00 R
(1722446936.425489) can0 017#00 R
(1722446936.425609) can0 056#00 R
(1722446936.433780) can0 007#00 R
(1722446936.438783) can0 056#00 R
(1722446936.438913) can0 00E#8F09 R
(1722446936.454069) can0 00E#5509 R
(1722446936.454233) can0 05C#55095509 R
(1722446936.454348) can0 016#01 R
(1722446936.469105) can0 015#00 R
(1722446936.469242) can0 00D#3E09 R
(1722446936.469357) can0 016#01 R
(1722446936.469478) can0 041#00 R
(1722446936.469617) can0 05B#3E09 R
(1722446936.469732) can0 014#00 R
(1722446936.469851) can0 008#00 R
(1722446936.469970) can0 055#00 R
(1722446936.470090) can0 05D#00 R
(1722446936.485159) can0 05C#DE08DE08 R
(1722446936.485291) can0 00E#DE08 R
(1722446936.485449) can0 05C#DE08DE08 R
(1722446936.485570) can0 041#00 R
(1722446936.485687) can0 016#01 R
(1722446936.485806) can0 015#00 R
(1722446936.485924) can0 017#00 R
(1722446936.486043) can0 056#00 R
(1722446936.495908) can0 007#00 R
(1722446936.500274) can0 056#00 R
(1722446936.500406) can0 00E#A608 R
(1722446936.515417) can0 00E#6F08 R
(1722446936.515583) can0 05C#6F086F08 R
(1722446936.515697) can0 016#01 R
(1722446936.515819) can0 015#00 R
(1722446936.515934) can0 016#01 R
(1722446936.531200) can0 041#00 R
(1722446936.531330) can0 00D#5508 R
(1722446936.531462) can0 05B#5508 R
(1722446936.531577) can0 014#00 R
(1722446936.531695) can0 008#00 R
(1722446936.531816) can0 055#00 R
(1722446936.531984) can0 05C#34083408 R
(1722446936.532102) can0 05D#00 R
(1722446936.545637) can0 007#00 R
(1722446936.546647) can0 00E#FE07 R
(1722446936.546816) can0 05C#FE07FE07 R
(1722446936.546937) can0 041#00 R
(1722446936.547057) can0 016#01 R
(1722446936.547175) can0 015#00 R
(1722446936.547290) can0 017#00 R
(1722446936.547410) can0 056#00 R
(1722446936.562402) can0 056#00 R
(1722446936.578325) can0 015#00 R
(1722446936.578459) can0 00E#8D07 R
(1722446936.578591) can0 00E#8D07 R
(1722446936.578763) can0 05C#8D078D07 R
(1722446936.594384) can0 00D#7507 R
(1722446936.594499) can0 016#01 R
(1722446936.594622) can0 041#00 R
(1722446936.594757) can0 05B#7507 R
(1722446936.594874) can0 014#00 R
(1722446936.594991) can0 008#00 R
(1722446936.595112) can0 055#00 R
(1722446936.595278) can0 05C#56075607 R
(1722446936.595396) can0 016#01 R
(1722446936.595511) can0 05D#00 R
(1722446936.595916) can0 007#00 R
(1722446936.610186) can0 00E#1F07 R
(1722446936.610360) can0 05C#1F071F07 R
(1722446936.610483) can0 041#00 R
(1722446936.610600) can0 016#01 R
(1722446936.610723) can0 015#00 R
(1722446936.610838) can0 017#00 R
(1722446936.610959) can0 056#00 R
(1722446936.624604) can0 056#00 R
(1722446936.624746) can0 00E#ED06 R
(1722446936.624872) can0 00E#ED06 R
(1722446936.639789) can0 05C#BB06BB06 R
(1722446936.639904) can0 016#01 R
(1722446936.646573) can0 007#00 R
(1722446936.655038) can0 00D#A706 R
(1722446936.655175) can0 05B#A706 R
(1722446936.655289) can0 014#00 R
(1722446936.655409) can0 008#00 R
(1722446936.655527) can0 015#00 R
(1722446936.655644) can0 016#01 R
(1722446936.655766) can0 041#00 R
(1722446936.655886) can0 055#00 R
(1722446936.656051) can0 05C#8A068A06 R
(1722446936.656171) can0 05D#00 R
(1722446936.671722) can0 00E#5A06 R
(1722446936.671890) can0 05C#5A065A06 R
(1722446936.672012) can0 041#00 R
(1722446936.672131) can0 016#00 R
(1722446936.672248) can0 015#00 R
(1722446936.672364) can0 017#00 R
(1722446936.672484) can0 056#00 R
(1722446936.686359) can0 056#00 R
(1722446936.686490) can0 00E#2706 R
(1722446936.695764) can0 007#00 R
(1722446936.701342) can0 00E#F805 R
(1722446936.701514) can0 05C#F805F805 R
(1722446936.701632) can0 016#00 R
(1722446936.715741) can0 00D#E505 R
(1722446936.715861) can0 015#00 R
(1722446936.715977) can0 016#00 R
(1722446936.716099) can0 041#00 R
(1722446936.716233) can0 05B#E505 R
(1722446936.716349) can0 014#00 R
(1722446936.716467) can0 008#00 R
(1722446936.716587) can0 055#00 R
(1722446936.716706) can0 05D#00 R
(1722446936.731752) can0 05C#9C059C05 R
(1722446936.731885) can0 00E#9C05 R
(1722446936.732052) can0 05C#9C059C05 R
(1722446936.732174) can0 041#00 R
(1722446936.732290) can0 016#00 R
(1722446936.732410) can0 015#00 R
(1722446936.732526) can0 017#00 R
(1722446936.732646) can0 056#00 R
(1722446936.745791) can0 007#00 R
(1722446936.747096) can0 056#00 R
(1722446936.747227) can0 00E#6C05 R
(1722446936.762511) can0 00E#4005 R
(1722446936.762679) can0 05C#40054005 R
(1722446936.762796) can0 016#00 R
(1722446936.778120) can0 00D#2C05 R
(1722446936.778239) can0 015#00 R
(1722446936.778355) can0 016#00 R
(1722446936.778487) can0 05B#2C05 R
(1722446936.778604) can0 014#00 R
(1722446936.778721) can0 008#00 R
(1722446936.778841) can0 055#00 R
(1722446936.778959) can0 05D#00 R
(1722446936.801444) can0 007#00 R
(1722446936.801627) can0 041#00 R
(1722446936.801799) can0 05C#E704E704 R
(1722446936.801919) can0 056#00 R
(1722446936.802051) can0 00E#E704 R
(1722446936.802221) can0 05C#E704E704 R
(1722446936.802343) can0 041#00 R
(1722446936.802459) can0 016#00 R
(1722446936.802579) can0 015#00 R
(1722446936.802695) can0 017#00 R
(1722446936.802815) can0 056#00 R
(1722446936.824364) can0 00E#9104 R
(1722446936.824500) can0 00E#9104 R
(1722446936.824664) can0 05C#91049104 R
(1722446936.839763) can0 015#00 R
(1722446936.839896) can0 00D#7E04 R
(1722446936.840014) can0 016#00 R
(1722446936.840148) can0 05B#7E04 R
(1722446936.840265) can0 014#00 R
(1722446936.840382) can0 008#00 R
(1722446936.840505) can0 055#00 R
(1722446936.840624) can0 05D#00 R
(1722446936.848287) can0 007#00 R
(1722446936.854599) can0 016#00 R
(1722446936.854840) can0 041#00 R
(1722446936.855011) can0 05C#3E043E04 R
(1722446936.855145) can0 00E#3E04 R
(1722446936.855315) can0 05C#3E043E04 R
(1722446936.855437) can0 041#00 R
(1722446936.855553) can0 016#00 R
(1722446936.855673) can0 015#00 R
(1722446936.855789) can0 017#00 R
(1722446936.855909) can0 056#00 R
(1722446936.856029) can0 056#00 R
(1722446936.856164) can0 00E#3E04 R
(1722446936.856298) can0 00E#3E04 R
(1722446936.871800) can0 05C#17041704 R
(1722446936.871917) can0 016#00 R
(1722446936.899544) can0 007#00 R
(1722446936.900853) can0 00D#DF03 R
(1722446936.900974) can0 015#00 R
(1722446936.901088) can0 016#00 R
(1722446936.901211) can0 041#00 R
(1722446936.901345) can0 05B#DF03 R
(1722446936.901461) can0 014#00 R
(1722446936.901579) can0 008#00 R
(1722446936.901699) can0 055#00 R
(1722446936.901867) can0 05C#C803C803 R
(1722446936.901983) can0 05D#00 R
(1722446936.917022) can0 056#00 R
(1722446936.917156) can0 00E#A403 R
(1722446936.917321) can0 05C#A403A403 R
(1722446936.917444) can0 041#00 R
(1722446936.917559) can0 016#00 R
(1722446936.917680) can0 015#00 R
(1722446936.917795) can0 017#00 R
(1722446936.917918) can0 056#00 R
(1722446936.918051) can0 00E#A403 R
(1722446936.932825) can0 00E#7D03 R
(1722446936.932995) can0 05C#7D037D03 R
(1722446936.933125) can0 016#00 R
(1722446936.948297) can0 015#00 R
(1722446936.948413) can0 016#00 R
(1722446936.948535) can0 041#00 R
(1722446936.950450) can0 007#00 R
(1722446936.963645) can0 00D#4903 R
(1722446936.963779) can0 05B#4903 R
(1722446936.963894) can0 014#00 R
(1722446936.964014) can0 008#00 R
(1722446936.964132) can0 055#00 R
(1722446936.964300) can0 05C#34033403 R
(1722446936.964417) can0 05D#00 R
(1722446936.979487) can0 00E#1003 R
(1722446936.979660) can0 05C#10031003 R
(1722446936.979780) can0 041#00 R
(1722446936.979898) can0 016#00 R
(1722446936.980016) can0 015#00 R
(1722446936.980134) can0 017#00 R
(1722446936.980252) can0 056#00 R
(1722446936.994344) can0 056#00 R
(1722446936.994475) can0 00E#EF02 R
(1722446936.999799) can0 007#00 R
(1722446937.010203) can0 015#00 R
(1722446937.010318) can0 016#00 R
(1722446937.010452) can0 00E#CC02 R
(1722446937.010620) can0 05C#CC02CC02 R
(1722446937.010737) can0 016#00 R
(1722446937.024936) can0 041#00 R
(1722446937.025103) can0 05C#AF02AF02 R
(1722446937.025238) can0 00D#C002 R
(1722446937.025372) can0 05B#C002 R
(1722446937.025491) can0 014#00 R
(1722446937.025609) can0 008#00 R
(1722446937.025728) can0 055#00 R
(1722446937.025848) can0 05D#00 R
(1722446937.039616) can0 056#00 R
(1722446937.039749) can0 00E#8E02 R
(1722446937.039914) can0 05C#8E028E02 R
(1722446937.040040) can0 041#00 R
(1722446937.040154) can0 016#00 R
(1722446937.040276) can0 015#00 R
(1722446937.040390) can0 017#00 R
(1722446937.040512) can0 056#00 R
(1722446937.049886) can0 007#00 R
(1722446937.070687) can0 015#00 R
(1722446937.070820) can0 00E#5202 R
(1722446937.070952) can0 00E#5202 R
(1722446937.071121) can0 05C#52025202 R
(1722446937.087538) can0 00D#4202 R
(1722446937.087653) can0 016#00 R
(1722446937.087774) can0 041#00 R
(1722446937.087908) can0 05B#4202 R
(1722446937.088024) can0 014#00 R
(1722446937.088142) can0 008#00 R
(1722446937.088262) can0 055#00 R
(1722446937.088428) can0 05C#31023102 R
(1722446937.088544) can0 016#00 R
(1722446937.088662) can0 05D#00 R
(1722446937.099713) can0 007#00 R
(1722446937.102763) can0 00E#1502 R
(1722446937.102932) can0 05C#15021502 R
(1722446937.103052) can0 041#00 R
(1722446937.103170) can0 016#00 R
(1722446937.103288) can0 015#00 R
(1722446937.103406) can0 017#00 R
(1722446937.103525) can0 056#00 R
(1722446937.103646) can0 056#00 R
(1722446937.103781) can0 00E#1502 R
(1722446937.103918) can0 00E#1502 R
(1722446937.117158) can0 05C#F901F901 R
(1722446937.117273) can0 016#00 R
(1722446937.132106) can0 015#00 R
(1722446937.132223) can0 016#00 R
(1722446937.132346) can0 041#00 R
(1722446937.132517) can0 05C#DF01DF01 R
(1722446937.148495) can0 00D#D201 R
(1722446937.148626) can0 05B#D201 R
(1722446937.148748) can0 014#00 R
(1722446937.148862) can0 008#00 R
(1722446937.148982) can0 055#00 R
(1722446937.149099) can0 05D#00 R
(1722446937.150643) can0 007#00 R
(1722446937.163614) can0 00E#AA01 R
(1722446937.163781) can0 05C#AA01AA01 R
(1722446937.163902) can0 041#00 R
(1722446937.164018) can0 016#00 R
(1722446937.164138) can0 015#00 R
(1722446937.164255) can0 017#00 R
(1722446937.164374) can0 056#00 R
(1722446937.179041) can0 056#00 R
(1722446937.179236) can0 00E#9001 R
(1722446937.194319) can0 015#00 R
(1722446937.194436) can0 016#00 R
(1722446937.194570) can0 00E#7801 R
(1722446937.194741) can0 05C#78017801 R
(1722446937.194858) can0 016#00 R
(1722446937.194981) can0 041#00 R
(1722446937.195150) can0 05C#78017801 R
(1722446937.200056) can0 007#00 R
(1722446937.210784) can0 00D#6C01 R
(1722446937.210918) can0 05B#6C01 R
(1722446937.211034) can0 014#00 R
(1722446937.211152) can0 008#00 R
(1722446937.211272) can0 055#00 R
(1722446937.211390) can0 05D#00 R
(1722446937.225685) can0 00E#4801 R
(1722446937.225900) can0 05C#48014801 R
(1722446937.226022) can0 041#00 R
(1722446937.226138) can0 016#00 R
(1722446937.226258) can0 015#00 R
(1722446937.226376) can0 017#00 R
(1722446937.226496) can0 056#00 R
(1722446937.240912) can0 056#00 R
(1722446937.241046) can0 00E#3201 R
(1722446937.250342) can0 007#00 R
(1722446937.256824) can0 00E#1E01 R
(1722446937.256994) can0 05C#1E011E01 R
(1722446937.257110) can0 016#00 R
(1722446937.272247) can0 00D#1401 R
(1722446937.272380) can0 05B#1401 R
(1722446937.272499) can0 015#00 R
(1722446937.272615) can0 014#00 R
(1722446937.272747) can0 008#00 R
(1722446937.272851) can0 016#00 R
(1722446937.272975) can0 041#00 R
(1722446937.273092) can0 055#00 R
(1722446937.273264) can0 05C#08010801 R
(1722446937.273382) can0 05D#00 R
(1722446937.288247) can0 00E#F400 R
(1722446937.288420) can0 05C#F400F400 R
(1722446937.288542) can0 041#00 R
(1722446937.288658) can0 016#00 R
(1722446937.288779) can0 015#00 R
(1722446937.288894) can0 017#00 R
(1722446937.289014) can0 056#00 R
(1722446937.300656) can0 007#00 R
(1722446937.303250) can0 056#00 R
(1722446937.317572) can0 00E#D000 R
(1722446937.317705) can0 00E#D000 R
(1722446937.317876) can0 05C#D000D000 R
(1722446937.333262) can0 015#00 R
(1722446937.333380) can0 016#00 R
(1722446937.333510) can0 00D#C900 R
(1722446937.333631) can0 041#00 R
(1722446937.333747) can0 016#00 R
(1722446937.333879) can0 05B#C900 R
(1722446937.333995) can0 014#00 R
(1722446937.334114) can0 008#00 R
(1722446937.334233) can0 055#00 R
(1722446937.334352) can0 05D#00 R
(1722446937.348383) can0 05C#AE00AE00 R
(1722446937.348515) can0 00E#AE00 R
(1722446937.348683) can0 05C#AE00AE00 R
(1722446937.348806) can0 041#00 R
(1722446937.348924) can0 016#00 R
(1722446937.349044) can0 015#00 R
(1722446937.349159) can0 017#00 R
(1722446937.349280) can0 056#00 R
(1722446937.350097) can0 007#00 R
(1722446937.363276) can0 056#00 R
(1722446937.363412) can0 00E#9F00 R
(1722446937.363545) can0 00E#9F00 R
(1722446937.378703) can0 05C#90009000 R
(1722446937.378820) can0 016#00 R
(1722446937.379219) can0 015#00 R
(1722446937.379335) can0 016#00 R
(1722446937.393767) can0 041#00 R
(1722446937.393938) can0 05C#82008200 R
(1722446937.394069) can0 00D#8900 R
(1722446937.394201) can0 05B#8900 R
(1722446937.394317) can0 014#00 R
(1722446937.394435) can0 008#00 R
(1722446937.394555) can0 055#00 R
(1722446937.394673) can0 05D#00 R
(1722446937.399752) can0 007#00 R
(1722446937.409305) can0 00E#7400 R
(1722446937.410101) can0 05C#74007400 R
(1722446937.410223) can0 041#00 R
(1722446937.410340) can0 016#00 R
(1722446937.410460) can0 015#00 R
(1722446937.410576) can0 017#00 R
(1722446937.410696) can0 056#00 R
(1722446937.424494) can0 056#00 R
(1722446937.424625) can0 00E#6700 R
(1722446937.439899) can0 015#00 R
(1722446937.440031) can0 00E#5A00 R
(1722446937.440201) can0 05C#5A005A00 R
(1722446937.440317) can0 016#00 R
(1722446937.440433) can0 016#00 R
(1722446937.440558) can0 041#00 R
(1722446937.440725) can0 05C#5A005A00 R
(1722446937.449653) can0 007#00 R
(1722446937.454869) can0 00D#5600 R
(1722446937.455001) can0 05B#5600 R
(1722446937.455117) can0 014#00 R
(1722446937.455235) can0 008#00 R
(1722446937.455357) can0 055#00 R
(1722446937.455475) can0 05D#00 R
(1722446937.471129) can0 00E#4400 R
(1722446937.471299) can0 05C#44004400 R
(1722446937.471423) can0 041#00 R
(1722446937.471539) can0 016#00 R
(1722446937.471659) can0 015#00 R
(1722446937.471775) can0 017#00 R
(1722446937.471895) can0 056#00 R
(1722446937.486300) can0 056#00 R
(1722446937.486433) can0 00E#3A00 R
(1722446937.500393) can0 007#00 R
(1722446937.500580) can0 00E#3200 R
(1722446937.500759) can0 05C#32003200 R
(1722446937.500865) can0 016#00 R
(1722446937.516085) can0 00D#2E00 R
(1722446937.516203) can0 015#00 R
(1722446937.516320) can0 016#00 R
(1722446937.516441) can0 041#00 R
(1722446937.516575) can0 05B#2E00 R
(1722446937.516688) can0 014#00 R
(1722446937.516805) can0 008#00 R
(1722446937.516925) can0 055#00 R
(1722446937.517043) can0 05D#00 R
(1722446937.531877) can0 05C#22002200 R
(1722446937.532009) can0 00E#2200 R
(1722446937.532177) can0 05C#22002200 R
(1722446937.532301) can0 041#00 R
(1722446937.532414) can0 016#00 R
(1722446937.532535) can0 015#00 R
(1722446937.532651) can0 017#00 R
(1722446937.532772) can0 056#00 R
(1722446937.547581) can0 056#00 R
(1722446937.550014) can0 007#00 R
(1722446937.562381) can0 00E#1500 R
(1722446937.562512) can0 00E#1500 R
(1722446937.562683) can0 05C#15001500 R
(1722446937.578080) can0 00D#1200 R
(1722446937.578215) can0 05B#1200 R
(1722446937.578330) can0 014#00 R
(1722446937.578449) can0 008#00 R
(1722446937.578571) can0 015#00 R
(1722446937.578684) can0 016#00 R
(1722446937.578801) can0 016#00 R
(1722446937.578920) can0 055#00 R
(1722446937.579038) can0 05D#00 R
(1722446937.593873) can0 041#00 R
(1722446937.594047) can0 05C#0B000B00 R
(1722446937.594180) can0 00E#0B00 R
(1722446937.594354) can0 05C#0B000B00 R
(1722446937.594477) can0 041#00 R
(1722446937.594592) can0 016#00 R
(1722446937.594713) can0 015#00 R
(1722446937.594829) can0 017#00 R
(1722446937.594950) can0 056#00 R
(1722446937.600139) can0 007#00 R
(1722446937.609453) can0 056#00 R
(1722446937.609587) can0 00E#0700 R
(1722446937.609721) can0 00E#0700 R
(1722446937.625229) can0 05C#04000400 R
(1722446937.625346) can0 016#00 R
(1722446937.640616) can0 00D#0300 R
(1722446937.640766) can0 05B#0300 R
(1722446937.640866) can0 014#00 R
(1722446937.640985) can0 008#00 R
(1722446937.641104) can0 015#00 R
(1722446937.641221) can0 016#00 R
(1722446937.641340) can0 055#00 R
(1722446937.641459) can0 05D#00 R
(1722446937.650198) can0 007#00 R
(1722446937.656033) can0 041#00 R
(1722446937.656210) can0 05C#00000000 R
(1722446937.656333) can0 056#00 R
(1722446937.656470) can0 00E#0000 R
(1722446937.656647) can0 05C#00000000 R
(1722446937.656770) can0 041#00 R
(1722446937.656885) can0 016#00 R
(1722446937.657005) can0 015#00 R
(1722446937.657121) can0 017#00 R
(1722446937.657241) can0 056#00 R
(1722446937.657379) can0 00E#0000 R
(1722446937.671535) can0 00E#0000 R
(1722446937.671711) can0 05C#00000000 R
(1722446937.671827) can0 016#00 R
(1722446937.672198) can0 015#00 R
(1722446937.672311) can0 016#00 R
(1722446937.687613) can0 041#00 R
(1722446937.687789) can0 05C#00000000 R
(1722446937.701125) can0 007#00 R
(1722446937.702636) can0 00D#0000 R
(1722446937.702773) can0 05B#0000 R
(1722446937.702889) can0 014#00 R
(1722446937.703007) can0 008#00 R
(1722446937.703126) can0 055#00 R
(1722446937.703245) can0 05D#00 R
(1722446937.718715) can0 00E#0200 R
(1722446937.719233) can0 05C#02000200 R
(1722446937.719355) can0 041#00 R
(1722446937.719471) can0 016#00 R
(1722446937.719591) can0 015#00 R
(1722446937.719707) can0 017#00 R
(1722446937.719827) can0 056#00 R
(1722446937.734351) can0 056#00 R
(1722446937.734484) can0 00E#0500 R
(1722446937.749242) can0 015#00 R
(1722446937.749380) can0 00E#0800 R
(1722446937.749555) can0 05C#08000800 R
(1722446937.749670) can0 016#00 R
(1722446937.765466) can0 00D#0A00 R
(1722446937.765582) can0 016#00 R
(1722446937.765705) can0 041#00 R
(1722446937.765838) can0 05B#0A00 R
(1722446937.765955) can0 014#00 R
(1722446937.766072) can0 008#00 R
(1722446937.766193) can0 055#00 R
(1722446937.766365) can0 05C#0C000C00 R
(1722446937.766483) can0 05D#00 R
(1722446937.766689) can0 007#00 R
(1722446937.781321) can0 00E#1100 R
(1722446937.781491) can0 05C#11001100 R
(1722446937.781615) can0 041#00 R
(1722446937.781730) can0 016#00 R
(1722446937.781851) can0 015#00 R
(1722446937.781966) can0 017#00 R
(1722446937.782087) can0 056#00 R
(1722446937.796920) can0 056#00 R
(1722446937.797070) can0 00E#1700 R
(1722446937.797194) can0 00E#1700 R
(1722446937.797367) can0 05C#17001700 R
(1722446937.812048) can0 015#00 R
(1722446937.812161) can0 016#00 R
(1722446937.812284) can0 041#00 R
(1722446937.812457) can0 05C#1D001D00 R
(1722446937.812572) can0 016#00 R
(1722446937.816009) can0 007#00 R
(1722446937.827240) can0 00D#2000 R
(1722446937.827379) can0 05B#2000 R
(1722446937.827494) can0 014#00 R
(1722446937.827612) can0 008#00 R
(1722446937.827732) can0 055#00 R
(1722446937.827851) can0 05D#00 R
(1722446937.842625) can0 00E#2C00 R
(1722446937.842798) can0 05C#2C002C00 R
(1722446937.842923) can0 041#00 R
(1722446937.843036) can0 016#00 R
(1722446937.843158) can0 015#00 R
(1722446937.843274) can0 017#00 R
(1722446937.843395) can0 056#00 R
(1722446937.858431) can0 056#00 R
(1722446937.858574) can0 00E#3400 R
(1722446937.858710) can0 00E#3400 R
(1722446937.866072) can0 007#00 R
(1722446937.874744) can0 015#00 R
(1722446937.874860) can0 016#00 R
(1722446937.874982) can0 041#00 R
(1722446937.875156) can0 05C#3E003E00 R
(1722446937.875272) can0 016#00 R
(1722446937.890021) can0 00D#4300 R
(1722446937.890152) can0 05B#4300 R
(1722446937.890268) can0 014#00 R
(1722446937.890386) can0 008#00 R
(1722446937.890552) can0 05C#49004900 R
(1722446937.890672) can0 055#00 R
(1722446937.890790) can0 05D#00 R
(1722446937.905366) can0 00E#5300 R
(1722446937.905534) can0 05C#53005300 R
(1722446937.905656) can0 041#00 R
(1722446937.905774) can0 016#00 R
(1722446937.905894) can0 015#00 R
(1722446937.906010) can0 017#00 R
(1722446937.906131) can0 056#00 R
(1722446937.916164) can0 007#00 R
(1722446937.921092) can0 056#00 R
(1722446937.921249) can0 00E#6000 R
(1722446937.936528) can0 015#00 R
(1722446937.936644) can0 016#00 R
(1722446937.936779) can0 00E#6C00 R
(1722446937.936952) can0 05C#6C006C00 R
(1722446937.937070) can0 016#00 R
(1722446937.937191) can0 041#00 R
(1722446937.937362) can0 05C#6C006C00 R
(1722446937.952182) can0 00D#7200 R
(1722446937.952316) can0 05B#7200 R
(1722446937.952434) can0 014#00 R
(1722446937.952554) can0 008#00 R
(1722446937.952672) can0 055#00 R
(1722446937.952794) can0 05D#00 R
(1722446937.966628) can0 007#00 R
(1722446937.967674) can0 00E#8700 R
(1722446937.967839) can0 05C#87008700 R
(1722446937.967962) can0 041#00 R
(1722446937.968078) can0 016#00 R
(1722446937.968198) can0 015#00 R
(1722446937.968314) can0 017#00 R
(1722446937.968434) can0 056#00 R
(1722446937.982988) can0 056#00 R
(1722446937.983120) can0 00E#9700 R
(1722446937.983252) can0 00E#9700 R
(1722446937.983420) can0 05C#97009700 R
(1722446937.983536) can0 016#00 R
(1722446937.998741) can0 015#00 R
(1722446937.998856) can0 016#00 R
(1722446937.998978) can0 041#00 R
(1722446937.999144) can0 05C#A600A600 R
(1722446938.013894) can0 00D#AD00 R
(1722446938.014027) can0 05B#AD00 R
(1722446938.014144) can0 014#00 R
(1722446938.014262) can0 008#00 R
(1722446938.014382) can0 055#00 R
(1722446938.014500) can0 05D#00 R
(1722446938.015734) can0 007#00 R
(1722446938.028857) can0 00E#C800 R
(1722446938.029047) can0 05C#C800C800 R
(1722446938.029158) can0 041#00 R
(1722446938.029272) can0 016#00 R
(1722446938.029394) can0 015#00 R
(1722446938.029508) can0 017#00 R
(1722446938.029628) can0 056#00 R
(1722446938.044344) can0 056#00 R
(1722446938.058991) can0 015#00 R
(1722446938.059104) can0 016#00 R
(1722446938.059228) can0 041#00 R
(1722446938.059360) can0 00E#EB00 R
(1722446938.059492) can0 00E#EB00 R
(1722446938.059662) can0 05C#EB00EB00 R
(1722446938.065793) can0 007#00 R
(1722446938.074080) can0 05C#FE00FE00 R
(1722446938.074213) can0 00D#F300 R
(1722446938.074329) can0 016#00 R
(1722446938.074463) can0 05B#F300 R
(1722446938.074579) can0 014#00 R
(1722446938.074698) can0 008#00 R
(1722446938.074818) can0 055#00 R
(1722446938.074936) can0 05D#00 R
(1722446938.089826) can0 00E#1301 R
(1722446938.089995) can0 05C#13011301 R
(1722446938.090118) can0 041#00 R
(1722446938.090234) can0 016#00 R
(1722446938.090354) can0 015#00 R
(1722446938.090470) can0 017#00 R
(1722446938.090590) can0 056#00 R
(1722446938.104638) can0 056#00 R
(1722446938.104778) can0 00E#2701 R
(1722446938.104912) can0 00E#2701 R
(1722446938.119786) can0 015#00 R
(1722446938.119902) can0 016#00 R
(1722446938.120072) can0 05C#3C013C01 R
(1722446938.120188) can0 016#00 R
(1722446938.124168) can0 007#00 R
(1722446938.134886) can0 041#00 R
(1722446938.135018) can0 00D#4501 R
(1722446938.135153) can0 05B#4501 R
(1722446938.135267) can0 014#00 R
(1722446938.135387) can0 008#00 R
(1722446938.135506) can0 055#00 R
(1722446938.135676) can0 05C#52015201 R
(1722446938.135794) can0 05D#00 R
(1722446938.150050) can0 00E#6901 R
(1722446938.150216) can0 05C#69016901 R
(1722446938.150338) can0 041#00 R
(1722446938.150453) can0 016#00 R
(1722446938.150574) can0 015#00 R
(1722446938.150690) can0 017#00 R
(1722446938.150810) can0 056#00 R
(1722446938.165282) can0 056#00 R
(1722446938.165418) can0 00E#8001 R
(1722446938.173680) can0 007#00 R
(1722446938.180683) can0 015#00 R
(1722446938.180815) can0 00E#9901 R
(1722446938.180983) can0 05C#99019901 R
(1722446938.181099) can0 016#00 R
(1722446938.195289) can0 016#00 R
(1722446938.195421) can0 00D#A301 R
(1722446938.195543) can0 041#00 R
(1722446938.195677) can0 05B#A301 R
(1722446938.195793) can0 014#00 R
(1722446938.195913) can0 008#00 R
(1722446938.196032) can0 055#00 R
(1722446938.196204) can0 05C#B001B001 R
(1722446938.196322) can0 05D#00 R
(1722446938.211100) can0 00E#CB01 R
(1722446938.211267) can0 05C#CB01CB01 R
(1722446938.211389) can0 041#00 R
(1722446938.211505) can0 016#00 R
(1722446938.211626) can0 015#00 R
(1722446938.211742) can0 017#00 R
(1722446938.211862) can0 056#00 R
(1722446938.223942) can0 007#00 R
(1722446938.226142) can0 056#00 R
(1722446938.226278) can0 00E#E601 R
(1722446938.241753) can0 00E#0002 R
(1722446938.241927) can0 05C#00020002 R
(1722446938.242043) can0 016#00 R
(1722446938.257212) can0 015#00 R
(1722446938.257348) can0 00D#0D02 R
(1722446938.257464) can0 016#00 R
(1722446938.257585) can0 041#00 R
(1722446938.257719) can0 05B#0D02 R
(1722446938.257835) can0 014#00 R
(1722446938.257953) can0 008#00 R
(1722446938.258073) can0 055#00 R
(1722446938.258243) can0 05C#1E021E02 R
(1722446938.258362) can0 05D#00 R
(1722446938.272654) can0 056#00 R
(1722446938.272785) can0 00E#3A02 R
(1722446938.272954) can0 05C#3A023A02 R
(1722446938.273075) can0 041#00 R
(1722446938.273191) can0 016#00 R
(1722446938.273311) can0 015#00 R
(1722446938.273428) can0 017#00 R
(1722446938.273548) can0 056#00 R
(1722446938.274052) can0 007#00 R
(1722446938.303197) can0 00E#7702 R
(1722446938.303329) can0 00E#7702 R
(1722446938.303495) can0 05C#77027702 R
(1722446938.319257) can0 015#00 R
(1722446938.319391) can0 00D#8502 R
(1722446938.319505) can0 016#00 R
(1722446938.319627) can0 041#00 R
(1722446938.319743) can0 016#00 R
(1722446938.319875) can0 05B#8502 R
(1722446938.319991) can0 014#00 R
(1722446938.320109) can0 008#00 R
(1722446938.320229) can0 055#00 R
(1722446938.320347) can0 05D#00 R
(1722446938.324215) can0 007#00 R
(1722446938.335199) can0 05C#B902B902 R
(1722446938.335331) can0 00E#B902 R
(1722446938.335497) can0 05C#B902B902 R
(1722446938.335622) can0 041#00 R
(1722446938.335735) can0 016#00 R
(1722446938.335855) can0 015#00 R
(1722446938.335972) can0 017#00 R
(1722446938.336092) can0 056#00 R
(1722446938.336212) can0 056#00 R
(1722446938.336344) can0 00E#B902 R
(1722446938.336476) can0 00E#B902 R
(1722446938.349600) can0 05C#D902D902 R
(1722446938.349777) can0 016#00 R
(1722446938.364936) can0 015#00 R
(1722446938.365051) can0 016#00 R
(1722446938.373782) can0 007#00 R
(1722446938.379877) can0 00D#0703 R
(1722446938.380017) can0 05B#0703 R
(1722446938.380129) can0 014#00 R
(1722446938.380247) can0 008#00 R
(1722446938.380369) can0 041#00 R
(1722446938.380489) can0 055#00 R
(1722446938.380660) can0 05C#1B031B03 R
(1722446938.380778) can0 05D#00 R
(1722446938.394783) can0 056#00 R
(1722446938.394917) can0 00E#3E03 R
(1722446938.395091) can0 05C#3E033E03 R
(1722446938.395212) can0 041#00 R
(1722446938.395329) can0 016#00 R
(1722446938.395449) can0 015#00 R
(1722446938.395565) can0 017#00 R
(1722446938.395685) can0 056#00 R
(1722446938.410037) can0 00E#6003 R
(1722446938.424067) can0 007#00 R
(1722446938.425247) can0 015#00 R
(1722446938.425464) can0 00E#8403 R
(1722446938.425633) can0 05C#84038403 R
(1722446938.425749) can0 016#00 R
(1722446938.441295) can0 00D#9703 R
(1722446938.441410) can0 016#00 R
(1722446938.441533) can0 041#00 R
(1722446938.441666) can0 05B#9703 R
(1722446938.441782) can0 014#00 R
(1722446938.441901) can0 008#00 R
(1722446938.442021) can0 055#00 R
(1722446938.442189) can0 05C#AB03AB03 R
(1722446938.442307) can0 05D#00 R
(1722446938.456874) can0 00E#D203 R
(1722446938.457103) can0 05C#D203D203 R
(1722446938.457225) can0 041#00 R
(1722446938.457343) can0 016#00 R
(1722446938.457463) can0 015#00 R
(1722446938.457579) can0 017#00 R
(1722446938.457699) can0 056#00 R
(1722446938.471578) can0 056#00 R
(1722446938.471717) can0 00E#F803 R
(1722446938.474405) can0 007#00 R
(1722446938.486889) can0 00E#1F04 R
(1722446938.487061) can0 05C#1F041F04 R
(1722446938.487176) can0 016#00 R
(1722446938.501519) can0 00D#2E04 R
(1722446938.501639) can0 015#00 R
(1722446938.501753) can0 016#00 R
(1722446938.501877) can0 041#00 R
(1722446938.502007) can0 05B#2E04 R
(1722446938.502126) can0 014#00 R
(1722446938.502241) can0 008#00 R
(1722446938.502362) can0 055#00 R
(1722446938.502527) can0 05C#46044604 R
(1722446938.502645) can0 05D#00 R
(1722446938.517045) can0 00E#6E04 R
(1722446938.517210) can0 05C#6E046E04 R
(1722446938.517332) can0 041#00 R
(1722446938.517447) can0 016#00 R
(1722446938.517568) can0 015#00 R
(1722446938.517683) can0 017#00 R
(1722446938.517803) can0 056#00 R
(1722446938.524439) can0 007#00 R
(1722446938.532956) can0 056#00 R
(1722446938.548433) can0 00E#C304 R
(1722446938.548566) can0 00E#C304 R
(1722446938.548753) can0 05C#C304C304 R
(1722446938.563523) can0 015#00 R
(1722446938.563654) can0 00D#D604 R
(1722446938.563771) can0 016#00 R
(1722446938.563891) can0 041#00 R
(1722446938.564010) can0 016#00 R
(1722446938.564141) can0 05B#D604 R
(1722446938.564260) can0 014#00 R
(1722446938.564376) can0 008#00 R
(1722446938.564498) can0 055#00 R
(1722446938.564613) can0 05D#00 R
(1722446938.573698) can0 007#00 R
(1722446938.579319) can0 05C#1A051A05 R
(1722446938.579453) can0 00E#1A05 R
(1722446938.579623) can0 05C#1A051A05 R
(1722446938.579743) can0 041#00 R
(1722446938.579859) can0 016#00 R
(1722446938.579979) can0 015#00 R
(1722446938.580095) can0 017#00 R
(1722446938.580215) can0 056#00 R
(1722446938.594558) can0 056#00 R
(1722446938.594691) can0 00E#4605 R
(1722446938.594825) can0 00E#4605 R
(1722446938.609630) can0 05C#75057505 R
(1722446938.609743) can0 016#00 R
(1722446938.623603) can0 007#00 R
(1722446938.624466) can0 00D#8705 R
(1722446938.624587) can0 015#00 R
(1722446938.624702) can0 016#00 R
(1722446938.624839) can0 05B#8705 R
(1722446938.624955) can0 014#00 R
(1722446938.625073) can0 008#00 R
(1722446938.625193) can0 055#00 R
(1722446938.625311) can0 05D#00 R
(1722446938.639965) can0 041#00 R
(1722446938.640131) can0 05C#CC05CC05 R
(1722446938.640265) can0 00E#CD05 R
(1722446938.640431) can0 05C#CC05CC05 R
(1722446938.640553) can0 041#00 R
(1722446938.640669) can0 016#00 R
(1722446938.640791) can0 015#00 R
(1722446938.640906) can0 017#00 R
(1722446938.641591) can0 056#00 R
(1722446938.655533) can0 056#00 R
(1722446938.655721) can0 00E#FE05 R
(1722446938.671201) can0 00E#3006 R
(1722446938.671367) can0 05C#30063006 R
(1722446938.671483) can0 016#00 R
(1722446938.674130) can0 007#00 R
(1722446938.686437) can0 00D#4306 R
(1722446938.686569) can0 05B#4306 R
(1722446938.686685) can0 014#00 R
(1722446938.686803) can0 008#00 R
(1722446938.686923) can0 015#00 R
(1722446938.687043) can0 055#00 R
(1722446938.687161) can0 05D#00 R
(1722446938.701389) can0 016#01 R
(1722446938.701511) can0 041#00 R
(1722446938.701677) can0 05C#90069006 R
(1722446938.701797) can0 056#00 R
(1722446938.701929) can0 00E#9006 R
(1722446938.702095) can0 05C#90069006 R
(1722446938.702217) can0 041#00 R
(1722446938.702333) can0 016#01 R
(1722446938.702454) can0 015#00 R
(1722446938.702569) can0 017#00 R
(1722446938.702690) can0 056#00 R
(1722446938.716483) can0 00E#C206 R
(1722446938.716676) can0 00E#C206 R
(1722446938.716843) can0 05C#C206C206 R
(1722446938.716957) can0 016#01 R
(1722446938.723634) can0 007#00 R
(1722446938.747095) can0 015#00 R
(1722446938.747230) can0 00D#0B07 R
(1722446938.747346) can0 016#01 R
(1722446938.747469) can0 041#00 R
(1722446938.747607) can0 05B#0B07 R
(1722446938.747723) can0 014#00 R
(1722446938.747891) can0 05C#29072907 R
(1722446938.748009) can0 008#00 R
(1722446938.748129) can0 055#00 R
(1722446938.748247) can0 05D#00 R
(1722446938.762469) can0 00E#5D07 R
(1722446938.762637) can0 05C#5D075D07 R
(1722446938.762759) can0 041#00 R
(1722446938.762875) can0 016#01 R
(1722446938.762995) can0 015#00 R
(1722446938.763114) can0 017#00 R
(1722446938.763231) can0 056#00 R
(1722446938.773661) can0 007#00 R
(1722446938.777757) can0 056#00 R
(1722446938.777967) can0 00E#9407 R
(1722446938.778105) can0 00E#9407 R
(1722446938.778271) can0 05C#94079407 R
(1722446938.793381) can0 015#00 R
(1722446938.793498) can0 016#01 R
(1722446938.793619) can0 041#00 R
(1722446938.793735) can0 016#01 R
(1722446938.808919) can0 00D#E207 R
(1722446938.809051) can0 05B#E207 R
(1722446938.809167) can0 014#00 R
(1722446938.809284) can0 008#00 R
(1722446938.809457) can0 05C#02080208 R
(1722446938.809577) can0 055#00 R
(1722446938.809695) can0 05D#00 R
(1722446938.824225) can0 007#00 R
(1722446938.824412) can0 00E#3808 R
(1722446938.824580) can0 05C#38083808 R
(1722446938.824703) can0 041#00 R
(1722446938.824819) can0 016#01 R
(1722446938.824939) can0 015#00 R
(1722446938.825055) can0 017#00 R
(1722446938.825175) can0 056#00 R
(1722446938.839647) can0 056#00 R
(1722446938.839783) can0 00E#7208 R
(1722446938.839917) can0 00E#7208 R
(1722446938.855476) can0 015#00 R
(1722446938.855590) can0 016#01 R
(1722446938.855759) can0 05C#AA08AA08 R
(1722446938.855875) can0 016#01 R
(1722446938.856001) can0 041#00 R
(1722446938.856167) can0 05C#AA08AA08 R
(1722446938.871145) can0 00D#C408 R
(1722446938.871279) can0 05B#C408 R
(1722446938.871394) can0 014#00 R
(1722446938.871513) can0 008#00 R
(1722446938.871633) can0 055#00 R
(1722446938.871751) can0 05D#00 R
(1722446938.873926) can0 007#00 R
(1722446938.886096) can0 00E#1F09 R
(1722446938.886267) can0 05C#1F091F09 R
(1722446938.886389) can0 041#00 R
(1722446938.886505) can0 016#01 R
(1722446938.886627) can0 015#00 R
(1722446938.886742) can0 017#00 R
(1722446938.886863) can0 056#00 R
(1722446938.901784) can0 056#00 R
(1722446938.901918) can0 00E#5809 R
(1722446938.917111) can0 00E#9609 R
(1722446938.917274) can0 05C#96099609 R
(1722446938.917390) can0 016#01 R
(1722446938.917928) can0 015#00 R
(1722446938.918044) can0 016#01 R
(1722446938.918166) can0 041#00 R
(1722446938.918338) can0 05C#9A099A09 R
(1722446938.923599) can0 007#00 R
(1722446938.931836) can0 00D#AE09 R
(1722446938.931973) can0 05B#AE09 R
(1722446938.932086) can0 014#00 R
(1722446938.932207) can0 008#00 R
(1722446938.932324) can0 055#00 R
(1722446938.932442) can0 05D#00 R
(1722446938.946789) can0 00E#0D0A R
(1722446938.946957) can0 05C#0D0A0D0A R
(1722446938.947076) can0 041#00 R
(1722446938.947193) can0 016#01 R
(1722446938.947313) can0 015#00 R
(1722446938.947428) can0 017#00 R
(1722446938.947549) can0 056#00 R
(1722446938.962000) can0 056#00 R
(1722446938.962131) can0 00E#490A R
(1722446938.974167) can0 007#00 R
(1722446938.977118) can0 015#00 R
(1722446938.977236) can0 016#01 R
(1722446938.977358) can0 041#00 R
(1722446938.977492) can0 00E#860A R
(1722446938.977660) can0 05C#860A860A R
(1722446938.977776) can0 016#01 R
(1722446938.977944) can0 05C#860A860A R
(1722446938.992582) can0 00D#A30A R
(1722446938.992712) can0 05B#A30A R
(1722446938.992829) can0 014#00 R
(1722446938.992946) can0 008#00 R
(1722446938.993067) can0 055#00 R
(1722446938.993184) can0 05D#00 R
(1722446939.008185) can0 056#00 R
(1722446939.008316) can0 00E#070B R
(1722446939.008484) can0 05C#070B070B R
(1722446939.008607) can0 041#00 R
(1722446939.008725) can0 016#01 R
(1722446939.008843) can0 015#00 R
(1722446939.008959) can0 017#00 R
(1722446939.009078) can0 056#00 R
(1722446939.023239) can0 015#00 R
(1722446939.023370) can0 00E#460B R
(1722446939.023502) can0 00E#460B R
(1722446939.023668) can0 05C#460B460B R
(1722446939.038858) can0 016#01 R
(1722446939.038981) can0 041#00 R
(1722446939.039146) can0 05C#8A0B8A0B R
(1722446939.039262) can0 016#01 R
(1722446939.050031) can0 007#00 R
(1722446939.053488) can0 00D#A30B R
(1722446939.053615) can0 05B#A30B R
(1722446939.053730) can0 014#00 R
(1722446939.053849) can0 008#00 R
(1722446939.053969) can0 055#00 R
(1722446939.054087) can0 05D#00 R
(1722446939.069705) can0 00E#0B0C R
(1722446939.069871) can0 05C#0B0C0B0C R
(1722446939.069993) can0 041#00 R
(1722446939.070109) can0 016#01 R
(1722446939.070229) can0 015#00 R
(1722446939.070345) can0 017#00 R
(1722446939.070465) can0 056#00 R
(1722446939.084532) can0 056#00 R
(1722446939.084665) can0 00E#510C R
(1722446939.084798) can0 00E#510C R
(1722446939.099593) can0 05C#940C940C R
(1722446939.099707) can0 016#01 R
(1722446939.100532) can0 007#00 R
(1722446939.114950) can0 00D#AE0C R
(1722446939.115070) can0 015#00 R
(1722446939.115186) can0 016#02 R
(1722446939.115308) can0 041#00 R
(1722446939.115440) can0 05B#AE0C R
(1722446939.115604) can0 05C#D70CD70C R
(1722446939.115723) can0 014#00 R
(1722446939.115838) can0 008#00 R
(1722446939.115961) can0 055#00 R
(1722446939.116076) can0 05D#00 R
(1722446939.130944) can0 00E#1F0D R
(1722446939.131113) can0 05C#1F0D1F0D R
(1722446939.131234) can0 041#00 R
(1722446939.131350) can0 016#02 R
(1722446939.131473) can0 015#00 R
(1722446939.131587) can0 017#00 R
(1722446939.131709) can0 056#00 R
(1722446939.146219) can0 056#00 R
(1722446939.146349) can0 00E#630D R
(1722446939.150698) can0 007#00 R
(1722446939.161984) can0 015#00 R
(1722446939.162100) can0 016#02 R
(1722446939.162230) can0 00E#AD0D R
(1722446939.162392) can0 05C#AD0DAD0D R
(1722446939.162508) can0 016#02 R
(1722446939.177278) can0 041#00 R
(1722446939.177408) can0 00D#C90D R
(1722446939.177542) can0 05B#C90D R
(1722446939.177658) can0 014#00 R
(1722446939.177776) can0 008#00 R
(1722446939.177896) can0 055#00 R
(1722446939.178060) can0 05C#F30DF30D R
(1722446939.178178) can0 05D#00 R
(1722446939.193334) can0 00E#3E0E R
(1722446939.193507) can0 05C#3E0E3E0E R
(1722446939.193628) can0 041#00 R
(1722446939.193744) can0 016#02 R
(1722446939.193864) can0 015#00 R
(1722446939.193980) can0 017#00 R
(1722446939.194100) can0 056#00 R
(1722446939.201835) can0 007#00 R
(1722446939.207998) can0 056#00 R
(1722446939.208128) can0 00E#850E R
(1722446939.222752) can0 015#00 R
(1722446939.222884) can0 00E#CD0E R
(1722446939.223046) can0 05C#CD0ECD0E R
(1722446939.223164) can0 016#02 R
(1722446939.238098) can0 016#02 R
(1722446939.238220) can0 041#00 R
(1722446939.238352) can0 00D#EA0E R
(1722446939.238485) can0 05B#EA0E R
(1722446939.238602) can0 014#00 R
(1722446939.238720) can0 008#00 R
(1722446939.238840) can0 055#00 R
(1722446939.239004) can0 05C#150F150F R
(1722446939.239122) can0 05D#00 R
(1722446939.252510) can0 007#00 R
(1722446939.253791) can0 056#00 R
(1722446939.253928) can0 00E#5E0F R
(1722446939.254098) can0 05C#5E0F5E0F R
(1722446939.254221) can0 041#00 R
(1722446939.254336) can0 016#02 R
(1722446939.254456) can0 015#00 R
(1722446939.254572) can0 017#00 R
(1722446939.254693) can0 056#00 R
(1722446939.284306) can0 00E#F70F R
(1722446939.284438) can0 00E#F70F R
(1722446939.284602) can0 05C#F70FF70F R
(1722446939.299718) can0 015#00 R
(1722446939.299849) can0 00D#1A10 R
(1722446939.299965) can0 016#02 R
(1722446939.300088) can0 041#00 R
(1722446939.300217) can0 05B#1A10 R
(1722446939.300337) can0 014#00 R
(1722446939.300452) can0 008#00 R
(1722446939.300618) can0 05C#47104710 R
(1722446939.300745) can0 016#02 R
(1722446939.300854) can0 055#00 R
(1722446939.300972) can0 05D#00 R
(1722446939.301907) can0 007#00 R
(1722446939.314960) can0 00E#9310 R
(1722446939.315124) can0 05C#93109310 R
(1722446939.315246) can0 041#00 R
(1722446939.315364) can0 016#02 R
(1722446939.315484) can0 015#00 R
(1722446939.315600) can0 017#00 R
(1722446939.315720) can0 056#00 R
(1722446939.330082) can0 056#00 R
(1722446939.330214) can0 00E#DF10 R
(1722446939.330346) can0 00E#DF10 R
(1722446939.330516) can0 05C#DF10DF10 R
(1722446939.330632) can0 016#02 R
(1722446939.344966) can0 015#00 R
(1722446939.345082) can0 016#02 R
(1722446939.345204) can0 041#00 R
(1722446939.351571) can0 007#00 R
(1722446939.359708) can0 05C#7A117A11 R
(1722446939.359836) can0 00D#4B11 R
(1722446939.359965) can0 05B#4B11 R
(1722446939.360082) can0 014#00 R
(1722446939.360203) can0 008#00 R
(1722446939.360320) can0 055#00 R
(1722446939.360438) can0 05D#00 R
(1722446939.374972) can0 056#00 R
(1722446939.375104) can0 00E#C811 R
(1722446939.375272) can0 05C#C811C811 R
(1722446939.375394) can0 041#00 R
(1722446939.375510) can0 016#02 R
(1722446939.375630) can0 015#00 R
(1722446939.375746) can0 017#00 R
(1722446939.375866) can0 056#00 R
(1722446939.390242) can0 00E#1712 R
(1722446939.405674) can0 015#00 R
(1722446939.405790) can0 016#02 R
(1722446939.405922) can0 00E#6C12 R
(1722446939.406087) can0 05C#6C126C12 R
(1722446939.406203) can0 016#02 R
(1722446939.406328) can0 041#00 R
(1722446939.406492) can0 05C#6C126C12 R
(1722446939.411583) can0 007#00 R
(1722446939.421383) can0 00D#8C12 R
(1722446939.421516) can0 05B#8C12 R
(1722446939.421631) can0 014#00 R
(1722446939.421749) can0 008#00 R
(1722446939.421870) can0 055#00 R
(1722446939.421988) can0 05D#00 R
(1722446939.436278) can0 00E#0C13 R
(1722446939.436449) can0 05C#0C130C13 R
(1722446939.436568) can0 041#00 R
(1722446939.436683) can0 016#02 R
(1722446939.436804) can0 015#00 R
(1722446939.436923) can0 017#00 R
(1722446939.437040) can0 056#00 R
(1722446939.451963) can0 056#00 R
(1722446939.452118) can0 00E#6313 R
(1722446939.460758) can0 007#00 R
(1722446939.467703) can0 00E#B513 R
(1722446939.467967) can0 05C#B513B513 R
(1722446939.468085) can0 016#03 R
(1722446939.482670) can0 015#00 R
(1722446939.482805) can0 00D#DC13 R
(1722446939.482922) can0 016#03 R
(1722446939.483043) can0 041#00 R
(1722446939.483175) can0 05B#DC13 R
(1722446939.483291) can0 014#00 R
(1722446939.483409) can0 008#00 R
(1722446939.483529) can0 055#00 R
(1722446939.483702) can0 05C#08140814 R
(1722446939.483820) can0 05D#00 R
(1722446939.497525) can0 056#00 R
(1722446939.497657) can0 00E#6114 R
(1722446939.497819) can0 05C#61146114 R
(1722446939.497941) can0 041#00 R
(1722446939.498057) can0 016#03 R
(1722446939.498177) can0 015#00 R
(1722446939.498294) can0 017#00 R
(1722446939.498414) can0 056#00 R
(1722446939.511459) can0 007#00 R
(1722446939.527955) can0 00E#0915 R
(1722446939.528091) can0 00E#0915 R
(1722446939.528255) can0 05C#09150915 R
(1722446939.542689) can0 00D#2B15 R
(1722446939.542822) can0 05B#2B15 R
(1722446939.542935) can0 014#00 R
(1722446939.543058) can0 015#00 R
(1722446939.543172) can0 008#00 R
(1722446939.543292) can0 016#03 R
(1722446939.543410) can0 041#00 R
(1722446939.543527) can0 016#03 R
(1722446939.543647) can0 055#00 R
(1722446939.543812) can0 05C#5E155E15 R
(1722446939.543927) can0 05D#00 R
(1722446939.558523) can0 00E#B415 R
(1722446939.558689) can0 05C#B415B415 R
(1722446939.558806) can0 041#00 R
(1722446939.558922) can0 016#03 R
(1722446939.559042) can0 015#00 R
(1722446939.559158) can0 017#00 R
(1722446939.559280) can0 056#00 R
(1722446939.561368) can0 007#00 R
(1722446939.573407) can0 056#00 R
(1722446939.573540) can0 00E#0A16 R
(1722446939.573674) can0 00E#0A16 R
(1722446939.588338) can0 015#00 R
(1722446939.588456) can0 016#03 R
(1722446939.588619) can0 05C#61166116 R
(1722446939.588745) can0 016#03 R
(1722446939.603574) can0 041#00 R
(1722446939.603727) can0 05C#B916B916 R
(1722446939.603858) can0 00D#8A16 R
(1722446939.603988) can0 05B#8A16 R
(1722446939.604103) can0 014#00 R
(1722446939.604222) can0 008#00 R
(1722446939.604341) can0 055#00 R
(1722446939.604460) can0 05D#00 R
(1722446939.610891) can0 007#00 R
(1722446939.618966) can0 056#00 R
(1722446939.619098) can0 00E#1717 R
(1722446939.619261) can0 05C#17171717 R
(1722446939.619384) can0 041#00 R
(1722446939.619500) can0 016#03 R
(1722446939.619620) can0 015#00 R
(1722446939.619736) can0 017#00 R
(1722446939.619856) can0 056#00 R
(1722446939.633888) can0 00E#7017 R
(1722446939.649275) can0 015#00 R
(1722446939.649405) can0 00E#C917 R
(1722446939.649573) can0 05C#C917C917 R
(1722446939.649692) can0 016#03 R
(1722446939.660729) can0 007#00 R
(1722446939.665045) can0 00D#F317 R
(1722446939.665181) can0 05B#F317 R
(1722446939.665293) can0 014#00 R
(1722446939.665412) can0 008#00 R
(1722446939.665527) can0 016#03 R
(1722446939.665649) can0 041#00 R
(1722446939.665769) can0 055#00 R
(1722446939.665936) can0 05C#29182918 R
(1722446939.666051) can0 05D#00 R
(1722446939.680224) can0 00E#8418 R
(1722446939.680389) can0 05C#84188418 R
(1722446939.680512) can0 041#00 R
(1722446939.680628) can0 016#03 R
(1722446939.680759) can0 015#00 R
(1722446939.680864) can0 017#00 R
(1722446939.680984) can0 056#00 R
(1722446939.681104) can0 056#00 R
(1722446939.681236) can0 00E#8418 R
(1722446939.695941) can0 00E#E518 R
(1722446939.696104) can0 05C#E518E518 R
(1722446939.696222) can0 016#03 R
(1722446939.711003) can0 007#00 R
(1722446939.711172) can0 015#00 R
(1722446939.711287) can0 016#03 R
(1722446939.711410) can0 041#00 R
(1722446939.711576) can0 05C#41194119 R
(1722446939.726605) can0 00D#6C19 R
(1722446939.726740) can0 05B#6C19 R
(1722446939.726855) can0 014#00 R
(1722446939.726973) can0 008#00 R
(1722446939.727093) can0 055#00 R
(1722446939.727212) can0 05D#00 R
(1722446939.742014) can0 056#00 R
(1722446939.742148) can0 00E#001A R
(1722446939.742322) can0 05C#001A001A R
(1722446939.742444) can0 041#00 R
(1722446939.742559) can0 016#04 R
(1722446939.742680) can0 015#00 R
(1722446939.742799) can0 017#00 R
(1722446939.742916) can0 056#00 R
(1722446939.760722) can0 007#00 R
(1722446939.773082) can0 015#00 R
(1722446939.773338) can0 016#04 R
(1722446939.773460) can0 041#00 R
(1722446939.773592) can0 00E#C21A R
(1722446939.773724) can0 00E#C21A R
(1722446939.773886) can0 05C#C21AC21A R
(1722446939.789000) can0 05C#271B271B R
(1722446939.789116) can0 016#04 R
(1722446939.789269) can0 00D#EE1A R
(1722446939.789399) can0 05B#EE1A R
(1722446939.789515) can0 014#00 R
(1722446939.789633) can0 008#00 R
(1722446939.789753) can0 055#00 R
(1722446939.789872) can0 05D#00 R
(1722446939.804228) can0 00E#871B R
(1722446939.804390) can0 05C#871B871B R
(1722446939.804512) can0 041#00 R
(1722446939.804630) can0 016#04 R
(1722446939.804759) can0 015#00 R
(1722446939.804866) can0 017#00 R
(1722446939.804986) can0 056#00 R
(1722446939.811164) can0 007#00 R
(1722446939.819252) can0 056#00 R
(1722446939.819385) can0 00E#E71B R
(1722446939.819516) can0 00E#E71B R
(1722446939.835677) can0 015#00 R
(1722446939.835793) can0 016#04 R
(1722446939.835955) can0 05C#4E1C4E1C R
(1722446939.836072) can0 016#04 R
(1722446939.850969) can0 041#00 R
(1722446939.851132) can0 05C#B51CB51C R
(1722446939.851261) can0 00D#7B1C R
(1722446939.851391) can0 05B#7B1C R
(1722446939.851507) can0 014#00 R
(1722446939.851625) can0 008#00 R
(1722446939.851745) can0 055#00 R
(1722446939.851864) can0 05D#00 R
(1722446939.860618) can0 007#00 R
(1722446939.865699) can0 00E#171D R
(1722446939.865865) can0 05C#171D171D R
(1722446939.865986) can0 041#00 R
(1722446939.866103) can0 016#04 R
(1722446939.866222) can0 015#00 R
(1722446939.866339) can0 017#00 R
(1722446939.866458) can0 056#00 R
(1722446939.880635) can0 056#00 R
(1722446939.880768) can0 00E#731D R
(1722446939.895715) can0 015#00 R
(1722446939.895847) can0 00E#D61D R
(1722446939.896011) can0 05C#D61DD61D R
(1722446939.896127) can0 016#04 R
(1722446939.910602) can0 007#00 R
(1722446939.910739) can0 00D#041E R
(1722446939.910856) can0 016#04 R
(1722446939.910977) can0 041#00 R
(1722446939.911116) can0 05B#041E R
(1722446939.911231) can0 014#00 R
(1722446939.911350) can0 008#00 R
(1722446939.911469) can0 055#00 R
(1722446939.911637) can0 05C#401E401E R
(1722446939.911752) can0 05D#00 R
(1722446939.926865) can0 00E#A41E R
(1722446939.927026) can0 05C#A31EA31E R
(1722446939.927147) can0 041#00 R
(1722446939.927264) can0 016#04 R
(1722446939.927383) can0 015#00 R
(1722446939.927500) can0 017#00 R
(1722446939.927619) can0 056#00 R
(1722446939.941781) can0 056#00 R
(1722446939.941916) can0 00E#081F R
(1722446939.957512) can0 00E#7B1F R
(1722446939.957679) can0 05C#7B1F7B1F R
(1722446939.957795) can0 016#04 R
(1722446939.960758) can0 007#00 R
(1722446939.973244) can0 00D#A31F R
(1722446939.973363) can0 015#00 R
(1722446939.973480) can0 016#04 R
(1722446939.973601) can0 041#00 R
(1722446939.973733) can0 05B#A31F R
(1722446939.973849) can0 014#00 R
(1722446939.973968) can0 008#00 R
(1722446939.974087) can0 055#00 R
(1722446939.974260) can0 05C#E01FE01F R
(1722446939.974377) can0 05D#00 R
(1722446939.989254) can0 00E#4D20 R
(1722446939.989419) can0 05C#4D204D20 R
(1722446939.989541) can0 041#00 R
(1722446939.989662) can0 016#05 R
(1722446939.989780) can0 015#00 R
(1722446939.989896) can0 017#00 R
(1722446939.990017) can0 056#00 R
(1722446940.003333) can0 056#00 R
(1722446940.018787) can0 00E#1C21 R
(1722446940.018910) can0 00E#1C21 R
(1722446940.019073) can0 05C#1C211C21 R
(1722446940.027291) can0 007#00 R
(1722446940.034685) can0 00D#4C21 R
(1722446940.034815) can0 05B#4C21 R
(1722446940.034933) can0 014#00 R
(1722446940.035050) can0 008#00 R
(1722446940.035172) can0 015#00 R
(1722446940.035288) can0 016#05 R
(1722446940.035411) can0 041#00 R
(1722446940.035527) can0 016#05 R
(1722446940.035644) can0 055#00 R
(1722446940.035766) can0 05D#00 R
(1722446940.049646) can0 05C#F321F321 R
(1722446940.049765) can0 056#00 R
(1722446940.049898) can0 00E#F321 R
(1722446940.050062) can0 05C#F321F321 R
(1722446940.050184) can0 041#00 R
(1722446940.050306) can0 016#05 R
(1722446940.050425) can0 015#00 R
(1722446940.050539) can0 017#00 R
(1722446940.050660) can0 056#00 R
(1722446940.065160) can0 00E#5C22 R
(1722446940.065280) can0 00E#5C22 R
(1722446940.077086) can0 007#00 R
(1722446940.080334) can0 05C#C522C522 R
(1722446940.080457) can0 016#05 R
(1722446940.095736) can0 00D#F722 R
(1722446940.095854) can0 015#00 R
(1722446940.095970) can0 016#05 R
(1722446940.096104) can0 05B#F722 R
(1722446940.096217) can0 014#00 R
(1722446940.096335) can0 008#00 R
(1722446940.096454) can0 055#00 R
(1722446940.096574) can0 05D#00 R
(1722446940.110429) can0 041#00 R
(1722446940.110587) can0 05C#9A239A23 R
(1722446940.110719) can0 00E#9A23 R
(1722446940.110881) can0 05C#9A239A23 R
(1722446940.111005) can0 041#00 R
(1722446940.111122) can0 016#05 R
(1722446940.111243) can0 015#00 R
(1722446940.111359) can0 017#00 R
(1722446940.111479) can0 056#00 R
(1722446940.125693) can0 056#00 R
(1722446940.125824) can0 00E#0C24 R
(1722446940.127264) can0 007#00 R
(1722446940.140852) can0 00E#7124 R
(1722446940.141010) can0 05C#71247124 R
(1722446940.141132) can0 016#05 R
(1722446940.155851) can0 015#00 R
(1722446940.155985) can0 00D#A324 R
(1722446940.156116) can0 05B#A324 R
(1722446940.156233) can0 014#00 R
(1722446940.156350) can0 008#00 R
(1722446940.156471) can0 055#00 R
(1722446940.156589) can0 05D#00 R
(1722446940.171748) can0 016#05 R
(1722446940.171868) can0 041#00 R
(1722446940.172033) can0 05C#58255825 R
(1722446940.172164) can0 00E#5825 R
(1722446940.172333) can0 05C#58255825 R
(1722446940.172455) can0 041#00 R
(1722446940.172571) can0 016#05 R
(1722446940.172693) can0 015#00 R
(1722446940.172807) can0 017#00 R
(1722446940.172934) can0 056#00 R
(1722446940.177161) can0 007#00 R
(1722446940.187716) can0 056#00 R
(1722446940.187846) can0 00E#C625 R
(1722446940.202310) can0 00E#3326 R
(1722446940.202484) can0 05C#33263326 R
(1722446940.202597) can0 016#05 R
(1722446940.218344) can0 00D#6726 R
(1722446940.218471) can0 05B#6726 R
(1722446940.218586) can0 014#00 R
(1722446940.218705) can0 008#00 R
(1722446940.218824) can0 055#00 R
(1722446940.218942) can0 05D#00 R
(1722446940.227727) can0 007#00 R
(1722446940.234173) can0 015#00 R
(1722446940.234287) can0 016#06 R
(1722446940.234410) can0 041#00 R
(1722446940.234588) can0 05C#1F271F27 R
(1722446940.234715) can0 00E#1F27 R
(1722446940.234890) can0 05C#1F271F27 R
(1722446940.235008) can0 041#00 R
(1722446940.235125) can0 016#06 R
(1722446940.235244) can0 015#00 R
(1722446940.235360) can0 017#00 R
(1722446940.235480) can0 056#00 R
(1722446940.250026) can0 056#00 R
(1722446940.264478) can0 00E#0628 R
(1722446940.264609) can0 00E#0628 R
(1722446940.264805) can0 05C#06280628 R
(1722446940.277985) can0 007#00 R
(1722446940.280339) can0 016#06 R
(1722446940.280518) can0 00D#3A28 R
(1722446940.280646) can0 05B#3A28 R
(1722446940.280784) can0 014#00 R
(1722446940.280880) can0 008#00 R
(1722446940.280999) can0 055#00 R
(1722446940.281118) can0 05D#00 R
(1722446940.295654) can0 015#00 R
(1722446940.295762) can0 016#06 R
(1722446940.295892) can0 041#00 R
(1722446940.296016) can0 00E#EF28 R
(1722446940.296183) can0 05C#EF28EF28 R
(1722446940.296302) can0 041#00 R
(1722446940.296421) can0 016#06 R
(1722446940.296538) can0 015#00 R
(1722446940.296659) can0 017#00 R
(1722446940.296797) can0 056#00 R
(1722446940.311302) can0 05C#60296029 R
(1722446940.311417) can0 056#00 R
(1722446940.311552) can0 00E#6029 R
(1722446940.311683) can0 00E#6029 R
(1722446940.326817) can0 05C#DA29DA29 R
(1722446940.326930) can0 016#06 R
(1722446940.327596) can0 007#00 R
(1722446940.341466) can0 00D#082A R
(1722446940.341662) can0 05B#082A R
(1722446940.341782) can0 014#00 R
(1722446940.341895) can0 008#00 R
(1722446940.342019) can0 055#00 R
(1722446940.342134) can0 05D#00 R
(1722446940.357137) can0 015#00 R
(1722446940.357248) can0 016#06 R
(1722446940.357370) can0 056#00 R
(1722446940.357505) can0 00E#BF2A R
(1722446940.357673) can0 05C#BF2ABF2A R
(1722446940.357795) can0 041#00 R
(1722446940.357907) can0 016#06 R
(1722446940.358028) can0 015#00 R
(1722446940.358146) can0 017#00 R
(1722446940.358265) can0 056#00 R
(1722446940.373157) can0 041#00 R
(1722446940.373321) can0 05C#3A2B3A2B R
(1722446940.373453) can0 00E#3A2B R
(1722446940.377775) can0 007#00 R
(1722446940.388948) can0 00E#B62B R
(1722446940.389115) can0 05C#B62BB62B R
(1722446940.389225) can0 016#06 R
(1722446940.404166) can0 00D#EC2B R
(1722446940.404279) can0 015#00 R
(1722446940.404415) can0 05B#EC2B R
(1722446940.404525) can0 014#00 R
(1722446940.404651) can0 008#00 R
(1722446940.404793) can0 055#00 R
(1722446940.404890) can0 05D#00 R
(1722446940.420012) can0 016#06 R
(1722446940.420132) can0 041#00 R
(1722446940.420367) can0 05C#A72CA72C R
(1722446940.420496) can0 00E#A72C R
(1722446940.420659) can0 05C#A72CA72C R
(1722446940.420815) can0 041#00 R
(1722446940.420871) can0 016#06 R
(1722446940.421016) can0 015#00 R
(1722446940.421139) can0 017#00 R
(1722446940.421252) can0 056#00 R
(1722446940.430512) can0 007#00 R
(1722446940.435060) can0 056#00 R
(1722446940.435191) can0 00E#1D2D R
(1722446940.435406) can0 00E#1D2D R
(1722446940.435570) can0 05C#1D2D1D2D R
(1722446940.435683) can0 016#07 R
(1722446940.466626) can0 00D#D22D R
(1722446940.466760) can0 05B#D22D R
(1722446940.466869) can0 014#00 R
(1722446940.466988) can0 008#00 R
(1722446940.467109) can0 015#00 R
(1722446940.467223) can0 016#07 R
(1722446940.467346) can0 041#00 R
(1722446940.467466) can0 055#00 R
(1722446940.467634) can0 05C#192E192E R
(1722446940.467747) can0 05D#00 R
(1722446940.479566) can0 007#00 R
(1722446940.481697) can0 00E#902E R
(1722446940.481863) can0 05C#902E902E R
(1722446940.481984) can0 041#00 R
(1722446940.482100) can0 016#07 R
(1722446940.482219) can0 015#00 R
(1722446940.482336) can0 017#00 R
(1722446940.482456) can0 056#00 R
(1722446940.497372) can0 056#00 R
(1722446940.513007) can0 00E#872F R
(1722446940.513133) can0 00E#872F R
(1722446940.513301) can0 05C#872F872F R
(1722446940.527521) can0 00D#B72F R
(1722446940.527638) can0 015#00 R
(1722446940.527755) can0 016#07 R
(1722446940.527877) can0 041#00 R
(1722446940.528007) can0 05B#B72F R
(1722446940.528122) can0 014#00 R
(1722446940.528241) can0 008#00 R
(1722446940.528356) can0 016#07 R
(1722446940.528478) can0 055#00 R
(1722446940.528594) can0 05D#00 R
(1722446940.529277) can0 007#00 R
(1722446940.543021) can0 05C#78307830 R
(1722446940.543148) can0 00E#7830 R
(1722446940.543320) can0 05C#78307830 R
(1722446940.543436) can0 041#00 R
(1722446940.543553) can0 016#07 R
(1722446940.543673) can0 015#00 R
(1722446940.543789) can0 017#00 R
(1722446940.543908) can0 056#00 R
(1722446940.557810) can0 056#00 R
(1722446940.557945) can0 00E#E930 R
(1722446940.558077) can0 00E#E930 R
(1722446940.572593) can0 05C#6B316B31 R
(1722446940.572710) can0 016#07 R
(1722446940.579811) can0 007#00 R
(1722446940.588156) can0 00D#9C31 R
(1722446940.588284) can0 05B#9C31 R
(1722446940.588400) can0 014#00 R
(1722446940.588517) can0 008#00 R
(1722446940.588637) can0 015#00 R
(1722446940.588778) can0 016#07 R
(1722446940.588902) can0 055#00 R
(1722446940.588997) can0 05D#00 R
(1722446940.603878) can0 041#00 R
(1722446940.604044) can0 05C#68326832 R
(1722446940.604161) can0 056#00 R
(1722446940.604296) can0 00E#6832 R
(1722446940.604700) can0 05C#68326832 R
(1722446940.604793) can0 041#00 R
(1722446940.604942) can0 016#07 R
(1722446940.605055) can0 015#00 R
(1722446940.605172) can0 017#00 R
(1722446940.605293) can0 056#00 R
(1722446940.619307) can0 00E#E332 R
(1722446940.629930) can0 007#00 R
(1722446940.635267) can0 00E#6633 R
(1722446940.635430) can0 05C#66336633 R
(1722446940.635540) can0 016#08 R
(1722446940.650245) can0 015#00 R
(1722446940.650378) can0 00D#9833 R
(1722446940.650519) can0 05B#9833 R
(1722446940.650626) can0 014#00 R
(1722446940.650749) can0 008#00 R
(1722446940.650865) can0 055#00 R
(1722446940.650984) can0 05D#00 R
(1722446940.665291) can0 016#08 R
(1722446940.665409) can0 041#00 R
(1722446940.665578) can0 05C#5F345F34 R
(1722446940.665708) can0 00E#5F34 R
(1722446940.665881) can0 05C#5F345F34 R
(1722446940.665995) can0 041#00 R
(1722446940.666110) can0 016#08 R
(1722446940.666230) can0 015#00 R
(1722446940.666346) can0 017#00 R
(1722446940.666466) can0 056#00 R
(1722446940.680819) can0 056#00 R
(1722446940.680928) can0 007#00 R
(1722446940.681061) can0 00E#E434 R
(1722446940.696275) can0 00E#6935 R
(1722446940.696438) can0 05C#69356935 R
(1722446940.696549) can0 016#08 R
(1722446940.711896) can0 00D#9C35 R
(1722446940.712022) can0 05B#9C35 R
(1722446940.712140) can0 014#00 R
(1722446940.712253) can0 008#00 R
(1722446940.712378) can0 055#00 R
(1722446940.712491) can0 05D#00 R
(1722446940.727852) can0 015#00 R
(1722446940.727933) can0 016#08 R
(1722446940.728074) can0 041#00 R
(1722446940.728231) can0 05C#6E366E36 R
(1722446940.728367) can0 00E#6E36 R
(1722446940.728534) can0 05C#6E366E36 R
(1722446940.728644) can0 041#00 R
(1722446940.728791) can0 016#08 R
(1722446940.728886) can0 015#00 R
(1722446940.728994) can0 017#00 R
(1722446940.729116) can0 056#00 R
(1722446940.730262) can0 007#00 R
(1722446940.743264) can0 056#00 R
(1722446940.758513) can0 00E#7437 R
(1722446940.758646) can0 00E#7437 R
(1722446940.758809) can0 05C#74377437 R
(1722446940.774751) can0 00D#AF37 R
(1722446940.774876) can0 05B#AF37 R
(1722446940.774991) can0 016#08 R
(1722446940.775104) can0 014#00 R
(1722446940.775223) can0 008#00 R
(1722446940.775343) can0 055#00 R
(1722446940.775463) can0 05D#00 R
(1722446940.780604) can0 007#00 R
(1722446940.789302) can0 015#00 R
(1722446940.789415) can0 016#08 R
(1722446940.789536) can0 041#00 R
(1722446940.789668) can0 00E#7338 R
(1722446940.789833) can0 05C#73387338 R
(1722446940.789953) can0 041#00 R
(1722446940.790065) can0 016#08 R
(1722446940.790188) can0 015#00 R
(1722446940.790302) can0 017#00 R
(1722446940.790423) can0 056#00 R
(1722446940.804923) can0 05C#FC38FC38 R
(1722446940.805124) can0 056#00 R
(1722446940.805262) can0 00E#FC38 R
(1722446940.805390) can0 00E#FC38 R
(1722446940.820608) can0 05C#85398539 R
(1722446940.820719) can0 016#08 R
(1722446940.830450) can0 007#00 R
(1722446940.836321) can0 00D#B939 R
(1722446940.836450) can0 05B#B939 R
(1722446940.836565) can0 014#00 R
(1722446940.836682) can0 008#00 R
(1722446940.836819) can0 055#00 R
(1722446940.836920) can0 05D#00 R
(1722446940.851807) can0 015#00 R
(1722446940.851918) can0 016#09 R
(1722446940.852054) can0 00E#903A R
(1722446940.852222) can0 05C#903A903A R
(1722446940.852343) can0 041#00 R
(1722446940.852459) can0 016#09 R
(1722446940.852579) can0 015#00 R
(1722446940.852695) can0 017#00 R
(1722446940.852820) can0 056#00 R
(1722446940.867407) can0 041#00 R
(1722446940.867572) can0 05C#123B123B R
(1722446940.867694) can0 056#00 R
(1722446940.867824) can0 00E#123B R
(1722446940.881421) can0 007#00 R
(1722446940.883401) can0 00E#953B R
(1722446940.883565) can0 05C#943B943B R
(1722446940.883677) can0 016#09 R
(1722446940.898232) can0 00D#DA3B R
(1722446940.898360) can0 05B#DA3B R
(1722446940.898480) can0 014#00 R
(1722446940.898592) can0 008#00 R
(1722446940.898713) can0 055#00 R
(1722446940.898830) can0 05D#00 R
(1722446940.914029) can0 015#00 R
(1722446940.914149) can0 056#00 R
(1722446940.914281) can0 00E#A33C R
(1722446940.914444) can0 05C#A33CA33C R
(1722446940.914563) can0 041#00 R
(1722446940.914681) can0 016#09 R
(1722446940.914800) can0 015#00 R
(1722446940.914917) can0 017#00 R
(1722446940.915036) can0 056#00 R
(1722446940.929095) can0 016#09 R
(1722446940.929215) can0 041#00 R
(1722446940.929384) can0 05C#2F3D2F3D R
(1722446940.929515) can0 00E#2F3D R
(1722446940.930506) can0 007#00 R
(1722446940.943757) can0 00E#B33D R
(1722446940.943921) can0 05C#B33DB33D R
(1722446940.944032) can0 016#09 R
(1722446940.959733) can0 00D#F13D R
(1722446940.959864) can0 05B#F13D R
(1722446940.959980) can0 014#00 R
(1722446940.960098) can0 008#00 R
(1722446940.960218) can0 055#00 R
(1722446940.960336) can0 05D#00 R
(1722446940.975043) can0 015#00 R
(1722446940.975148) can0 016#09 R
(1722446940.975268) can0 041#00 R
(1722446940.975437) can0 05C#C53EC53E R
(1722446940.975565) can0 00E#C53E R
(1722446940.975733) can0 05C#C53EC53E R
(1722446940.975858) can0 041#00 R
(1722446940.975968) can0 016#09 R
(1722446940.976088) can0 015#00 R
(1722446940.976205) can0 017#00 R
(1722446940.976326) can0 056#00 R
(1722446940.980912) can0 007#00 R
(1722446940.990005) can0 056#00 R
(1722446940.990140) can0 00E#4A3F R
(1722446940.990274) can0 00E#4A3F R
(1722446940.990439) can0 05C#4A3F4A3F R
(1722446941.005599) can0 016#09 R
(1722446941.021115) can0 00D#0E40 R
(1722446941.021205) can0 015#00 R
(1722446941.021322) can0 016#0A R
(1722446941.021432) can0 041#00 R
(1722446941.021572) can0 05B#0E40 R
(1722446941.021684) can0 014#00 R
(1722446941.021806) can0 008#00 R
(1722446941.021920) can0 055#00 R
(1722446941.022040) can0 05D#00 R
(1722446941.033454) can0 007#00 R
(1722446941.036468) can0 05C#ED40ED40 R
(1722446941.036597) can0 00E#ED40 R
(1722446941.036802) can0 05C#ED40ED40 R
(1722446941.036875) can0 041#00 R
(1722446941.037005) can0 016#0A R
(1722446941.037124) can0 015#00 R
(1722446941.037243) can0 017#00 R
(1722446941.037357) can0 056#00 R
(1722446941.052134) can0 056#00 R
(1722446941.052271) can0 00E#7441 R
(1722446941.052398) can0 00E#7441 R
(1722446941.066710) can0 05C#FB41FB41 R
(1722446941.066904) can0 016#0A R
(1722446941.082423) can0 015#00 R
(1722446941.082534) can0 00D#3A42 R
(1722446941.082647) can0 016#0A R
(1722446941.082772) can0 05B#3A42 R
(1722446941.082893) can0 014#00 R
(1722446941.083008) can0 008#00 R
(1722446941.083135) can0 055#00 R
(1722446941.083254) can0 05D#00 R
(1722446941.084175) can0 007#00 R
(1722446941.098172) can0 041#00 R
(1722446941.098339) can0 05C#13431343 R
(1722446941.098472) can0 00E#1343 R
(1722446941.098634) can0 05C#13431343 R
(1722446941.098755) can0 041#00 R
(1722446941.098872) can0 016#0A R
(1722446941.098988) can0 015#00 R
(1722446941.099111) can0 017#00 R
(1722446941.099232) can0 056#00 R
(1722446941.114027) can0 056#00 R
(1722446941.114154) can0 00E#A443 R
(1722446941.128299) can0 00E#2344 R
(1722446941.128464) can0 05C#23442344 R
(1722446941.128577) can0 016#0A R
(1722446941.134364) can0 007#00 R
(1722446941.144546) can0 00D#6C44 R
(1722446941.144679) can0 05B#6C44 R
(1722446941.144804) can0 014#00 R
(1722446941.144911) can0 008#00 R
(1722446941.145033) can0 055#00 R
(1722446941.145156) can0 015#00 R
(1722446941.145270) can0 05D#00 R
(1722446941.160158) can0 016#0A R
(1722446941.160283) can0 041#00 R
(1722446941.160446) can0 05C#47454745 R
(1722446941.160569) can0 056#00 R
(1722446941.160698) can0 00E#4745 R
(1722446941.160862) can0 05C#47454745 R
(1722446941.160983) can0 041#00 R
(1722446941.161098) can0 016#0A R
(1722446941.161222) can0 015#00 R
(1722446941.161331) can0 017#00 R
(1722446941.161457) can0 056#00 R
(1722446941.175398) can0 00E#D945 R
(1722446941.185604) can0 007#00 R
(1722446941.191263) can0 00E#6346 R
(1722446941.191424) can0 05C#63466346 R
(1722446941.191536) can0 016#0A R
(1722446941.206798) can0 00D#A446 R
(1722446941.207027) can0 05B#A446 R
(1722446941.207140) can0 014#00 R
(1722446941.207259) can0 008#00 R
(1722446941.207379) can0 055#00 R
(1722446941.207496) can0 05D#00 R
(1722446941.222435) can0 015#00 R
(1722446941.222547) can0 016#0B R
(1722446941.222670) can0 041#00 R
(1722446941.222846) can0 05C#81478147 R
(1722446941.222971) can0 00E#8147 R
(1722446941.223143) can0 05C#81478147 R
(1722446941.223263) can0 041#00 R
(1722446941.223376) can0 016#0B R
(1722446941.223497) can0 015#00 R
(1722446941.223612) can0 017#00 R
(1722446941.223733) can0 056#00 R
(1722446941.236214) can0 007#00 R
(1722446941.237026) can0 056#00 R
(1722446941.252720) can0 00E#A048 R
(1722446941.252871) can0 00E#A048 R
(1722446941.253023) can0 05C#A048A048 R
(1722446941.267919) can0 00D#D848 R
(1722446941.268047) can0 05B#D848 R
(1722446941.268163) can0 014#00 R
(1722446941.268280) can0 008#00 R
(1722446941.268394) can0 016#0B R
(1722446941.268514) can0 055#00 R
(1722446941.268633) can0 05D#00 R
(1722446941.282369) can0 015#00 R
(1722446941.282533) can0 016#0B R
(1722446941.282658) can0 041#00 R
(1722446941.282791) can0 00E#AE49 R
(1722446941.282955) can0 05C#AE49AE49 R
(1722446941.283073) can0 041#00 R
(1722446941.283189) can0 016#0B R
(1722446941.283308) can0 015#00 R
(1722446941.283425) can0 017#00 R
(1722446941.283544) can0 056#00 R
(1722446941.286135) can0 007#00 R
(1722446941.297379) can0 05C#3A4A3A4A R
(1722446941.297495) can0 056#00 R
(1722446941.297626) can0 00E#3A4A R
(1722446941.297755) can0 00E#3A4A R
(1722446941.312876) can0 05C#CF4ACF4A R
(1722446941.312986) can0 016#0B R
(1722446941.327309) can0 00D#074B R
(1722446941.327441) can0 05B#074B R
(1722446941.327556) can0 014#00 R
(1722446941.327674) can0 008#00 R
(1722446941.327794) can0 055#00 R
(1722446941.327911) can0 05D#00 R
(1722446941.335454) can0 007#00 R
(1722446941.342633) can0 015#00 R
(1722446941.342745) can0 016#0B R
(1722446941.342875) can0 00E#E94B R
(1722446941.343045) can0 05C#E94BE94B R
(1722446941.343163) can0 041#00 R
(1722446941.343278) can0 016#0B R
(1722446941.343398) can0 015#00 R
(1722446941.343515) can0 017#00 R
(1722446941.343634) can0 056#00 R
(1722446941.358183) can0 041#00 R
(1722446941.358354) can0 05C#764C764C R
(1722446941.358461) can0 056#00 R
(1722446941.358599) can0 00E#764C R
(1722446941.373573) can0 00E#0D4D R
(1722446941.373739) can0 05C#0D4D0D4D R
(1722446941.373851) can0 016#0C R
(1722446941.385566) can0 007#00 R
(1722446941.388657) can0 00D#464D R
(1722446941.388796) can0 05B#464D R
(1722446941.388893) can0 014#00 R
(1722446941.389019) can0 008#00 R
(1722446941.389137) can0 055#00 R
(1722446941.389247) can0 05D#00 R
(1722446941.403706) can0 015#00 R
(1722446941.403828) can0 00E#294E R
(1722446941.403994) can0 05C#294E294E R
(1722446941.404116) can0 041#00 R
(1722446941.404227) can0 016#0C R
(1722446941.404351) can0 015#00 R
(1722446941.404474) can0 017#00 R
(1722446941.404587) can0 056#00 R
(1722446941.404706) can0 016#0C R
(1722446941.404823) can0 041#00 R
(1722446941.404989) can0 05C#294E294E R
(1722446941.405106) can0 056#00 R
(1722446941.405237) can0 00E#294E R
(1722446941.418545) can0 00E#B74E R
(1722446941.418717) can0 05C#B74EB74E R
(1722446941.418834) can0 016#0C R
(1722446941.435283) can0 007#00 R
(1722446941.448971) can0 00D#7F4F R
(1722446941.449104) can0 05B#7F4F R
(1722446941.449218) can0 014#00 R
(1722446941.449335) can0 008#00 R
(1722446941.449456) can0 055#00 R
(1722446941.449574) can0 05D#00 R
(1722446941.463963) can0 015#00 R
(1722446941.464078) can0 016#0C R
(1722446941.464199) can0 041#00 R
(1722446941.464372) can0 05C#64506450 R
(1722446941.464505) can0 00E#6450 R
(1722446941.464675) can0 05C#64506450 R
(1722446941.464811) can0 041#00 R
(1722446941.464907) can0 016#0C R
(1722446941.465029) can0 015#00 R
(1722446941.465144) can0 017#00 R
(1722446941.465265) can0 056#00 R
(1722446941.479645) can0 056#00 R
(1722446941.486394) can0 007#00 R
(1722446941.494630) can0 00E#8D51 R
(1722446941.494742) can0 00E#8D51 R
(1722446941.494915) can0 05C#8D518D51 R
(1722446941.509742) can0 00D#C651 R
(1722446941.509855) can0 016#0C R
(1722446941.509985) can0 05B#C651 R
(1722446941.510099) can0 014#00 R
(1722446941.510218) can0 008#00 R
(1722446941.510338) can0 055#00 R
(1722446941.510456) can0 05D#00 R
(1722446941.525981) can0 015#00 R
(1722446941.526072) can0 016#0C R
(1722446941.526144) can0 041#00 R
(1722446941.526302) can0 00E#B752 R
(1722446941.526453) can0 05C#B752B752 R
(1722446941.526572) can0 041#00 R
(1722446941.526684) can0 016#0C R
(1722446941.526807) can0 015#00 R
(1722446941.526922) can0 017#00 R
(1722446941.527043) can0 056#00 R
(1722446941.535701) can0 007#00 R
(1722446941.542012) can0 05C#47534753 R
(1722446941.542131) can0 056#00 R
(1722446941.542261) can0 00E#4753 R
(1722446941.542394) can0 00E#4753 R
(1722446941.555653) can0 05C#D853D853 R
(1722446941.555748) can0 016#0D R
(1722446941.571565) can0 00D#1C54 R
(1722446941.571695) can0 05B#1C54 R
(1722446941.571813) can0 014#00 R
(1722446941.571924) can0 008#00 R
(1722446941.572045) can0 055#00 R
(1722446941.572162) can0 05D#00 R
(1722446941.586092) can0 007#00 R
(1722446941.587295) can0 015#00 R
(1722446941.587408) can0 016#0D R
(1722446941.587528) can0 056#00 R
(1722446941.587663) can0 00E#0455 R
(1722446941.587830) can0 05C#04550455 R
(1722446941.587950) can0 041#00 R
(1722446941.588064) can0 016#0D R
(1722446941.588184) can0 015#00 R
(1722446941.588300) can0 017#00 R
(1722446941.588421) can0 056#00 R
(1722446941.602240) can0 041#00 R
(1722446941.602381) can0 05C#96559655 R
(1722446941.602512) can0 00E#9655 R
(1722446941.618552) can0 00E#3156 R
(1722446941.618712) can0 05C#31563156 R
(1722446941.618824) can0 016#0D R
(1722446941.633857) can0 00D#7556 R
(1722446941.633988) can0 05B#7556 R
(1722446941.634102) can0 014#00 R
(1722446941.634220) can0 008#00 R
(1722446941.634339) can0 055#00 R
(1722446941.634460) can0 05D#00 R
(1722446941.635716) can0 007#00 R
(1722446941.649872) can0 015#00 R
(1722446941.650006) can0 00E#5F57 R
(1722446941.650172) can0 05C#5F575F57 R
(1722446941.650293) can0 041#00 R
(1722446941.650405) can0 016#0D R
(1722446941.650527) can0 015#00 R
(1722446941.650642) can0 017#00 R
(1722446941.650763) can0 056#00 R
(1722446941.663998) can0 016#0D R
(1722446941.664115) can0 041#00 R
(1722446941.664287) can0 05C#F257F257 R
(1722446941.664401) can0 056#00 R
(1722446941.664533) can0 00E#F257 R
(1722446941.680247) can0 00E#8E58 R
(1722446941.680405) can0 05C#8E588E58 R
(1722446941.680519) can0 016#0D R
(1722446941.685524) can0 007#00 R
(1722446941.695957) can0 00D#DD58 R
(1722446941.696088) can0 05B#DD58 R
(1722446941.696204) can0 014#00 R
(1722446941.696320) can0 008#00 R
(1722446941.696445) can0 055#00 R
(1722446941.696557) can0 05D#00 R
(1722446941.712593) can0 00E#C859 R
(1722446941.712762) can0 05C#C859C859 R
(1722446941.712867) can0 041#00 R
(1722446941.712980) can0 016#0E R
(1722446941.713104) can0 015#00 R
(1722446941.713215) can0 017#00 R
(1722446941.713337) can0 056#00 R
(1722446941.727252) can0 015#00 R
(1722446941.727365) can0 016#0E R
(1722446941.727486) can0 041#00 R
(1722446941.727649) can0 05C#5C5A5C5A R
(1722446941.727773) can0 056#00 R
(1722446941.738559) can0 007#00 R
(1722446941.742926) can0 00E#F95A R
(1722446941.743055) can0 00E#F95A R
(1722446941.743224) can0 05C#F95AF95A R
(1722446941.759236) can0 016#0E R
(1722446941.759440) can0 00D#3E5B R
(1722446941.759570) can0 05B#3E5B R
(1722446941.759686) can0 014#00 R
(1722446941.759803) can0 008#00 R
(1722446941.759928) can0 055#00 R
(1722446941.760043) can0 05D#00 R
(1722446941.775032) can0 00E#355C R
(1722446941.775203) can0 05C#355C355C R
(1722446941.775310) can0 041#00 R
(1722446941.775433) can0 016#0E R
(1722446941.775547) can0 015#00 R
(1722446941.775669) can0 017#00 R
(1722446941.775783) can0 056#00 R
(1722446941.789330) can0 007#00 R
(1722446941.790299) can0 015#00 R
(1722446941.790412) can0 016#0E R
(1722446941.790534) can0 041#00 R
(1722446941.790653) can0 056#00 R
(1722446941.790785) can0 00E#C95C R
(1722446941.790921) can0 00E#C95C R
(1722446941.805573) can0 05C#685D685D R
(1722446941.805730) can0 05C#685D685D R
(1722446941.805842) can0 016#0E R
(1722446941.821540) can0 00D#A35D R
(1722446941.821646) can0 05B#A35D R
(1722446941.821769) can0 014#00 R
(1722446941.821883) can0 008#00 R
(1722446941.822004) can0 055#00 R
(1722446941.822121) can0 05D#00 R
(1722446941.835678) can0 00E#925E R
(1722446941.835844) can0 05C#925E925E R
(1722446941.835961) can0 041#00 R
(1722446941.836077) can0 016#0E R
(1722446941.836198) can0 015#00 R
(1722446941.836315) can0 017#00 R
(1722446941.836433) can0 056#00 R
(1722446941.839544) can0 007#00 R
(1722446941.851071) can0 056#00 R
(1722446941.851201) can0 00E#275F R
(1722446941.866536) can0 015#00 R
(1722446941.866675) can0 00E#BC5F R
(1722446941.866838) can0 05C#BC5FBC5F R
(1722446941.866949) can0 016#0E R
(1722446941.881533) can0 016#0F R
(1722446941.881668) can0 00D#0260 R
(1722446941.881788) can0 041#00 R
(1722446941.881929) can0 05B#0260 R
(1722446941.882035) can0 014#00 R
(1722446941.882160) can0 008#00 R
(1722446941.882275) can0 055#00 R
(1722446941.882448) can0 05C#5C605C60 R
(1722446941.882559) can0 05D#00 R
(1722446941.890673) can0 007#00 R
(1722446941.897240) can0 056#00 R
(1722446941.897373) can0 00E#FB60 R
(1722446941.897547) can0 05C#FB60FB60 R
(1722446941.897673) can0 041#00 R
(1722446941.897783) can0 016#0F R
(1722446941.897909) can0 015#00 R
(1722446941.898019) can0 017#00 R
(1722446941.898140) can0 056#00 R
(1722446941.911724) can0 00E#7D61 R
(1722446941.926625) can0 00E#1D62 R
(1722446941.926777) can0 05C#1D621D62 R
(1722446941.926892) can0 016#0F R
(1722446941.940684) can0 007#00 R
(1722446941.941611) can0 00D#5962 R
(1722446941.941744) can0 05B#5962 R
(1722446941.941859) can0 014#00 R
(1722446941.941977) can0 008#00 R
(1722446941.942097) can0 015#00 R
(1722446941.942213) can0 016#0F R
(1722446941.942335) can0 041#00 R
(1722446941.942456) can0 055#00 R
(1722446941.942624) can0 05C#A962A962 R
(1722446941.942737) can0 05D#00 R
(1722446941.957670) can0 00E#4A63 R
(1722446941.957844) can0 05C#4A634A63 R
(1722446941.957955) can0 041#00 R
(1722446941.958072) can0 016#0F R
(1722446941.958192) can0 015#00 R
(1722446941.958311) can0 017#00 R
(1722446941.958428) can0 056#00 R
(1722446941.971639) can0 056#00 R
(1722446941.971845) can0 00E#E063 R
(1722446941.971984) can0 00E#E063 R
(1722446941.972148) can0 05C#E063E063 R
(1722446941.987559) can0 015#00 R
(1722446941.987679) can0 016#0F R
(1722446941.987796) can0 041#00 R
(1722446941.987919) can0 016#0F R
(1722446941.988081) can0 05C#81648164 R
(1722446941.996854) can0 007#00 R
(1722446942.003169) can0 00D#C864 R
(1722446942.003302) can0 05B#C864 R
(1722446942.003414) can0 014#00 R
(1722446942.003534) can0 008#00 R
(1722446942.003654) can0 055#00 R
(1722446942.003772) can0 05D#00 R
(1722446942.018526) can0 00E#B965 R
(1722446942.018686) can0 05C#B965B965 R
(1722446942.018811) can0 041#00 R
(1722446942.018932) can0 016#0F R
(1722446942.019045) can0 015#00 R
(1722446942.019167) can0 017#00 R
(1722446942.019282) can0 056#00 R
(1722446942.033613) can0 056#00 R
(1722446942.033737) can0 00E#5066 R
(1722446942.033862) can0 00E#5066 R
(1722446942.045579) can0 007#00 R
(1722446942.048886) can0 015#00 R
(1722446942.049054) can0 05C#E866E866 R
(1722446942.049164) can0 016#10 R
(1722446942.063982) can0 016#10 R
(1722446942.064109) can0 00D#2467 R
(1722446942.064231) can0 041#00 R
(1722446942.064378) can0 05B#2467 R
(1722446942.064473) can0 014#00 R
(1722446942.064648) can0 05C#7F677F67 R
(1722446942.064804) can0 008#00 R
(1722446942.064862) can0 055#00 R
(1722446942.065006) can0 05D#00 R
(1722446942.080028) can0 00E#2168 R
(1722446942.080184) can0 05C#21682168 R
(1722446942.080307) can0 041#00 R
(1722446942.080423) can0 016#10 R
(1722446942.080547) can0 015#00 R
(1722446942.080658) can0 017#00 R
(1722446942.080809) can0 056#00 R
(1722446942.080907) can0 056#00 R
(1722446942.081036) can0 00E#2168 R
(1722446942.095847) can0 007#00 R
(1722446942.096037) can0 00E#C368 R
(1722446942.096203) can0 05C#C368C368 R
(1722446942.096309) can0 016#10 R
(1722446942.111307) can0 015#00 R
(1722446942.111418) can0 016#10 R
(1722446942.111539) can0 041#00 R
(1722446942.111703) can0 05C#5B695B69 R
(1722446942.126974) can0 00D#A269 R
(1722446942.127106) can0 05B#A269 R
(1722446942.127221) can0 014#00 R
(1722446942.127339) can0 008#00 R
(1722446942.127461) can0 055#00 R
(1722446942.127579) can0 05D#00 R
(1722446942.143443) can0 00E#9F6A R
(1722446942.143593) can0 05C#9F6A9F6A R
(1722446942.143714) can0 041#00 R
(1722446942.143826) can0 016#10 R
(1722446942.143947) can0 015#00 R
(1722446942.144063) can0 017#00 R
(1722446942.144184) can0 056#00 R
(1722446942.146015) can0 007#00 R
(1722446942.158273) can0 056#00 R
(1722446942.158403) can0 00E#386B R
(1722446942.173718) can0 015#00 R
(1722446942.173831) can0 016#10 R
(1722446942.173954) can0 041#00 R
(1722446942.174086) can0 00E#DA6B R
(1722446942.174251) can0 05C#DA6BDA6B R
(1722446942.174363) can0 016#10 R
(1722446942.174533) can0 05C#DA6BDA6B R
(1722446942.188573) can0 00D#176C R
(1722446942.188702) can0 05B#176C R
(1722446942.188848) can0 014#00 R
(1722446942.188924) can0 008#00 R
(1722446942.189058) can0 055#00 R
(1722446942.189173) can0 05D#00 R
(1722446942.196540) can0 007#00 R
(1722446942.203848) can0 00E#0B6D R
(1722446942.204020) can0 05C#0B6D0B6D R
(1722446942.204133) can0 041#00 R
(1722446942.204248) can0 016#11 R
(1722446942.204367) can0 015#00 R
(1722446942.204485) can0 017#00 R
(1722446942.204604) can0 056#00 R
(1722446942.219142) can0 056#00 R
(1722446942.235127) can0 015#00 R
(1722446942.235348) can0 00E#476E R
(1722446942.235480) can0 00E#476E R
(1722446942.235644) can0 05C#476E476E R
(1722446942.247513) can0 007#00 R
(1722446942.250873) can0 016#11 R
(1722446942.250992) can0 041#00 R
(1722446942.251130) can0 00D#8F6E R
(1722446942.251257) can0 05B#8F6E R
(1722446942.251373) can0 014#00 R
(1722446942.251490) can0 008#00 R
(1722446942.251611) can0 055#00 R
(1722446942.251782) can0 05C#E06EE06E R
(1722446942.251893) can0 016#11 R
(1722446942.252011) can0 05D#00 R
(1722446942.265535) can0 00E#846F R
(1722446942.265695) can0 05C#836F836F R
(1722446942.265821) can0 041#00 R
(1722446942.265933) can0 016#11 R
(1722446942.266054) can0 015#00 R
(1722446942.266169) can0 017#00 R
(1722446942.266292) can0 056#00 R
(1722446942.281296) can0 056#00 R
(1722446942.281423) can0 00E#1D70 R
(1722446942.281555) can0 00E#1D70 R
(1722446942.296275) can0 05C#B670B670 R
(1722446942.296389) can0 016#11 R
(1722446942.296878) can0 007#00 R
(1722446942.311088) can0 015#00 R
(1722446942.311218) can0 00D#F370 R
(1722446942.311331) can0 016#11 R
(1722446942.311463) can0 05B#F370 R
(1722446942.311585) can0 041#00 R
(1722446942.311701) can0 014#00 R
(1722446942.311819) can0 008#00 R
(1722446942.311939) can0 055#00 R
(1722446942.312110) can0 05C#4F714F71 R
(1722446942.312218) can0 05D#00 R
(1722446942.326840) can0 00E#F371 R
(1722446942.327009) can0 05C#F371F371 R
(1722446942.327123) can0 041#00 R
(1722446942.327237) can0 016#11 R
(1722446942.327361) can0 015#00 R
(1722446942.327475) can0 017#00 R
(1722446942.327595) can0 056#00 R
(1722446942.342872) can0 056#00 R
(1722446942.342998) can0 00E#9772 R
(1722446942.346088) can0 007#00 R
(1722446942.358506) can0 00E#3B73 R
(1722446942.358675) can0 05C#3B733B73 R
(1722446942.358779) can0 016#12 R
(1722446942.373601) can0 015#00 R
(1722446942.373731) can0 00D#7873 R
(1722446942.373845) can0 016#12 R
(1722446942.373967) can0 041#00 R
(1722446942.374100) can0 05B#7873 R
(1722446942.374214) can0 014#00 R
(1722446942.374334) can0 008#00 R
(1722446942.374452) can0 055#00 R
(1722446942.374571) can0 05D#00 R
(1722446942.389278) can0 05C#78747874 R
(1722446942.389398) can0 056#00 R
(1722446942.389530) can0 00E#7874 R
(1722446942.389696) can0 05C#78747874 R
(1722446942.389815) can0 041#00 R
(1722446942.389932) can0 016#12 R
(1722446942.390051) can0 015#00 R
(1722446942.390169) can0 017#00 R
(1722446942.390289) can0 056#00 R
(1722446942.399028) can0 007#00 R
(1722446942.404511) can0 00E#1275 R
(1722446942.419620) can0 00E#AC75 R
(1722446942.419853) can0 05C#AC75AC75 R
(1722446942.419958) can0 016#12 R
(1722446942.420082) can0 015#00 R
(1722446942.420195) can0 016#12 R
(1722446942.435028) can0 00D#EA75 R
(1722446942.435146) can0 041#00 R
(1722446942.435278) can0 05B#EA75 R
(1722446942.435392) can0 014#00 R
(1722446942.435511) can0 008#00 R
(1722446942.435630) can0 055#00 R
(1722446942.435798) can0 05C#46764676 R
(1722446942.435914) can0 05D#00 R
(1722446942.448981) can0 007#00 R
(1722446942.450589) can0 00E#EA76 R
(1722446942.450753) can0 05C#EA76EA76 R
(1722446942.450874) can0 041#00 R
(1722446942.450991) can0 016#12 R
(1722446942.451111) can0 015#00 R
(1722446942.451228) can0 017#00 R
(1722446942.451347) can0 056#00 R
(1722446942.466136) can0 056#00 R
(1722446942.481874) can0 015#00 R
(1722446942.482001) can0 00E#2978 R
(1722446942.482132) can0 00E#2978 R
(1722446942.482299) can0 05C#29782978 R
(1722446942.496886) can0 016#12 R
(1722446942.497013) can0 00D#6678 R
(1722446942.497136) can0 041#00 R
(1722446942.497265) can0 05B#6678 R
(1722446942.497381) can0 014#00 R
(1722446942.497498) can0 008#00 R
(1722446942.497620) can0 055#00 R
(1722446942.497787) can0 05C#C378C378 R
(1722446942.497901) can0 016#12 R
(1722446942.498017) can0 05D#00 R
(1722446942.498808) can0 007#00 R
(1722446942.513466) can0 056#00 R
(1722446942.513593) can0 00E#6779 R
(1722446942.513834) can0 05C#67796779 R
(1722446942.513951) can0 041#00 R
(1722446942.514066) can0 016#12 R
(1722446942.514186) can0 015#00 R
(1722446942.514301) can0 017#00 R
(1722446942.514421) can0 056#00 R
(1722446942.528989) can0 00E#0C7A R
(1722446942.529120) can0 00E#0C7A R
(1722446942.543637) can0 05C#A67AA67A R
(1722446942.543755) can0 016#13 R
(1722446942.548363) can0 007#00 R
(1722446942.559584) can0 015#00 R
(1722446942.559713) can0 00D#EE7A R
(1722446942.559821) can0 016#13 R
(1722446942.559946) can0 041#00 R
(1722446942.560075) can0 05B#EE7A R
(1722446942.560242) can0 05C#4B7B4A7B R
(1722446942.560352) can0 014#00 R
(1722446942.560472) can0 008#00 R
(1722446942.560591) can0 055#00 R
(1722446942.560709) can0 05D#00 R
(1722446942.574946) can0 00E#E57B R
(1722446942.575120) can0 05C#E57BE57B R
(1722446942.575226) can0 041#00 R
(1722446942.575344) can0 016#13 R
(1722446942.575461) can0 015#00 R
(1722446942.575578) can0 017#00 R
(1722446942.575698) can0 056#00 R
(1722446942.589258) can0 056#00 R
(1722446942.589392) can0 00E#7F7C R
(1722446942.599290) can0 007#00 R
(1722446942.604501) can0 00E#1A7D R
(1722446942.604664) can0 05C#1A7D1A7D R
(1722446942.604817) can0 016#13 R
(1722446942.620242) can0 00D#577D R
(1722446942.620357) can0 015#00 R
(1722446942.620474) can0 016#13 R
(1722446942.620594) can0 041#00 R
(1722446942.620770) can0 05B#577D R
(1722446942.620828) can0 014#00 R
(1722446942.620968) can0 008#00 R
(1722446942.621086) can0 055#00 R
(1722446942.621203) can0 05D#00 R
(1722446942.635685) can0 05C#597E597E R
(1722446942.635815) can0 00E#597E R
(1722446942.635986) can0 05C#597E597E R
(1722446942.636104) can0 041#00 R
(1722446942.636220) can0 016#13 R
(1722446942.636339) can0 015#00 R
(1722446942.636455) can0 017#00 R
(1722446942.636575) can0 056#00 R
(1722446942.636695) can0 056#00 R
(1722446942.636840) can0 00E#597E R
(1722446942.648876) can0 007#00 R
(1722446942.650967) can0 00E#F37E R
(1722446942.651132) can0 05C#F37EF37E R
(1722446942.651249) can0 016#13 R
(1722446942.666305) can0 015#00 R
(1722446942.666419) can0 016#13 R
(1722446942.666542) can0 041#00 R
(1722446942.666713) can0 05C#987F987F R
(1722446942.681771) can0 00D#D67F R
(1722446942.681886) can0 05B#D67F R
(1722446942.682004) can0 014#00 R
(1722446942.682121) can0 008#00 R
(1722446942.682244) can0 055#00 R
(1722446942.682361) can0 05D#00 R
