(1722447025.182618) can0 015#01 R
(1722447025.196900) can0 016#22 R
(1722447025.197035) can0 041#01 R
(1722447025.197198) can0 05C#36DB36DB R
(1722447025.197311) can0 056#01 R
(1722447025.197442) can0 00E#36DB R
(1722447025.197570) can0 00E#36DB R
(1722447025.197742) can0 05C#36DB36DB R
(1722447025.211890) can0 00D#62DB R
(1722447025.212003) can0 016#22 R
(1722447025.212131) can0 05B#62DB R
(1722447025.212251) can0 014#01 R
(1722447025.212366) can0 008#01 R
(1722447025.212489) can0 055#01 R
(1722447025.212601) can0 05D#01 R
(1722447025.221514) can0 007#01 R
(1722447025.227507) can0 00E#0EDC R
(1722447025.227671) can0 05C#0EDC0EDC R
(1722447025.227789) can0 041#01 R
(1722447025.227903) can0 016#22 R
(1722447025.228019) can0 015#01 R
(1722447025.228137) can0 017#01 R
(1722447025.228254) can0 056#01 R
(1722447025.242901) can0 00E#80DC R
(1722447025.243033) can0 00E#80DC R
(1722447025.243149) can0 015#01 R
(1722447025.243264) can0 016#22 R
(1722447025.243381) can0 041#01 R
(1722447025.243548) can0 05C#80DC80DC R
(1722447025.243663) can0 056#01 R
(1722447025.243830) can0 05C#80DC80DC R
(1722447025.243943) can0 016#22 R
(1722447025.271101) can0 007#01 R
(1722447025.274758) can0 00D#1CDD R
(1722447025.275166) can0 05B#23DD R
(1722447025.275286) can0 014#01 R
(1722447025.275400) can0 008#01 R
(1722447025.275518) can0 055#01 R
(1722447025.275637) can0 05D#01 R
(1722447025.289512) can0 00E#C5DD R
(1722447025.289676) can0 05C#C5DDC5DD R
(1722447025.289793) can0 041#01 R
(1722447025.289908) can0 016#22 R
(1722447025.290023) can0 015#01 R
(1722447025.290143) can0 017#01 R
(1722447025.290257) can0 056#01 R
(1722447025.305122) can0 015#01 R
(1722447025.305239) can0 016#22 R
(1722447025.305399) can0 05C#35DE34DE R
(1722447025.305519) can0 056#01 R
(1722447025.305647) can0 00E#35DE R
(1722447025.320389) can0 041#01 R
(1722447025.320599) can0 00E#9DDE R
(1722447025.320781) can0 05C#9DDE9DDE R
(1722447025.320877) can0 016#22 R
(1722447025.321084) can0 007#01 R
(1722447025.335638) can0 00D#CDDE R
(1722447025.335768) can0 05B#CDDE R
(1722447025.335882) can0 014#01 R
(1722447025.336001) can0 008#01 R
(1722447025.336114) can0 055#01 R
(1722447025.336233) can0 05D#01 R
(1722447025.352158) can0 00E#73DF R
(1722447025.352321) can0 05C#73DF73DF R
(1722447025.352440) can0 041#01 R
(1722447025.352554) can0 016#22 R
(1722447025.352670) can0 015#01 R
(1722447025.352791) can0 017#01 R
(1722447025.352903) can0 056#01 R
(1722447025.368162) can0 015#01 R
(1722447025.368333) can0 05C#E0DFE0DF R
(1722447025.368448) can0 056#01 R
(1722447025.368586) can0 00E#E0DF R
(1722447025.371628) can0 007#01 R
(1722447025.383707) can0 016#23 R
(1722447025.383819) can0 041#01 R
(1722447025.383956) can0 00E#4DE0 R
(1722447025.384119) can0 05C#4DE04DE0 R
(1722447025.384246) can0 016#23 R
(1722447025.399190) can0 00D#7CE0 R
(1722447025.399324) can0 05B#7CE0 R
(1722447025.399440) can0 014#01 R
(1722447025.399557) can0 008#01 R
(1722447025.399672) can0 055#01 R
(1722447025.399791) can0 05D#01 R
(1722447025.414251) can0 00E#17E1 R
(1722447025.414478) can0 05C#17E117E1 R
(1722447025.414605) can0 041#01 R
(1722447025.414709) can0 016#23 R
(1722447025.414829) can0 015#01 R
(1722447025.414943) can0 017#01 R
(1722447025.415063) can0 056#01 R
(1722447025.420953) can0 007#01 R
(1722447025.429267) can0 05C#82E182E1 R
(1722447025.429382) can0 056#01 R
(1722447025.444798) can0 015#01 R
(1722447025.444910) can0 016#23 R
(1722447025.445027) can0 041#01 R
(1722447025.445160) can0 00E#E6E1 R
(1722447025.445290) can0 00E#E6E1 R
(1722447025.445457) can0 05C#E6E1E6E1 R
(1722447025.460443) can0 00D#14E2 R
(1722447025.460559) can0 016#23 R
(1722447025.460687) can0 05B#14E2 R
(1722447025.460805) can0 014#01 R
(1722447025.460919) can0 008#01 R
(1722447025.461036) can0 055#01 R
(1722447025.461154) can0 05D#01 R
(1722447025.474662) can0 007#01 R
(1722447025.475461) can0 00E#B2E2 R
(1722447025.475624) can0 05C#B2E2B2E2 R
(1722447025.475740) can0 041#01 R
(1722447025.475855) can0 016#23 R
(1722447025.475970) can0 015#01 R
(1722447025.476089) can0 017#01 R
(1722447025.476204) can0 056#01 R
(1722447025.491223) can0 015#01 R
(1722447025.491338) can0 016#23 R
(1722447025.491456) can0 041#01 R
(1722447025.491625) can0 05C#14E314E3 R
(1722447025.491747) can0 00E#14E3 R
(1722447025.491877) can0 00E#14E3 R
(1722447025.506956) can0 056#01 R
(1722447025.507127) can0 05C#7CE37CE3 R
(1722447025.507238) can0 016#23 R
(1722447025.522094) can0 00D#AAE3 R
(1722447025.522224) can0 05B#AAE3 R
(1722447025.522322) can0 014#01 R
(1722447025.522450) can0 008#01 R
(1722447025.522571) can0 055#01 R
(1722447025.522652) can0 05D#01 R
(1722447025.524394) can0 007#01 R
(1722447025.537466) can0 00E#44E4 R
(1722447025.537659) can0 05C#44E444E4 R
(1722447025.537771) can0 041#01 R
(1722447025.537888) can0 016#23 R
(1722447025.537996) can0 015#01 R
(1722447025.538117) can0 017#01 R
(1722447025.538230) can0 056#01 R
(1722447025.553078) can0 015#01 R
(1722447025.553189) can0 016#23 R
(1722447025.553358) can0 05C#A4E4A3E4 R
(1722447025.553481) can0 00E#A4E4 R
(1722447025.567741) can0 041#01 R
(1722447025.567854) can0 056#01 R
(1722447025.567990) can0 00E#03E5 R
(1722447025.568166) can0 05C#03E503E5 R
(1722447025.568286) can0 016#23 R
(1722447025.582899) can0 00D#2FE5 R
(1722447025.583032) can0 05B#2FE5 R
(1722447025.583128) can0 014#01 R
(1722447025.583250) can0 008#01 R
(1722447025.583357) can0 055#01 R
(1722447025.583479) can0 05D#01 R
(1722447025.584900) can0 007#01 R
(1722447025.598608) can0 00E#C5E5 R
(1722447025.598771) can0 05C#C5E5C5E5 R
(1722447025.598888) can0 041#01 R
(1722447025.599001) can0 016#23 R
(1722447025.599118) can0 015#01 R
(1722447025.599244) can0 017#01 R
(1722447025.599354) can0 056#01 R
(1722447025.614127) can0 015#01 R
(1722447025.614289) can0 05C#29E629E6 R
(1722447025.614416) can0 00E#29E6 R
(1722447025.629137) can0 016#24 R
(1722447025.629255) can0 041#01 R
(1722447025.629372) can0 056#01 R
(1722447025.629500) can0 00E#86E6 R
(1722447025.629663) can0 05C#86E686E6 R
(1722447025.629780) can0 016#24 R
(1722447025.633951) can0 007#01 R
(1722447025.644285) can0 00D#ABE6 R
(1722447025.644414) can0 05B#ABE6 R
(1722447025.644531) can0 014#01 R
(1722447025.644646) can0 008#01 R
(1722447025.644788) can0 055#01 R
(1722447025.644883) can0 05D#01 R
(1722447025.659612) can0 00E#3DE7 R
(1722447025.659772) can0 05C#3DE73DE7 R
(1722447025.659897) can0 041#01 R
(1722447025.660009) can0 016#24 R
(1722447025.660128) can0 015#01 R
(1722447025.660245) can0 017#01 R
(1722447025.660359) can0 056#01 R
(1722447025.675715) can0 05C#9EE79EE7 R
(1722447025.683970) can0 007#01 R
(1722447025.691189) can0 015#01 R
(1722447025.691300) can0 016#24 R
(1722447025.691416) can0 041#01 R
(1722447025.691533) can0 056#01 R
(1722447025.691667) can0 00E#FFE7 R
(1722447025.691804) can0 00E#FFE7 R
(1722447025.691974) can0 05C#FFE7FFE7 R
(1722447025.705952) can0 016#24 R
(1722447025.706093) can0 00D#23E8 R
(1722447025.706213) can0 05B#23E8 R
(1722447025.706340) can0 014#01 R
(1722447025.706445) can0 008#01 R
(1722447025.706566) can0 055#01 R
(1722447025.706679) can0 05D#01 R
(1722447025.722118) can0 00E#B2E8 R
(1722447025.722284) can0 05C#B8E8B7E8 R
(1722447025.722402) can0 041#01 R
(1722447025.722520) can0 016#24 R
(1722447025.722636) can0 015#01 R
(1722447025.722754) can0 017#01 R
(1722447025.722870) can0 056#01 R
(1722447025.734090) can0 007#01 R
(1722447025.736392) can0 05C#0AE90AE9 R
(1722447025.736525) can0 00E#0AE9 R
(1722447025.736656) can0 00E#0AE9 R
(1722447025.751580) can0 015#01 R
(1722447025.751694) can0 016#24 R
(1722447025.751813) can0 041#01 R
(1722447025.751928) can0 056#01 R
(1722447025.752090) can0 05C#62E962E9 R
(1722447025.752208) can0 016#24 R
(1722447025.767316) can0 00D#8BE9 R
(1722447025.767773) can0 05B#8BE9 R
(1722447025.767887) can0 014#01 R
(1722447025.768008) can0 008#01 R
(1722447025.768119) can0 055#01 R
(1722447025.768237) can0 05D#01 R
(1722447025.782598) can0 00E#16EA R
(1722447025.782761) can0 05C#16EA16EA R
(1722447025.782881) can0 041#01 R
(1722447025.782995) can0 016#24 R
(1722447025.783119) can0 015#01 R
(1722447025.783232) can0 017#01 R
(1722447025.783348) can0 056#01 R
(1722447025.783463) can0 015#01 R
(1722447025.783599) can0 016#24 R
(1722447025.783702) can0 041#01 R
(1722447025.783873) can0 05C#1CEA1CEA R
(1722447025.783998) can0 00E#1CEA R
(1722447025.784214) can0 007#01 R
(1722447025.797175) can0 056#01 R
(1722447025.797309) can0 00E#6CEA R
(1722447025.797565) can0 05C#6CEA6CEA R
(1722447025.797690) can0 016#24 R
(1722447025.828115) can0 00D#E9EA R
(1722447025.828244) can0 05B#E9EA R
(1722447025.828364) can0 014#01 R
(1722447025.828475) can0 008#01 R
(1722447025.828598) can0 055#01 R
(1722447025.828709) can0 05D#01 R
(1722447025.834428) can0 007#01 R
(1722447025.842893) can0 00E#70EB R
(1722447025.843209) can0 05C#70EB70EB R
(1722447025.843328) can0 041#01 R
(1722447025.843445) can0 016#24 R
(1722447025.843561) can0 015#01 R
(1722447025.843678) can0 017#01 R
(1722447025.843795) can0 056#01 R
(1722447025.858036) can0 015#01 R
(1722447025.858404) can0 00E#BEEB R
(1722447025.874228) can0 016#24 R
(1722447025.874347) can0 041#01 R
(1722447025.874517) can0 05C#17EC17EC R
(1722447025.874635) can0 056#01 R
(1722447025.874766) can0 00E#17EC R
(1722447025.874938) can0 05C#17EC17EC R
(1722447025.875056) can0 016#24 R
(1722447025.885109) can0 007#01 R
(1722447025.889576) can0 00D#3DEC R
(1722447025.889712) can0 05B#3DEC R
(1722447025.889822) can0 014#01 R
(1722447025.889940) can0 008#01 R
(1722447025.890054) can0 055#01 R
(1722447025.890182) can0 05D#01 R
(1722447025.903746) can0 00E#BBEC R
(1722447025.903934) can0 05C#BBECBBEC R
(1722447025.904058) can0 041#01 R
(1722447025.904171) can0 016#24 R
(1722447025.904290) can0 015#01 R
(1722447025.904406) can0 017#01 R
(1722447025.904522) can0 056#01 R
(1722447025.935144) can0 007#01 R
(1722447025.935267) can0 015#01 R
(1722447025.935374) can0 016#25 R
(1722447025.935491) can0 041#01 R
(1722447025.935654) can0 05C#67ED67ED R
(1722447025.935773) can0 056#01 R
(1722447025.935904) can0 00E#67ED R
(1722447025.936041) can0 00E#67ED R
(1722447025.936205) can0 05C#67ED67ED R
(1722447025.950580) can0 00D#88ED R
(1722447025.950708) can0 016#25 R
(1722447025.950823) can0 05B#88ED R
(1722447025.950941) can0 014#01 R
(1722447025.951055) can0 008#01 R
(1722447025.951178) can0 055#01 R
(1722447025.951289) can0 05D#01 R
(1722447025.965829) can0 00E#07EE R
(1722447025.965995) can0 05C#06EE06EE R
(1722447025.966118) can0 041#01 R
(1722447025.966228) can0 016#25 R
(1722447025.966344) can0 015#01 R
(1722447025.966462) can0 017#01 R
(1722447025.966578) can0 056#01 R
(1722447025.982006) can0 00E#5AEE R
(1722447025.982135) can0 00E#5AEE R
(1722447025.985396) can0 007#01 R
(1722447025.997649) can0 015#01 R
(1722447025.997756) can0 016#25 R
(1722447025.997881) can0 041#01 R
(1722447025.998039) can0 05C#ADEEADEE R
(1722447025.998156) can0 056#01 R
(1722447025.998317) can0 05C#ADEEADEE R
(1722447025.998434) can0 016#25 R
(1722447026.013629) can0 00D#D2EE R
(1722447026.013759) can0 05B#D2EE R
(1722447026.013931) can0 014#01 R
(1722447026.014047) can0 008#01 R
(1722447026.014163) can0 055#01 R
(1722447026.014281) can0 05D#01 R
(1722447026.028872) can0 00E#4CEF R
(1722447026.029048) can0 05C#4CEF4CEF R
(1722447026.029166) can0 041#01 R
(1722447026.029279) can0 016#25 R
(1722447026.029396) can0 015#01 R
(1722447026.029513) can0 017#01 R
(1722447026.029632) can0 056#01 R
(1722447026.035626) can0 007#01 R
(1722447026.043869) can0 015#01 R
(1722447026.044010) can0 016#25 R
(1722447026.044143) can0 00E#98EF R
(1722447026.059701) can0 041#01 R
(1722447026.059857) can0 05C#E9EFE8EF R
(1722447026.059978) can0 056#01 R
(1722447026.060105) can0 00E#E9EF R
(1722447026.060266) can0 05C#E9EFE8EF R
(1722447026.060380) can0 016#25 R
(1722447026.075492) can0 00D#0CF0 R
(1722447026.075623) can0 05B#0CF0 R
(1722447026.075738) can0 014#01 R
(1722447026.075855) can0 008#01 R
(1722447026.075978) can0 055#01 R
(1722447026.076091) can0 05D#01 R
(1722447026.088233) can0 007#01 R
(1722447026.090078) can0 00E#82F0 R
(1722447026.090236) can0 05C#82F082F0 R
(1722447026.090356) can0 041#01 R
(1722447026.090468) can0 016#25 R
(1722447026.090591) can0 015#01 R
(1722447026.090701) can0 017#01 R
(1722447026.090825) can0 056#01 R
(1722447026.106176) can0 05C#CBF0CBF0 R
(1722447026.106295) can0 056#01 R
(1722447026.106426) can0 00E#CBF0 R
(1722447026.121260) can0 015#01 R
(1722447026.121373) can0 016#25 R
(1722447026.121492) can0 041#01 R
(1722447026.121624) can0 00E#19F1 R
(1722447026.121799) can0 05C#19F119F1 R
(1722447026.121906) can0 016#25 R
(1722447026.136449) can0 00D#36F1 R
(1722447026.136572) can0 05B#36F1 R
(1722447026.136686) can0 014#01 R
(1722447026.136803) can0 008#01 R
(1722447026.136918) can0 055#01 R
(1722447026.137037) can0 05D#01 R
(1722447026.138547) can0 007#01 R
(1722447026.151604) can0 00E#A8F1 R
(1722447026.151857) can0 05C#A8F1A8F1 R
(1722447026.151976) can0 041#01 R
(1722447026.152089) can0 016#25 R
(1722447026.152212) can0 015#01 R
(1722447026.152324) can0 017#01 R
(1722447026.152447) can0 056#01 R
(1722447026.166434) can0 015#01 R
(1722447026.166550) can0 016#25 R
(1722447026.166667) can0 041#01 R
(1722447026.166834) can0 05C#EFF1EFF1 R
(1722447026.166949) can0 056#01 R
(1722447026.180962) can0 00E#35F2 R
(1722447026.181098) can0 00E#35F2 R
(1722447026.181257) can0 05C#35F235F2 R
(1722447026.188429) can0 007#01 R
(1722447026.196218) can0 00D#51F2 R
(1722447026.196323) can0 016#25 R
(1722447026.196461) can0 05B#51F2 R
(1722447026.196570) can0 014#01 R
(1722447026.196694) can0 008#01 R
(1722447026.196811) can0 055#01 R
(1722447026.196927) can0 05D#01 R
(1722447026.211746) can0 00E#BFF2 R
(1722447026.211915) can0 05C#BFF2BFF2 R
(1722447026.212033) can0 041#01 R
(1722447026.212145) can0 016#25 R
(1722447026.212262) can0 015#01 R
(1722447026.212378) can0 017#01 R
(1722447026.212501) can0 056#01 R
(1722447026.226259) can0 015#01 R
(1722447026.226372) can0 016#25 R
(1722447026.226541) can0 05C#03F303F3 R
(1722447026.226657) can0 056#01 R
(1722447026.226792) can0 00E#03F3 R
(1722447026.226925) can0 00E#03F3 R
(1722447026.240338) can0 007#01 R
(1722447026.241335) can0 041#01 R
(1722447026.241495) can0 05C#46F346F3 R
(1722447026.241614) can0 016#26 R
(1722447026.256491) can0 00D#61F3 R
(1722447026.256619) can0 05B#61F3 R
(1722447026.256756) can0 014#01 R
(1722447026.256852) can0 008#01 R
(1722447026.256969) can0 055#01 R
(1722447026.257097) can0 05D#01 R
(1722447026.272545) can0 00E#D0F3 R
(1722447026.272705) can0 05C#D0F3D0F3 R
(1722447026.272823) can0 041#01 R
(1722447026.272939) can0 016#26 R
(1722447026.273054) can0 015#01 R
(1722447026.273172) can0 017#01 R
(1722447026.273287) can0 056#01 R
(1722447026.287365) can0 015#01 R
(1722447026.287533) can0 05C#11F411F4 R
(1722447026.287648) can0 056#01 R
(1722447026.287781) can0 00E#11F4 R
(1722447026.290252) can0 007#01 R
(1722447026.302473) can0 016#26 R
(1722447026.302722) can0 041#01 R
(1722447026.302851) can0 00E#52F4 R
(1722447026.303013) can0 05C#52F452F4 R
(1722447026.303131) can0 016#26 R
(1722447026.317638) can0 00D#70F4 R
(1722447026.317769) can0 05B#70F4 R
(1722447026.317884) can0 014#01 R
(1722447026.318001) can0 008#01 R
(1722447026.318117) can0 055#01 R
(1722447026.318235) can0 05D#01 R
(1722447026.333608) can0 00E#D6F4 R
(1722447026.333777) can0 05C#D6F4D6F4 R
(1722447026.333896) can0 041#01 R
(1722447026.334011) can0 016#26 R
(1722447026.334128) can0 015#01 R
(1722447026.334245) can0 017#01 R
(1722447026.334362) can0 056#01 R
(1722447026.339807) can0 007#01 R
(1722447026.349078) can0 05C#19F519F5 R
(1722447026.349205) can0 056#01 R
(1722447026.349328) can0 00E#19F5 R
(1722447026.363968) can0 015#01 R
(1722447026.364082) can0 016#26 R
(1722447026.364206) can0 041#01 R
(1722447026.364329) can0 00E#57F5 R
(1722447026.364495) can0 05C#57F557F5 R
(1722447026.364613) can0 016#26 R
(1722447026.379578) can0 00D#6FF5 R
(1722447026.379794) can0 05B#6FF5 R
(1722447026.379915) can0 014#01 R
(1722447026.380027) can0 008#01 R
(1722447026.380149) can0 055#01 R
(1722447026.380261) can0 05D#01 R
(1722447026.390289) can0 007#01 R
(1722447026.394662) can0 00E#D1F5 R
(1722447026.394828) can0 05C#D1F5D1F5 R
(1722447026.394947) can0 041#01 R
(1722447026.395063) can0 016#26 R
(1722447026.395178) can0 015#01 R
(1722447026.395298) can0 017#01 R
(1722447026.395413) can0 056#01 R
(1722447026.409413) can0 015#01 R
(1722447026.409538) can0 016#26 R
(1722447026.425228) can0 041#01 R
(1722447026.425604) can0 05C#4CF64CF6 R
(1722447026.425722) can0 056#01 R
(1722447026.425852) can0 00E#4CF6 R
(1722447026.425981) can0 00E#4CF6 R
(1722447026.426144) can0 05C#4CF64CF6 R
(1722447026.426260) can0 016#26 R
(1722447026.440302) can0 007#01 R
(1722447026.440509) can0 00D#64F6 R
(1722447026.440695) can0 05B#64F6 R
(1722447026.441035) can0 014#01 R
(1722447026.441208) can0 008#01 R
(1722447026.441325) can0 055#01 R
(1722447026.441442) can0 05D#01 R
(1722447026.455467) can0 00E#C1F6 R
(1722447026.455635) can0 05C#C0F6C0F6 R
(1722447026.455753) can0 041#01 R
(1722447026.455869) can0 016#26 R
(1722447026.455984) can0 015#01 R
(1722447026.456103) can0 017#01 R
(1722447026.456219) can0 056#01 R
(1722447026.471328) can0 05C#FAF6FAF6 R
(1722447026.471458) can0 056#01 R
(1722447026.471575) can0 00E#FAF6 R
(1722447026.471713) can0 00E#FAF6 R
(1722447026.471825) can0 015#01 R
(1722447026.471954) can0 016#26 R
(1722447026.472060) can0 041#01 R
(1722447026.472228) can0 05C#FEF6FDF6 R
(1722447026.472346) can0 016#26 R
(1722447026.490131) can0 007#01 R
(1722447026.501284) can0 00D#4DF7 R
(1722447026.501470) can0 05B#4DF7 R
(1722447026.501581) can0 014#01 R
(1722447026.501698) can0 008#01 R
(1722447026.501813) can0 055#01 R
(1722447026.501932) can0 05D#01 R
(1722447026.517122) can0 00E#A5F7 R
(1722447026.517468) can0 05C#A5F7A5F7 R
(1722447026.517592) can0 041#01 R
(1722447026.517701) can0 016#26 R
(1722447026.517818) can0 015#01 R
(1722447026.517935) can0 017#01 R
(1722447026.518052) can0 056#01 R
(1722447026.518187) can0 00E#A9F7 R
(1722447026.533295) can0 015#01 R
(1722447026.533411) can0 016#26 R
(1722447026.533527) can0 041#01 R
(1722447026.533696) can0 05C#DFF7DFF7 R
(1722447026.533815) can0 056#01 R
(1722447026.533946) can0 00E#DFF7 R
(1722447026.534119) can0 05C#DFF7DFF7 R
(1722447026.534233) can0 016#26 R
(1722447026.540158) can0 007#01 R
(1722447026.563310) can0 00D#2EF8 R
(1722447026.563501) can0 05B#2EF8 R
(1722447026.563616) can0 014#01 R
(1722447026.563733) can0 008#01 R
(1722447026.563848) can0 055#01 R
(1722447026.563967) can0 05D#01 R
(1722447026.578685) can0 00E#82F8 R
(1722447026.578863) can0 05C#82F882F8 R
(1722447026.578978) can0 041#01 R
(1722447026.579099) can0 016#26 R
(1722447026.579210) can0 015#01 R
(1722447026.579327) can0 017#01 R
(1722447026.579443) can0 056#01 R
(1722447026.594029) can0 015#01 R
(1722447026.594141) can0 016#26 R
(1722447026.594308) can0 05C#B9F8B9F8 R
(1722447026.594423) can0 056#01 R
(1722447026.594556) can0 00E#B9F8 R
(1722447026.601000) can0 007#01 R
(1722447026.609669) can0 041#01 R
(1722447026.609806) can0 00E#ECF8 R
(1722447026.609965) can0 05C#ECF8ECF8 R
(1722447026.610086) can0 016#26 R
(1722447026.625599) can0 00D#07F9 R
(1722447026.625737) can0 05B#07F9 R
(1722447026.625851) can0 014#01 R
(1722447026.625968) can0 008#01 R
(1722447026.626084) can0 055#01 R
(1722447026.626202) can0 05D#01 R
(1722447026.640948) can0 00E#57F9 R
(1722447026.641114) can0 05C#57F957F9 R
(1722447026.641232) can0 041#01 R
(1722447026.641347) can0 016#26 R
(1722447026.641464) can0 015#01 R
(1722447026.641586) can0 017#01 R
(1722447026.641700) can0 056#01 R
(1722447026.641828) can0 015#01 R
(1722447026.641984) can0 05C#57F957F9 R
(1722447026.642100) can0 056#01 R
(1722447026.650197) can0 007#01 R
(1722447026.656555) can0 016#26 R
(1722447026.656781) can0 041#01 R
(1722447026.656889) can0 00E#87F9 R
(1722447026.657021) can0 00E#87F9 R
(1722447026.657187) can0 05C#87F987F9 R
(1722447026.672227) can0 016#27 R
(1722447026.686860) can0 00D#CEF9 R
(1722447026.686986) can0 05B#CEF9 R
(1722447026.687101) can0 014#01 R
(1722447026.687217) can0 008#01 R
(1722447026.687333) can0 055#01 R
(1722447026.687455) can0 05D#01 R
(1722447026.700781) can0 007#01 R
(1722447026.702981) can0 00E#19FA R
(1722447026.703147) can0 05C#19FA19FA R
(1722447026.703265) can0 041#01 R
(1722447026.703381) can0 016#27 R
(1722447026.703500) can0 015#01 R
(1722447026.703617) can0 017#01 R
(1722447026.703736) can0 056#01 R
(1722447026.718440) can0 05C#4AFA4AFA R
(1722447026.718605) can0 056#01 R
(1722447026.718738) can0 00E#4AFA R
(1722447026.718866) can0 00E#4AFA R
(1722447026.718980) can0 015#01 R
(1722447026.719099) can0 016#27 R
(1722447026.719472) can0 041#01 R
(1722447026.719638) can0 05C#4AFA4AFA R
(1722447026.719756) can0 016#27 R
(1722447026.749651) can0 00D#8CFA R
(1722447026.749928) can0 05B#8CFA R
(1722447026.750043) can0 014#01 R
(1722447026.750161) can0 007#01 R
(1722447026.750276) can0 008#01 R
(1722447026.750392) can0 055#01 R
(1722447026.750510) can0 05D#01 R
(1722447026.764281) can0 00E#D2FA R
(1722447026.764450) can0 05C#D2FAD2FA R
(1722447026.764572) can0 041#01 R
(1722447026.764683) can0 016#27 R
(1722447026.764819) can0 015#01 R
(1722447026.764923) can0 017#01 R
(1722447026.765046) can0 056#01 R
(1722447026.765153) can0 015#01 R
(1722447026.765290) can0 00E#D2FA R
(1722447026.780432) can0 016#27 R
(1722447026.780758) can0 041#01 R
(1722447026.780927) can0 05C#00FB00FB R
(1722447026.781034) can0 056#01 R
(1722447026.781176) can0 00E#00FB R
(1722447026.781343) can0 05C#00FB00FB R
(1722447026.781461) can0 016#27 R
(1722447026.800583) can0 007#01 R
(1722447026.811104) can0 00D#3EFB R
(1722447026.811235) can0 05B#3EFB R
(1722447026.811355) can0 014#01 R
(1722447026.811468) can0 008#01 R
(1722447026.811586) can0 055#01 R
(1722447026.811702) can0 05D#01 R
(1722447026.826851) can0 00E#80FB R
(1722447026.827351) can0 05C#83FB83FB R
(1722447026.827468) can0 041#01 R
(1722447026.827582) can0 016#27 R
(1722447026.827700) can0 015#01 R
(1722447026.827824) can0 017#01 R
(1722447026.827933) can0 056#01 R
(1722447026.828057) can0 015#01 R
(1722447026.828165) can0 016#27 R
(1722447026.828294) can0 041#01 R
(1722447026.828453) can0 05C#83FB83FB R
(1722447026.828577) can0 056#01 R
(1722447026.828705) can0 00E#83FB R
(1722447026.841270) can0 00E#A8FB R
(1722447026.841430) can0 05C#A8FBA8FB R
(1722447026.841550) can0 016#27 R
(1722447026.850854) can0 007#01 R
(1722447026.872020) can0 00D#E2FB R
(1722447026.872149) can0 05B#E2FB R
(1722447026.872271) can0 014#01 R
(1722447026.872380) can0 008#01 R
(1722447026.872496) can0 055#01 R
(1722447026.872621) can0 05D#01 R
(1722447026.887726) can0 00E#1FFC R
(1722447026.887903) can0 05C#1FFC1FFC R
(1722447026.888023) can0 041#01 R
(1722447026.888138) can0 016#27 R
(1722447026.888256) can0 015#01 R
(1722447026.888372) can0 017#01 R
(1722447026.888488) can0 056#01 R
(1722447026.902413) can0 015#01 R
(1722447026.902587) can0 05C#44FC44FC R
(1722447026.902704) can0 056#01 R
(1722447026.902821) can0 016#27 R
(1722447026.902937) can0 041#01 R
(1722447026.903071) can0 00E#44FC R
(1722447026.903202) can0 00E#44FC R
(1722447026.903367) can0 05C#44FC44FC R
(1722447026.905037) can0 007#01 R
(1722447026.918571) can0 016#27 R
(1722447026.934331) can0 00D#7CFC R
(1722447026.934458) can0 05B#7CFC R
(1722447026.934568) can0 014#01 R
(1722447026.934684) can0 008#01 R
(1722447026.934802) can0 055#01 R
(1722447026.934920) can0 05D#01 R
(1722447026.949878) can0 00E#B7FC R
(1722447026.950061) can0 05C#B7FCB7FC R
(1722447026.950170) can0 041#01 R
(1722447026.950283) can0 016#27 R
(1722447026.950398) can0 015#01 R
(1722447026.950519) can0 017#01 R
(1722447026.950632) can0 056#01 R
(1722447026.950748) can0 015#01 R
(1722447026.950864) can0 016#27 R
(1722447026.950982) can0 041#01 R
(1722447026.951115) can0 00E#B7FC R
(1722447026.951247) can0 00E#B7FC R
(1722447026.954178) can0 007#01 R
(1722447026.965566) can0 05C#D9FCD9FC R
(1722447026.965673) can0 056#01 R
(1722447026.965840) can0 05C#D9FCD9FC R
(1722447026.965957) can0 016#27 R
(1722447026.996700) can0 00D#0BFD R
(1722447026.996895) can0 05B#0BFD R
(1722447026.997006) can0 014#01 R
(1722447026.997122) can0 008#01 R
(1722447026.997238) can0 055#01 R
(1722447026.997357) can0 05D#01 R
(1722447027.004760) can0 007#01 R
(1722447027.012352) can0 00E#41FD R
(1722447027.012524) can0 05C#41FD41FD R
(1722447027.012639) can0 041#01 R
(1722447027.012779) can0 016#27 R
(1722447027.012875) can0 015#01 R
(1722447027.012989) can0 017#01 R
(1722447027.013104) can0 056#01 R
(1722447027.027072) can0 015#01 R
(1722447027.027212) can0 00E#60FD R
(1722447027.042762) can0 016#27 R
(1722447027.042871) can0 041#01 R
(1722447027.043048) can0 05C#7FFD7FFD R
(1722447027.043165) can0 056#01 R
(1722447027.043297) can0 00E#7FFD R
(1722447027.043468) can0 05C#7FFD7FFD R
(1722447027.043582) can0 016#27 R
(1722447027.054234) can0 007#01 R
(1722447027.058143) can0 00D#8DFD R
(1722447027.058275) can0 05B#8DFD R
(1722447027.058389) can0 014#01 R
(1722447027.058506) can0 008#01 R
(1722447027.058622) can0 055#01 R
(1722447027.058740) can0 05D#01 R
(1722447027.073036) can0 00E#BCFD R
(1722447027.073203) can0 05C#BCFDBCFD R
(1722447027.073378) can0 041#01 R
(1722447027.073489) can0 016#27 R
(1722447027.073607) can0 015#01 R
(1722447027.073725) can0 017#01 R
(1722447027.073841) can0 056#01 R
(1722447027.088974) can0 00E#D9FD R
(1722447027.104646) can0 007#01 R
(1722447027.104828) can0 015#01 R
(1722447027.104933) can0 016#27 R
(1722447027.105042) can0 041#01 R
(1722447027.105211) can0 05C#F6FDF6FD R
(1722447027.105328) can0 056#01 R
(1722447027.105461) can0 00E#F6FD R
(1722447027.105630) can0 05C#F6FDF6FD R
(1722447027.105743) can0 016#27 R
(1722447027.120189) can0 00D#03FE R
(1722447027.120321) can0 05B#03FE R
(1722447027.120436) can0 014#01 R
(1722447027.120551) can0 008#01 R
(1722447027.120674) can0 055#01 R
(1722447027.120823) can0 05D#01 R
(1722447027.135844) can0 00E#2DFE R
(1722447027.136012) can0 05C#2DFE2DFE R
(1722447027.136124) can0 041#01 R
(1722447027.136243) can0 016#27 R
(1722447027.136356) can0 015#01 R
(1722447027.136476) can0 017#01 R
(1722447027.136593) can0 056#01 R
(1722447027.154748) can0 007#01 R
(1722447027.166413) can0 015#01 R
(1722447027.166521) can0 016#27 R
(1722447027.166642) can0 041#01 R
(1722447027.166811) can0 05C#61FE61FE R
(1722447027.166927) can0 056#01 R
(1722447027.167056) can0 00E#61FE R
(1722447027.167189) can0 00E#61FE R
(1722447027.167357) can0 05C#61FE61FE R
(1722447027.182455) can0 00D#6DFE R
(1722447027.182587) can0 05B#6DFE R
(1722447027.182700) can0 016#27 R
(1722447027.182818) can0 014#01 R
(1722447027.182936) can0 008#01 R
(1722447027.183051) can0 055#01 R
(1722447027.183172) can0 05D#01 R
(1722447027.197410) can0 00E#92FE R
(1722447027.197576) can0 05C#92FE92FE R
(1722447027.197692) can0 041#01 R
(1722447027.197804) can0 016#27 R
(1722447027.197921) can0 015#01 R
(1722447027.198038) can0 017#01 R
(1722447027.198154) can0 056#01 R
(1722447027.203779) can0 007#01 R
(1722447027.211930) can0 015#01 R
(1722447027.212045) can0 016#27 R
(1722447027.212165) can0 041#01 R
(1722447027.212297) can0 00E#A9FE R
(1722447027.212429) can0 00E#A9FE R
(1722447027.212598) can0 05C#A9FEA9FE R
(1722447027.212711) can0 056#01 R
(1722447027.212879) can0 05C#A9FEA9FE R
(1722447027.212994) can0 016#27 R
(1722447027.242629) can0 00D#C9FE R
(1722447027.242760) can0 05B#C9FE R
(1722447027.242872) can0 014#01 R
(1722447027.242989) can0 008#01 R
(1722447027.243105) can0 055#01 R
(1722447027.243224) can0 05D#01 R
(1722447027.258167) can0 00E#EAFE R
(1722447027.258317) can0 05C#EAFEEAFE R
(1722447027.258434) can0 041#01 R
(1722447027.258547) can0 016#27 R
(1722447027.258671) can0 015#01 R
(1722447027.258783) can0 017#01 R
(1722447027.258905) can0 056#01 R
(1722447027.259016) can0 015#01 R
(1722447027.259190) can0 05C#EAFEEAFE R
(1722447027.259299) can0 056#01 R
(1722447027.259436) can0 00E#EAFE R
(1722447027.272645) can0 007#01 R
(1722447027.273076) can0 016#27 R
(1722447027.273192) can0 041#01 R
(1722447027.273326) can0 00E#FDFE R
(1722447027.273500) can0 05C#FDFEFDFE R
(1722447027.273614) can0 016#27 R
(1722447027.303775) can0 00D#19FF R
(1722447027.303982) can0 05B#19FF R
(1722447027.304093) can0 014#01 R
(1722447027.304213) can0 008#01 R
(1722447027.304326) can0 055#01 R
(1722447027.304445) can0 05D#01 R
(1722447027.319103) can0 00E#35FF R
(1722447027.319271) can0 05C#35FF35FF R
(1722447027.319383) can0 041#01 R
(1722447027.319502) can0 016#27 R
(1722447027.319617) can0 015#01 R
(1722447027.319736) can0 017#01 R
(1722447027.319851) can0 056#01 R
(1722447027.322785) can0 007#01 R
(1722447027.334400) can0 05C#46FF46FF R
(1722447027.334750) can0 056#01 R
(1722447027.334885) can0 00E#46FF R
(1722447027.349400) can0 015#01 R
(1722447027.349516) can0 016#27 R
(1722447027.349626) can0 041#01 R
(1722447027.349761) can0 00E#56FF R
(1722447027.349923) can0 05C#56FF56FF R
(1722447027.350046) can0 016#27 R
(1722447027.365643) can0 00D#5DFF R
(1722447027.365778) can0 05B#5DFF R
(1722447027.365885) can0 014#01 R
(1722447027.366003) can0 008#01 R
(1722447027.366116) can0 055#01 R
(1722447027.366235) can0 05D#01 R
(1722447027.372563) can0 007#01 R
(1722447027.381172) can0 00E#76FF R
(1722447027.381342) can0 05C#76FF76FF R
(1722447027.381456) can0 041#01 R
(1722447027.381573) can0 016#27 R
(1722447027.381689) can0 015#01 R
(1722447027.381807) can0 017#01 R
(1722447027.381923) can0 056#01 R
(1722447027.396154) can0 015#01 R
(1722447027.396262) can0 016#27 R
(1722447027.396381) can0 041#01 R
(1722447027.396559) can0 05C#83FF83FF R
(1722447027.396675) can0 056#01 R
(1722447027.411800) can0 00E#90FF R
(1722447027.411931) can0 00E#90FF R
(1722447027.412099) can0 05C#90FF90FF R
(1722447027.422758) can0 007#01 R
(1722447027.427301) can0 00D#96FF R
(1722447027.427409) can0 016#27 R
(1722447027.427551) can0 05B#96FF R
(1722447027.427660) can0 014#01 R
(1722447027.427779) can0 008#01 R
(1722447027.427892) can0 055#01 R
(1722447027.428012) can0 05D#01 R
(1722447027.442507) can0 00E#A9FF R
(1722447027.442668) can0 05C#A9FFA9FF R
(1722447027.442779) can0 041#01 R
(1722447027.442895) can0 016#27 R
(1722447027.443011) can0 015#01 R
(1722447027.443131) can0 017#01 R
(1722447027.443245) can0 056#01 R
(1722447027.457900) can0 015#01 R
(1722447027.458012) can0 016#27 R
(1722447027.458185) can0 05C#B4FFB4FF R
(1722447027.458295) can0 056#01 R
(1722447027.458434) can0 00E#B4FF R
(1722447027.458569) can0 00E#B4FF R
(1722447027.472530) can0 007#01 R
(1722447027.473705) can0 041#01 R
(1722447027.473879) can0 05C#BEFFBEFF R
(1722447027.473990) can0 016#27 R
(1722447027.489450) can0 00D#C3FF R
(1722447027.489591) can0 05B#C3FF R
(1722447027.489699) can0 014#01 R
(1722447027.489816) can0 008#01 R
(1722447027.489932) can0 055#01 R
(1722447027.490051) can0 05D#01 R
(1722447027.505352) can0 00E#D1FF R
(1722447027.505519) can0 05C#D1FFD1FF R
(1722447027.505639) can0 041#01 R
(1722447027.505754) can0 016#27 R
(1722447027.505871) can0 015#01 R
(1722447027.505988) can0 017#01 R
(1722447027.506104) can0 056#01 R
(1722447027.521087) can0 015#01 R
(1722447027.521257) can0 05C#D9FFD9FF R
(1722447027.521371) can0 056#01 R
(1722447027.521504) can0 00E#D9FF R
(1722447027.522449) can0 007#01 R
(1722447027.535348) can0 016#27 R
(1722447027.535466) can0 041#01 R
(1722447027.535600) can0 00E#E0FF R
(1722447027.535776) can0 05C#E0FFE0FF R
(1722447027.535888) can0 016#27 R
(1722447027.550969) can0 00D#E3FF R
(1722447027.551100) can0 05B#E3FF R
(1722447027.551216) can0 014#01 R
(1722447027.551331) can0 008#01 R
(1722447027.551448) can0 055#01 R
(1722447027.551565) can0 05D#01 R
(1722447027.566714) can0 00E#ECFF R
(1722447027.566884) can0 05C#ECFFECFF R
(1722447027.566995) can0 041#01 R
(1722447027.567112) can0 016#27 R
(1722447027.567229) can0 015#01 R
(1722447027.567346) can0 017#01 R
(1722447027.567462) can0 056#01 R
(1722447027.571875) can0 007#01 R
(1722447027.582369) can0 05C#F1FFF1FF R
(1722447027.582437) can0 056#01 R
(1722447027.582604) can0 00E#F1FF R
(1722447027.582713) can0 015#01 R
(1722447027.582833) can0 016#27 R
(1722447027.582948) can0 041#01 R
(1722447027.583084) can0 00E#F1FF R
(1722447027.583259) can0 05C#F1FFF1FF R
(1722447027.583370) can0 016#27 R
(1722447027.612856) can0 00D#F7FF R
(1722447027.612991) can0 05B#F7FF R
(1722447027.613104) can0 014#01 R
(1722447027.613220) can0 008#01 R
(1722447027.613335) can0 055#01 R
(1722447027.613453) can0 05D#01 R
(1722447027.628065) can0 00E#FBFF R
(1722447027.628239) can0 05C#FBFFFBFF R
(1722447027.628354) can0 007#01 R
(1722447027.628472) can0 041#01 R
(1722447027.628590) can0 016#27 R
(1722447027.628703) can0 015#01 R
(1722447027.628832) can0 017#01 R
(1722447027.628937) can0 056#01 R
(1722447027.643947) can0 015#01 R
(1722447027.644060) can0 016#27 R
(1722447027.644178) can0 041#01 R
(1722447027.644358) can0 05C#FDFFFDFF R
(1722447027.659816) can0 056#01 R
(1722447027.659948) can0 00E#FEFF R
(1722447027.660088) can0 00E#FEFF R
(1722447027.660267) can0 05C#FEFFFEFF R
(1722447027.674932) can0 00D#FFFF R
(1722447027.675047) can0 016#27 R
(1722447027.675185) can0 05B#FFFF R
(1722447027.675299) can0 014#01 R
(1722447027.675419) can0 008#01 R
(1722447027.675532) can0 055#01 R
(1722447027.675655) can0 05D#01 R
(1722447027.677956) can0 007#01 R
(1722447027.690727) can0 00E#FEFF R
(1722447027.690944) can0 05C#FEFFFEFF R
(1722447027.691059) can0 041#01 R
(1722447027.691175) can0 016#27 R
(1722447027.691291) can0 015#01 R
(1722447027.691408) can0 017#01 R
(1722447027.691524) can0 056#01 R
(1722447027.706104) can0 015#01 R
(1722447027.706219) can0 016#27 R
(1722447027.706401) can0 05C#FDFFFDFF R
(1722447027.706542) can0 00E#FDFF R
(1722447027.706680) can0 00E#FDFF R
(1722447027.720791) can0 041#01 R
(1722447027.720864) can0 056#01 R
(1722447027.721067) can0 05C#FBFFFBFF R
(1722447027.721178) can0 016#27 R
(1722447027.728114) can0 007#01 R
(1722447027.736727) can0 00D#FAFF R
(1722447027.736867) can0 05B#FAFF R
(1722447027.736974) can0 014#01 R
(1722447027.737088) can0 008#01 R
(1722447027.737208) can0 055#01 R
(1722447027.737324) can0 05D#01 R
(1722447027.752654) can0 00E#F4FF R
(1722447027.752841) can0 05C#F4FFF4FF R
(1722447027.752954) can0 041#01 R
(1722447027.753072) can0 016#27 R
(1722447027.753187) can0 015#01 R
(1722447027.753307) can0 017#01 R
(1722447027.753421) can0 056#01 R
(1722447027.767096) can0 00E#F0FF R
(1722447027.777851) can0 007#01 R
(1722447027.782045) can0 015#01 R
(1722447027.782163) can0 016#27 R
(1722447027.782277) can0 041#01 R
(1722447027.782454) can0 05C#EBFFEBFF R
(1722447027.782564) can0 056#01 R
(1722447027.782702) can0 00E#EBFF R
(1722447027.782875) can0 05C#EBFFEBFF R
(1722447027.782989) can0 016#27 R
(1722447027.797449) can0 00D#E9FF R
(1722447027.797564) can0 05B#E9FF R
(1722447027.797682) can0 014#01 R
(1722447027.797797) can0 008#01 R
(1722447027.797915) can0 055#01 R
(1722447027.798032) can0 05D#01 R
(1722447027.812549) can0 00E#DFFF R
(1722447027.812724) can0 05C#DFFFDFFF R
(1722447027.812813) can0 041#01 R
(1722447027.812958) can0 016#27 R
(1722447027.813072) can0 015#01 R
(1722447027.813190) can0 017#01 R
(1722447027.813306) can0 056#01 R
(1722447027.828195) can0 00E#D8FF R
(1722447027.828621) can0 007#01 R
(1722447027.843674) can0 015#01 R
(1722447027.843788) can0 016#27 R
(1722447027.843908) can0 041#01 R
(1722447027.844083) can0 05C#CFFFCFFF R
(1722447027.844194) can0 056#01 R
(1722447027.844335) can0 00E#CFFF R
(1722447027.844509) can0 05C#CFFFCFFF R
(1722447027.844623) can0 016#27 R
(1722447027.858686) can0 00D#CBFF R
(1722447027.858818) can0 05B#CBFF R
(1722447027.858931) can0 014#01 R
(1722447027.859048) can0 008#01 R
(1722447027.859164) can0 055#01 R
(1722447027.859283) can0 05D#01 R
(1722447027.874210) can0 00E#BDFF R
(1722447027.874441) can0 05C#BDFFBDFF R
(1722447027.874555) can0 041#01 R
(1722447027.874675) can0 016#27 R
(1722447027.874790) can0 015#01 R
(1722447027.874911) can0 017#01 R
(1722447027.875031) can0 056#01 R
(1722447027.875143) can0 015#01 R
(1722447027.875261) can0 016#27 R
(1722447027.878562) can0 007#01 R
(1722447027.889872) can0 041#01 R
(1722447027.890042) can0 05C#B2FFB2FF R
(1722447027.890151) can0 056#01 R
(1722447027.890288) can0 00E#B3FF R
(1722447027.890422) can0 00E#B3FF R
(1722447027.890589) can0 05C#B2FFB2FF R
(1722447027.905536) can0 016#27 R
(1722447027.920579) can0 00D#A2FF R
(1722447027.920709) can0 05B#A2FF R
(1722447027.920822) can0 014#01 R
(1722447027.920940) can0 008#01 R
(1722447027.921056) can0 055#01 R
(1722447027.921175) can0 05D#01 R
(1722447027.928356) can0 007#01 R
(1722447027.936544) can0 00E#8EFF R
(1722447027.936803) can0 05C#8EFF8EFF R
(1722447027.936916) can0 041#01 R
(1722447027.937035) can0 016#27 R
(1722447027.937148) can0 015#01 R
(1722447027.937267) can0 017#01 R
(1722447027.937382) can0 056#01 R
(1722447027.952626) can0 05C#80FF80FF R
(1722447027.952756) can0 056#01 R
(1722447027.952868) can0 00E#80FF R
(1722447027.953003) can0 00E#80FF R
(1722447027.967256) can0 015#01 R
(1722447027.967369) can0 016#27 R
(1722447027.967486) can0 041#01 R
(1722447027.967667) can0 05C#72FF72FF R
(1722447027.967771) can0 016#27 R
(1722447027.978486) can0 007#01 R
(1722447027.982946) can0 00D#6BFF R
(1722447027.983078) can0 05B#6BFF R
(1722447027.983194) can0 014#01 R
(1722447027.983309) can0 008#01 R
(1722447027.983426) can0 055#01 R
(1722447027.983544) can0 05D#01 R
(1722447027.998278) can0 00E#53FF R
(1722447027.998527) can0 05C#53FF53FF R
(1722447027.998648) can0 041#01 R
(1722447027.998758) can0 016#27 R
(1722447027.998880) can0 015#01 R
(1722447027.998992) can0 017#01 R
(1722447027.999109) can0 056#01 R
(1722447028.013506) can0 05C#43FF43FF R
(1722447028.013608) can0 056#01 R
(1722447028.013744) can0 00E#43FF R
(1722447028.028869) can0 007#01 R
(1722447028.029063) can0 015#01 R
(1722447028.029280) can0 016#27 R
(1722447028.029396) can0 041#01 R
(1722447028.029533) can0 00E#32FF R
(1722447028.029700) can0 05C#32FF32FF R
(1722447028.029816) can0 016#27 R
(1722447028.044347) can0 00D#2AFF R
(1722447028.044480) can0 05B#2AFF R
(1722447028.044595) can0 014#01 R
(1722447028.044712) can0 008#01 R
(1722447028.044801) can0 055#01 R
(1722447028.044948) can0 05D#01 R
(1722447028.059700) can0 00E#0DFF R
(1722447028.059871) can0 05C#0DFF0DFF R
(1722447028.059984) can0 041#01 R
(1722447028.060105) can0 016#27 R
(1722447028.060217) can0 015#01 R
(1722447028.060336) can0 017#01 R
(1722447028.060451) can0 056#01 R
(1722447028.075646) can0 015#01 R
(1722447028.075756) can0 016#27 R
(1722447028.075877) can0 041#01 R
(1722447028.076051) can0 05C#F8FEF8FE R
(1722447028.076165) can0 056#01 R
(1722447028.076302) can0 00E#F8FE R
(1722447028.078308) can0 007#01 R
(1722447028.091221) can0 00E#E5FE R
(1722447028.091389) can0 05C#E4FEE4FE R
(1722447028.091499) can0 016#27 R
(1722447028.106291) can0 00D#DBFE R
(1722447028.106422) can0 05B#DBFE R
(1722447028.106537) can0 014#01 R
(1722447028.106653) can0 008#01 R
(1722447028.106770) can0 055#01 R
(1722447028.106896) can0 05D#01 R
(1722447028.122336) can0 00E#B8FE R
(1722447028.122508) can0 05C#B8FEB8FE R
(1722447028.122620) can0 041#01 R
(1722447028.122739) can0 016#27 R
(1722447028.122854) can0 015#01 R
(1722447028.122972) can0 017#01 R
(1722447028.123087) can0 056#01 R
(1722447028.128819) can0 007#01 R
(1722447028.137390) can0 015#01 R
(1722447028.137508) can0 016#27 R
(1722447028.137678) can0 05C#A2FEA1FE R
(1722447028.137790) can0 056#01 R
(1722447028.152140) can0 041#01 R
(1722447028.152274) can0 00E#8BFE R
(1722447028.152408) can0 00E#8BFE R
(1722447028.152578) can0 05C#8BFE8BFE R
(1722447028.167697) can0 00D#81FE R
(1722447028.167830) can0 05B#81FE R
(1722447028.167944) can0 014#01 R
(1722447028.168060) can0 008#01 R
(1722447028.168177) can0 016#27 R
(1722447028.168293) can0 055#01 R
(1722447028.168411) can0 05D#01 R
(1722447028.178782) can0 007#01 R
(1722447028.182796) can0 00E#5BFE R
(1722447028.182965) can0 05C#5BFE5BFE R
(1722447028.183080) can0 041#01 R
(1722447028.183200) can0 016#27 R
(1722447028.183315) can0 015#01 R
(1722447028.183434) can0 017#01 R
(1722447028.183549) can0 056#01 R
(1722447028.197876) can0 015#01 R
(1722447028.198040) can0 05C#40FE40FE R
(1722447028.198149) can0 056#01 R
(1722447028.198287) can0 00E#40FE R
(1722447028.198419) can0 00E#40FE R
(1722447028.213034) can0 016#27 R
(1722447028.213147) can0 041#01 R
(1722447028.213319) can0 05C#26FE26FE R
(1722447028.213429) can0 016#27 R
(1722447028.228125) can0 007#01 R
(1722447028.228237) can0 00D#1CFE R
(1722447028.228373) can0 05B#1CFE R
(1722447028.228488) can0 014#01 R
(1722447028.228604) can0 008#01 R
(1722447028.228718) can0 055#01 R
(1722447028.228836) can0 05D#01 R
(1722447028.243910) can0 00E#EFFD R
(1722447028.244081) can0 05C#EFFDEFFD R
(1722447028.244193) can0 041#01 R
(1722447028.244311) can0 016#27 R
(1722447028.244427) can0 015#01 R
(1722447028.244545) can0 017#01 R
(1722447028.244661) can0 056#01 R
(1722447028.259174) can0 05C#D3FDD3FD R
(1722447028.259286) can0 056#01 R
(1722447028.259421) can0 00E#D3FD R
(1722447028.274042) can0 015#01 R
(1722447028.274157) can0 016#27 R
(1722447028.274274) can0 041#01 R
(1722447028.274415) can0 00E#B6FD R
(1722447028.274579) can0 05C#B6FDB6FD R
(1722447028.274690) can0 016#27 R
(1722447028.277891) can0 007#01 R
(1722447028.288941) can0 00D#ABFD R
(1722447028.289068) can0 05B#ABFD R
(1722447028.289185) can0 014#01 R
(1722447028.289300) can0 008#01 R
(1722447028.289417) can0 055#01 R
(1722447028.289533) can0 05D#01 R
(1722447028.304168) can0 00E#7BFD R
(1722447028.304415) can0 05C#7BFD7BFD R
(1722447028.304520) can0 041#01 R
(1722447028.304625) can0 016#27 R
(1722447028.304771) can0 015#01 R
(1722447028.304849) can0 017#01 R
(1722447028.304982) can0 056#01 R
(1722447028.320318) can0 05C#5CFD5CFD R
(1722447028.320433) can0 056#01 R
(1722447028.320570) can0 00E#5CFD R
(1722447028.333645) can0 007#01 R
(1722447028.334839) can0 015#01 R
(1722447028.334954) can0 016#27 R
(1722447028.335072) can0 041#01 R
(1722447028.335205) can0 00E#3AFD R
(1722447028.335372) can0 05C#3AFD3AFD R
(1722447028.335486) can0 016#27 R
(1722447028.350456) can0 00D#2EFD R
(1722447028.350586) can0 05B#2EFD R
(1722447028.350700) can0 014#01 R
(1722447028.350816) can0 008#01 R
(1722447028.350932) can0 055#01 R
(1722447028.351050) can0 05D#01 R
(1722447028.365006) can0 00E#F9FC R
(1722447028.365779) can0 05C#F9FCF9FC R
(1722447028.365895) can0 041#01 R
(1722447028.366011) can0 016#27 R
(1722447028.366129) can0 015#01 R
(1722447028.366244) can0 017#01 R
(1722447028.366361) can0 056#01 R
(1722447028.380069) can0 015#01 R
(1722447028.380181) can0 016#27 R
(1722447028.380300) can0 041#01 R
(1722447028.380473) can0 05C#D7FCD7FC R
(1722447028.380580) can0 056#01 R
(1722447028.383442) can0 007#01 R
(1722447028.395010) can0 00E#B7FC R
(1722447028.395138) can0 00E#B7FC R
(1722447028.395309) can0 05C#B7FCB7FC R
(1722447028.410466) can0 00D#A7FC R
(1722447028.410598) can0 05B#A7FC R
(1722447028.410712) can0 014#01 R
(1722447028.410828) can0 016#27 R
(1722447028.411145) can0 008#01 R
(1722447028.411261) can0 055#01 R
(1722447028.411381) can0 05D#01 R
(1722447028.425838) can0 00E#6CFC R
(1722447028.425999) can0 05C#6CFC6CFC R
(1722447028.426124) can0 041#01 R
(1722447028.426234) can0 016#27 R
(1722447028.426351) can0 015#01 R
(1722447028.426469) can0 017#01 R
(1722447028.426587) can0 056#01 R
(1722447028.433974) can0 007#01 R
(1722447028.441090) can0 015#01 R
(1722447028.441197) can0 016#27 R
(1722447028.441375) can0 05C#47FC47FC R
(1722447028.441481) can0 056#01 R
(1722447028.441623) can0 00E#47FC R
(1722447028.441753) can0 00E#47FC R
(1722447028.456761) can0 041#01 R
(1722447028.456908) can0 05C#22FC22FC R
(1722447028.457023) can0 016#27 R
(1722447028.472523) can0 00D#10FC R
(1722447028.472649) can0 05B#10FC R
(1722447028.472785) can0 014#01 R
(1722447028.472880) can0 008#01 R
(1722447028.473003) can0 055#01 R
(1722447028.473116) can0 05D#01 R
(1722447028.483374) can0 007#01 R
(1722447028.487983) can0 00E#D2FB R
(1722447028.488151) can0 05C#D2FBD2FB R
(1722447028.488267) can0 041#01 R
(1722447028.488409) can0 016#27 R
(1722447028.488505) can0 015#01 R
(1722447028.488615) can0 017#01 R
(1722447028.488757) can0 056#01 R
(1722447028.503255) can0 015#01 R
(1722447028.503417) can0 05C#ABFBABFB R
(1722447028.503535) can0 056#01 R
(1722447028.503670) can0 00E#ABFB R
(1722447028.518534) can0 016#27 R
(1722447028.518648) can0 041#01 R
(1722447028.518784) can0 00E#80FB R
(1722447028.518959) can0 05C#80FB80FB R
(1722447028.519071) can0 016#27 R
(1722447028.533554) can0 00D#6DFB R
(1722447028.533686) can0 05B#6DFB R
(1722447028.533802) can0 014#01 R
(1722447028.533918) can0 008#01 R
(1722447028.534033) can0 055#01 R
(1722447028.534152) can0 05D#01 R
(1722447028.538369) can0 007#01 R
(1722447028.549144) can0 00E#2BFB R
(1722447028.549311) can0 05C#2BFB2BFB R
(1722447028.549425) can0 041#01 R
(1722447028.549541) can0 016#27 R
(1722447028.549658) can0 015#01 R
(1722447028.549776) can0 017#01 R
(1722447028.549892) can0 056#01 R
(1722447028.564054) can0 05C#00FB00FB R
(1722447028.564168) can0 056#01 R
(1722447028.564305) can0 00E#00FB R
(1722447028.579095) can0 015#01 R
(1722447028.579208) can0 016#27 R
(1722447028.579332) can0 041#01 R
(1722447028.579459) can0 00E#D5FA R
(1722447028.579633) can0 05C#D5FAD5FA R
(1722447028.579740) can0 016#27 R
(1722447028.588424) can0 007#01 R
(1722447028.594839) can0 00D#C1FA R
(1722447028.594976) can0 05B#C1FA R
(1722447028.595088) can0 014#01 R
(1722447028.595205) can0 008#01 R
(1722447028.595321) can0 055#01 R
(1722447028.595439) can0 05D#01 R
(1722447028.610143) can0 00E#7AFA R
(1722447028.610309) can0 05C#7AFA7AFA R
(1722447028.610423) can0 041#01 R
(1722447028.610540) can0 016#27 R
(1722447028.610656) can0 015#01 R
(1722447028.610774) can0 017#01 R
(1722447028.610889) can0 056#01 R
(1722447028.626026) can0 05C#4AFA4AFA R
(1722447028.626141) can0 056#01 R
(1722447028.637758) can0 007#01 R
(1722447028.641142) can0 015#01 R
(1722447028.641256) can0 016#27 R
(1722447028.641374) can0 041#01 R
(1722447028.641504) can0 00E#1CFA R
(1722447028.641637) can0 00E#1CFA R
(1722447028.641807) can0 05C#1CFA1CFA R
(1722447028.656480) can0 016#27 R
(1722447028.656595) can0 00D#0AFA R
(1722447028.656774) can0 05B#0AFA R
(1722447028.656833) can0 014#01 R
(1722447028.656964) can0 008#01 R
(1722447028.657077) can0 055#01 R
(1722447028.657195) can0 05D#01 R
(1722447028.672354) can0 00E#BBF9 R
(1722447028.672509) can0 05C#BBF9BBF9 R
(1722447028.672625) can0 041#01 R
(1722447028.672751) can0 016#27 R
(1722447028.672856) can0 015#01 R
(1722447028.672979) can0 017#01 R
(1722447028.673092) can0 056#01 R
(1722447028.687495) can0 015#01 R
(1722447028.687608) can0 016#26 R
(1722447028.687779) can0 05C#8BF98BF9 R
(1722447028.687891) can0 056#01 R
(1722447028.688025) can0 00E#8BF9 R
(1722447028.688161) can0 00E#8BF9 R
(1722447028.688298) can0 007#01 R
(1722447028.702437) can0 041#01 R
(1722447028.702597) can0 05C#5AF95AF9 R
(1722447028.702709) can0 016#26 R
(1722447028.719259) can0 00D#43F9 R
(1722447028.719388) can0 05B#43F9 R
(1722447028.719504) can0 014#01 R
(1722447028.719619) can0 008#01 R
(1722447028.719734) can0 055#01 R
(1722447028.719854) can0 05D#01 R
(1722447028.734117) can0 00E#F3F8 R
(1722447028.734293) can0 05C#F3F8F3F8 R
(1722447028.734409) can0 041#01 R
(1722447028.734525) can0 016#26 R
(1722447028.734642) can0 015#01 R
(1722447028.734759) can0 017#01 R
(1722447028.734875) can0 056#01 R
(1722447028.738601) can0 007#01 R
(1722447028.748808) can0 015#01 R
(1722447028.748969) can0 05C#BDF8BDF8 R
(1722447028.749086) can0 056#01 R
(1722447028.749219) can0 00E#BDF8 R
(1722447028.765302) can0 016#26 R
(1722447028.765495) can0 041#01 R
(1722447028.765629) can0 00E#86F8 R
(1722447028.765797) can0 05C#86F886F8 R
(1722447028.765909) can0 016#26 R
(1722447028.780411) can0 00D#71F8 R
(1722447028.780544) can0 05B#71F8 R
(1722447028.780657) can0 014#01 R
(1722447028.780807) can0 008#01 R
(1722447028.780868) can0 055#01 R
(1722447028.781014) can0 05D#01 R
(1722447028.787849) can0 007#01 R
(1722447028.795146) can0 00E#1DF8 R
(1722447028.795324) can0 05C#1CF81CF8 R
(1722447028.795435) can0 041#01 R
(1722447028.795552) can0 016#26 R
(1722447028.795667) can0 015#01 R
(1722447028.795785) can0 017#01 R
(1722447028.795901) can0 056#01 R
(1722447028.810918) can0 05C#E3F7E3F7 R
(1722447028.811039) can0 056#01 R
(1722447028.811174) can0 00E#E3F7 R
(1722447028.826592) can0 015#01 R
(1722447028.826704) can0 016#26 R
(1722447028.826824) can0 041#01 R
(1722447028.826960) can0 00E#ADF7 R
(1722447028.827132) can0 05C#ADF7ADF7 R
(1722447028.827243) can0 016#26 R
(1722447028.839063) can0 007#01 R
(1722447028.842202) can0 00D#93F7 R
(1722447028.842337) can0 05B#93F7 R
(1722447028.842453) can0 014#01 R
(1722447028.842568) can0 008#01 R
(1722447028.842685) can0 055#01 R
(1722447028.842802) can0 05D#01 R
(1722447028.856982) can0 00E#3AF7 R
(1722447028.857145) can0 05C#3AF73AF7 R
(1722447028.857266) can0 041#01 R
(1722447028.857381) can0 016#26 R
(1722447028.857499) can0 015#01 R
(1722447028.857614) can0 017#01 R
(1722447028.857731) can0 056#01 R
(1722447028.872554) can0 015#01 R
(1722447028.872665) can0 016#26 R
(1722447028.872813) can0 041#01 R
(1722447028.872954) can0 05C#02F702F7 R
(1722447028.888015) can0 007#01 R
(1722447028.888129) can0 056#01 R
(1722447028.888261) can0 00E#C5F6 R
(1722447028.888395) can0 00E#C5F6 R
(1722447028.888564) can0 05C#C5F6C5F6 R
(1722447028.903158) can0 00D#AEF6 R
(1722447028.903286) can0 05B#AEF6 R
(1722447028.903402) can0 014#01 R
(1722447028.903517) can0 008#01 R
(1722447028.903634) can0 016#26 R
(1722447028.903749) can0 055#01 R
(1722447028.903869) can0 05D#01 R
(1722447028.917824) can0 00E#50F6 R
(1722447028.917982) can0 05C#50F650F6 R
(1722447028.918103) can0 041#01 R
(1722447028.918219) can0 016#26 R
(1722447028.918335) can0 015#01 R
(1722447028.918453) can0 017#01 R
(1722447028.918568) can0 056#01 R
(1722447028.933285) can0 015#01 R
(1722447028.933419) can0 00E#15F6 R
(1722447028.933559) can0 00E#15F6 R
(1722447028.938008) can0 007#01 R
(1722447028.948249) can0 016#26 R
(1722447028.948376) can0 041#01 R
(1722447028.948529) can0 05C#D9F5D9F5 R
(1722447028.948635) can0 056#01 R
(1722447028.948818) can0 05C#D9F5D9F5 R
(1722447028.948917) can0 016#26 R
(1722447028.963888) can0 00D#BDF5 R
(1722447028.964018) can0 05B#BDF5 R
(1722447028.964135) can0 014#01 R
(1722447028.964250) can0 008#01 R
(1722447028.964367) can0 055#01 R
(1722447028.964490) can0 05D#01 R
(1722447028.979066) can0 00E#5BF5 R
(1722447028.979278) can0 05C#5BF55BF5 R
(1722447028.979394) can0 041#01 R
(1722447028.979510) can0 016#26 R
(1722447028.979627) can0 015#01 R
(1722447028.979744) can0 017#01 R
(1722447028.979860) can0 056#01 R
(1722447028.991132) can0 007#01 R
(1722447028.993774) can0 00E#1DF5 R
(1722447029.008908) can0 015#01 R
(1722447029.009021) can0 016#26 R
(1722447029.009139) can0 041#01 R
(1722447029.009306) can0 05C#E3F4E3F4 R
(1722447029.009422) can0 056#01 R
(1722447029.009556) can0 00E#E3F4 R
(1722447029.009723) can0 05C#E3F4E3F4 R
(1722447029.009841) can0 016#26 R
(1722447029.024113) can0 00D#C5F4 R
(1722447029.024245) can0 05B#C5F4 R
(1722447029.024358) can0 014#01 R
(1722447029.024481) can0 008#01 R
(1722447029.024592) can0 055#01 R
(1722447029.024709) can0 05D#01 R
(1722447029.038792) can0 00E#63F4 R
(1722447029.039146) can0 05C#63F463F4 R
(1722447029.039262) can0 041#01 R
(1722447029.039377) can0 016#26 R
(1722447029.039494) can0 015#01 R
(1722447029.039617) can0 017#01 R
(1722447029.039728) can0 056#01 R
(1722447029.039851) can0 015#01 R
(1722447029.039964) can0 016#26 R
(1722447029.040088) can0 041#01 R
(1722447029.040217) can0 00E#63F4 R
(1722447029.040621) can0 007#01 R
(1722447029.054903) can0 05C#1EF41EF4 R
(1722447029.055005) can0 056#01 R
(1722447029.055141) can0 00E#1FF4 R
(1722447029.055314) can0 05C#1EF41EF4 R
(1722447029.055425) can0 016#26 R
(1722447029.085910) can0 00D#BAF3 R
(1722447029.086034) can0 05B#BAF3 R
(1722447029.086151) can0 014#01 R
(1722447029.086267) can0 008#01 R
(1722447029.086383) can0 055#01 R
(1722447029.086500) can0 05D#01 R
(1722447029.090316) can0 007#01 R
(1722447029.101557) can0 00E#50F3 R
(1722447029.101714) can0 05C#50F350F3 R
(1722447029.101836) can0 041#01 R
(1722447029.102363) can0 016#26 R
(1722447029.102471) can0 015#01 R
(1722447029.102596) can0 017#01 R
(1722447029.102705) can0 056#01 R
(1722447029.116905) can0 015#01 R
(1722447029.117066) can0 05C#0CF30CF3 R
(1722447029.117182) can0 056#01 R
(1722447029.132108) can0 016#25 R
(1722447029.132240) can0 041#01 R
(1722447029.132367) can0 00E#C4F2 R
(1722447029.132502) can0 00E#C4F2 R
(1722447029.132667) can0 05C#C4F2C4F2 R
(1722447029.140791) can0 007#01 R
(1722447029.148152) can0 00D#A4F2 R
(1722447029.148279) can0 05B#A4F2 R
(1722447029.148395) can0 014#01 R
(1722447029.148511) can0 008#01 R
(1722447029.148625) can0 016#25 R
(1722447029.148750) can0 055#01 R
(1722447029.148860) can0 05D#01 R
(1722447029.164032) can0 00E#35F2 R
(1722447029.164241) can0 05C#35F235F2 R
(1722447029.164358) can0 041#01 R
(1722447029.164477) can0 016#25 R
(1722447029.164587) can0 015#01 R
(1722447029.164711) can0 017#01 R
(1722447029.164831) can0 056#01 R
(1722447029.178864) can0 05C#EAF1EAF1 R
(1722447029.178975) can0 056#01 R
(1722447029.179110) can0 00E#EBF1 R
(1722447029.179242) can0 00E#EBF1 R
(1722447029.179356) can0 015#01 R
(1722447029.179469) can0 016#25 R
(1722447029.179589) can0 041#01 R
(1722447029.179757) can0 05C#EAF1EAF1 R
(1722447029.179864) can0 016#25 R
(1722447029.203262) can0 007#01 R
(1722447029.209629) can0 00D#83F1 R
(1722447029.209765) can0 05B#83F1 R
(1722447029.209877) can0 014#01 R
(1722447029.209993) can0 008#01 R
(1722447029.210111) can0 055#01 R
(1722447029.210227) can0 05D#01 R
(1722447029.225538) can0 00E#10F1 R
(1722447029.225709) can0 05C#0FF10FF1 R
(1722447029.225821) can0 041#01 R
(1722447029.225935) can0 016#25 R
(1722447029.226051) can0 015#01 R
(1722447029.226169) can0 017#01 R
(1722447029.226286) can0 056#01 R
(1722447029.240919) can0 015#01 R
(1722447029.241028) can0 016#25 R
(1722447029.242399) can0 05C#C2F0C2F0 R
(1722447029.242531) can0 00E#C2F0 R
(1722447029.253091) can0 007#01 R
(1722447029.256376) can0 041#01 R
(1722447029.256444) can0 056#01 R
(1722447029.256610) can0 00E#79F0 R
(1722447029.256810) can0 05C#79F078F0 R
(1722447029.256877) can0 016#25 R
(1722447029.272133) can0 00D#56F0 R
(1722447029.272264) can0 05B#56F0 R
(1722447029.272384) can0 014#01 R
(1722447029.272494) can0 008#01 R
(1722447029.272611) can0 055#01 R
(1722447029.272756) can0 05D#01 R
(1722447029.287267) can0 00E#DFEF R
(1722447029.287438) can0 05C#DFEFDFEF R
(1722447029.287555) can0 041#01 R
(1722447029.287665) can0 016#25 R
(1722447029.287780) can0 015#01 R
(1722447029.287899) can0 017#01 R
(1722447029.288014) can0 056#01 R
(1722447029.302627) can0 015#01 R
(1722447029.302796) can0 05C#93EF93EF R
(1722447029.302928) can0 00E#94EF R
(1722447029.303536) can0 007#01 R
(1722447029.317968) can0 016#25 R
(1722447029.318079) can0 041#01 R
(1722447029.318202) can0 056#01 R
(1722447029.318330) can0 00E#43EF R
(1722447029.318499) can0 05C#42EF42EF R
(1722447029.318607) can0 016#25 R
(1722447029.333085) can0 00D#24EF R
(1722447029.333214) can0 05B#24EF R
(1722447029.333330) can0 014#01 R
(1722447029.333446) can0 008#01 R
(1722447029.333564) can0 055#01 R
(1722447029.333680) can0 05D#01 R
(1722447029.348449) can0 00E#A9EE R
(1722447029.348602) can0 05C#A8EEA8EE R
(1722447029.348724) can0 041#01 R
(1722447029.348806) can0 016#25 R
(1722447029.348952) can0 015#01 R
(1722447029.349065) can0 017#01 R
(1722447029.349183) can0 056#01 R
(1722447029.352861) can0 007#01 R
(1722447029.363139) can0 05C#5BEE5BEE R
(1722447029.378549) can0 015#01 R
(1722447029.378756) can0 016#25 R
(1722447029.378873) can0 041#01 R
(1722447029.378992) can0 056#01 R
(1722447029.379124) can0 00E#0CEE R
(1722447029.379258) can0 00E#0CEE R
(1722447029.379428) can0 05C#0CEE0CEE R
(1722447029.393809) can0 016#25 R
(1722447029.394696) can0 00D#E7ED R
(1722447029.394829) can0 05B#E7ED R
(1722447029.394941) can0 014#01 R
(1722447029.395059) can0 008#01 R
(1722447029.395174) can0 055#01 R
(1722447029.395292) can0 05D#01 R
(1722447029.403220) can0 007#01 R
(1722447029.409464) can0 00E#68ED R
(1722447029.409623) can0 05C#68ED68ED R
(1722447029.409743) can0 041#01 R
(1722447029.409857) can0 016#25 R
(1722447029.409973) can0 015#01 R
(1722447029.410091) can0 017#01 R
(1722447029.410206) can0 056#01 R
(1722447029.425074) can0 05C#12ED12ED R
(1722447029.425202) can0 00E#12ED R
(1722447029.425331) can0 00E#12ED R
(1722447029.440372) can0 015#01 R
(1722447029.440566) can0 016#24 R
(1722447029.440681) can0 041#01 R
(1722447029.440811) can0 056#01 R
(1722447029.440970) can0 05C#C1ECC1EC R
(1722447029.441087) can0 016#24 R
(1722447029.453827) can0 007#01 R
(1722447029.455808) can0 00D#9BEC R
(1722447029.455948) can0 05B#9BEC R
(1722447029.456057) can0 014#01 R
(1722447029.456174) can0 008#01 R
(1722447029.456289) can0 055#01 R
(1722447029.456410) can0 05D#01 R
(1722447029.471926) can0 00E#17EC R
(1722447029.472094) can0 05C#17EC17EC R
(1722447029.472293) can0 041#01 R
(1722447029.472384) can0 016#24 R
(1722447029.472527) can0 015#01 R
(1722447029.472643) can0 017#01 R
(1722447029.472783) can0 056#01 R
(1722447029.487111) can0 015#01 R
(1722447029.487228) can0 016#24 R
(1722447029.487347) can0 041#01 R
(1722447029.487513) can0 05C#C4EBC4EB R
(1722447029.487646) can0 00E#C4EB R
(1722447029.501952) can0 056#01 R
(1722447029.502084) can0 00E#6BEB R
(1722447029.502249) can0 05C#6BEB6BEB R
(1722447029.502365) can0 016#24 R
(1722447029.517154) can0 00D#49EB R
(1722447029.517284) can0 05B#49EB R
(1722447029.517400) can0 014#01 R
(1722447029.517515) can0 008#01 R
(1722447029.517632) can0 055#01 R
(1722447029.517749) can0 05D#01 R
(1722447029.520721) can0 007#01 R
(1722447029.532726) can0 00E#C2EA R
(1722447029.532890) can0 05C#C2EAC2EA R
(1722447029.533007) can0 041#01 R
(1722447029.533124) can0 016#24 R
(1722447029.533241) can0 015#01 R
(1722447029.533359) can0 017#01 R
(1722447029.533478) can0 056#01 R
(1722447029.548477) can0 015#01 R
(1722447029.548593) can0 016#24 R
(1722447029.548782) can0 05C#67EA67EA R
(1722447029.548907) can0 00E#67EA R
(1722447029.549015) can0 041#01 R
(1722447029.549133) can0 056#01 R
(1722447029.549265) can0 00E#67EA R
(1722447029.549435) can0 05C#67EA67EA R
(1722447029.549551) can0 016#24 R
(1722447029.570356) can0 007#01 R
(1722447029.579456) can0 00D#E2E9 R
(1722447029.579577) can0 05B#E2E9 R
(1722447029.579692) can0 014#01 R
(1722447029.579808) can0 008#01 R
(1722447029.579923) can0 055#01 R
(1722447029.580042) can0 05D#01 R
(1722447029.594860) can0 00E#57E9 R
(1722447029.595023) can0 05C#57E957E9 R
(1722447029.595142) can0 041#01 R
(1722447029.595260) can0 016#24 R
(1722447029.595376) can0 015#01 R
(1722447029.595494) can0 017#01 R
(1722447029.595611) can0 056#01 R
(1722447029.620717) can0 007#01 R
(1722447029.625110) can0 015#01 R
(1722447029.625228) can0 016#24 R
(1722447029.625344) can0 041#01 R
(1722447029.625509) can0 05C#A6E8A6E8 R
(1722447029.625624) can0 056#01 R
(1722447029.625756) can0 00E#A6E8 R
(1722447029.625884) can0 00E#A6E8 R
(1722447029.626154) can0 05C#A6E8A6E8 R
(1722447029.640139) can0 016#24 R
(1722447029.640271) can0 00D#83E8 R
(1722447029.640408) can0 05B#83E8 R
(1722447029.640524) can0 014#01 R
(1722447029.640639) can0 008#01 R
(1722447029.640779) can0 055#01 R
(1722447029.640875) can0 05D#01 R
(1722447029.655688) can0 00E#F3E7 R
(1722447029.655950) can0 05C#F3E7F3E7 R
(1722447029.656069) can0 041#01 R
(1722447029.656185) can0 016#24 R
(1722447029.656316) can0 015#01 R
(1722447029.656422) can0 017#01 R
(1722447029.656536) can0 056#01 R
(1722447029.670540) can0 007#01 R
(1722447029.671481) can0 00E#93E7 R
(1722447029.671615) can0 00E#93E7 R
(1722447029.686938) can0 015#01 R
(1722447029.687151) can0 016#24 R
(1722447029.687269) can0 041#01 R
(1722447029.687432) can0 05C#32E732E7 R
(1722447029.687549) can0 056#01 R
(1722447029.687713) can0 05C#32E732E7 R
(1722447029.687831) can0 016#24 R
(1722447029.702288) can0 00D#0DE7 R
(1722447029.702408) can0 05B#0DE7 R
(1722447029.702522) can0 014#01 R
(1722447029.702640) can0 008#01 R
(1722447029.702754) can0 055#01 R
(1722447029.702877) can0 05D#01 R
(1722447029.717493) can0 00E#7AE6 R
(1722447029.717661) can0 05C#7AE67AE6 R
(1722447029.717780) can0 041#01 R
(1722447029.717890) can0 016#24 R
(1722447029.718007) can0 015#01 R
(1722447029.718126) can0 017#01 R
(1722447029.718246) can0 056#01 R
(1722447029.720684) can0 007#01 R
(1722447029.732207) can0 015#01 R
(1722447029.732319) can0 016#23 R
(1722447029.732437) can0 041#01 R
(1722447029.732566) can0 00E#1DE6 R
(1722447029.732911) can0 05C#1DE61DE6 R
(1722447029.733027) can0 056#01 R
(1722447029.733156) can0 00E#1DE6 R
(1722447029.733321) can0 05C#1DE61DE6 R
(1722447029.733435) can0 016#23 R
(1722447029.763409) can0 00D#94E5 R
(1722447029.763596) can0 05B#94E5 R
(1722447029.763717) can0 014#01 R
(1722447029.763836) can0 008#01 R
(1722447029.763954) can0 055#01 R
(1722447029.764065) can0 05D#01 R
(1722447029.770721) can0 007#01 R
(1722447029.778594) can0 00E#FDE4 R
(1722447029.778759) can0 05C#FDE4FDE4 R
(1722447029.778878) can0 041#01 R
(1722447029.778991) can0 016#23 R
(1722447029.779108) can0 015#01 R
(1722447029.779225) can0 017#01 R
(1722447029.779343) can0 056#01 R
(1722447029.792937) can0 015#01 R
(1722447029.793233) can0 00E#9EE4 R
(1722447029.808541) can0 016#23 R
(1722447029.808658) can0 041#01 R
(1722447029.808831) can0 05C#3EE43EE4 R
(1722447029.808944) can0 056#01 R
(1722447029.809082) can0 00E#3EE4 R
(1722447029.809252) can0 05C#3EE43EE4 R
(1722447029.809365) can0 016#23 R
(1722447029.819923) can0 007#01 R
(1722447029.824261) can0 00D#11E4 R
(1722447029.824396) can0 05B#11E4 R
(1722447029.824508) can0 014#01 R
(1722447029.824625) can0 008#01 R
(1722447029.824768) can0 055#01 R
(1722447029.824860) can0 05D#01 R
(1722447029.839926) can0 00E#70E3 R
(1722447029.840087) can0 05C#70E370E3 R
(1722447029.840206) can0 041#01 R
(1722447029.840323) can0 016#23 R
(1722447029.840458) can0 015#01 R
(1722447029.840550) can0 017#01 R
(1722447029.840670) can0 056#01 R
(1722447029.855621) can0 015#01 R
(1722447029.855736) can0 016#23 R
(1722447029.855854) can0 041#01 R
(1722447029.856018) can0 05C#0EE30EE3 R
(1722447029.856134) can0 056#01 R
(1722447029.856265) can0 00E#0EE3 R
(1722447029.856399) can0 00E#0EE3 R
(1722447029.856563) can0 05C#0EE30EE3 R
(1722447029.869895) can0 007#01 R
(1722447029.870962) can0 016#23 R
(1722447029.886882) can0 00D#78E2 R
(1722447029.887010) can0 05B#78E2 R
(1722447029.887126) can0 014#01 R
(1722447029.887242) can0 008#01 R
(1722447029.887359) can0 055#01 R
(1722447029.887476) can0 05D#01 R
(1722447029.902190) can0 00E#D9E1 R
(1722447029.902352) can0 05C#D9E1D9E1 R
(1722447029.902467) can0 041#01 R
(1722447029.902590) can0 016#23 R
(1722447029.902697) can0 015#01 R
(1722447029.902815) can0 017#01 R
(1722447029.902931) can0 056#01 R
(1722447029.917501) can0 015#01 R
(1722447029.917615) can0 016#23 R
(1722447029.917733) can0 041#01 R
(1722447029.917897) can0 05C#75E175E1 R
(1722447029.918013) can0 056#01 R
(1722447029.918145) can0 00E#75E1 R
(1722447029.918277) can0 00E#75E1 R
(1722447029.920238) can0 007#01 R
(1722447029.933553) can0 05C#0AE10AE1 R
(1722447029.933669) can0 016#23 R
(1722447029.948898) can0 00D#DBE0 R
(1722447029.949031) can0 05B#DBE0 R
(1722447029.949147) can0 014#01 R
(1722447029.949262) can0 008#01 R
(1722447029.949384) can0 055#01 R
(1722447029.949498) can0 05D#01 R
(1722447029.965938) can0 00E#40E0 R
(1722447029.966105) can0 05C#40E040E0 R
(1722447029.966224) can0 041#01 R
(1722447029.966339) can0 016#23 R
(1722447029.966456) can0 015#01 R
(1722447029.966578) can0 017#01 R
(1722447029.966694) can0 056#01 R
(1722447029.966811) can0 015#01 R
(1722447029.966919) can0 016#23 R
(1722447029.967085) can0 05C#39E039E0 R
(1722447029.967205) can0 056#01 R
(1722447029.967333) can0 00E#39E0 R
(1722447029.970358) can0 007#01 R
(1722447029.979514) can0 041#01 R
(1722447029.979654) can0 00E#D3DF R
(1722447029.979824) can0 05C#D3DFD3DF R
(1722447029.979940) can0 016#22 R
(1722447030.009985) can0 00D#3CDF R
(1722447030.010184) can0 05B#3CDF R
(1722447030.010315) can0 014#01 R
(1722447030.010412) can0 008#01 R
(1722447030.010531) can0 055#01 R
(1722447030.010650) can0 05D#01 R
(1722447030.023257) can0 007#01 R
(1722447030.025226) can0 00E#96DE R
(1722447030.025392) can0 05C#96DE96DE R
(1722447030.025504) can0 041#01 R
(1722447030.025618) can0 016#22 R
(1722447030.025733) can0 015#01 R
(1722447030.025852) can0 017#01 R
(1722447030.025968) can0 056#01 R
(1722447030.026137) can0 05C#96DE96DE R
(1722447030.026262) can0 00E#96DE R
(1722447030.040813) can0 015#01 R
(1722447030.040989) can0 016#22 R
(1722447030.041100) can0 041#01 R
(1722447030.041216) can0 056#01 R
(1722447030.041349) can0 00E#27DE R
(1722447030.041518) can0 05C#27DE27DE R
(1722447030.041628) can0 016#22 R
(1722447030.070762) can0 00D#94DD R
(1722447030.070893) can0 05B#94DD R
(1722447030.071009) can0 014#01 R
(1722447030.071124) can0 008#01 R
(1722447030.071241) can0 055#01 R
(1722447030.071360) can0 05D#01 R
(1722447030.073187) can0 007#01 R
(1722447030.086625) can0 00E#EBDC R
(1722447030.086790) can0 05C#EBDCEBDC R
(1722447030.086901) can0 041#01 R
(1722447030.087020) can0 016#22 R
(1722447030.087135) can0 015#01 R
(1722447030.087253) can0 017#01 R
(1722447030.087370) can0 056#01 R
(1722447030.101367) can0 015#01 R
(1722447030.116110) can0 016#22 R
(1722447030.116221) can0 041#01 R
(1722447030.116395) can0 05C#15DC15DC R
(1722447030.116508) can0 056#01 R
(1722447030.116641) can0 00E#15DC R
(1722447030.116800) can0 00E#15DC R
(1722447030.116941) can0 05C#15DC15DC R
(1722447030.123213) can0 007#01 R
(1722447030.131858) can0 00D#E3DB R
(1722447030.131971) can0 016#22 R
(1722447030.132099) can0 05B#E3DB R
(1722447030.132214) can0 014#01 R
(1722447030.132331) can0 008#01 R
(1722447030.132450) can0 055#01 R
(1722447030.132565) can0 05D#01 R
(1722447030.147912) can0 00E#37DB R
(1722447030.148134) can0 05C#37DB37DB R
(1722447030.148253) can0 041#01 R
(1722447030.148366) can0 016#22 R
(1722447030.148484) can0 015#01 R
(1722447030.148601) can0 017#01 R
(1722447030.148717) can0 056#01 R
(1722447030.163223) can0 00E#C3DA R
(1722447030.163350) can0 00E#C3DA R
(1722447030.163466) can0 015#01 R
(1722447030.163580) can0 016#22 R
(1722447030.163700) can0 041#01 R
(1722447030.163862) can0 05C#C3DAC3DA R
(1722447030.163975) can0 056#01 R
(1722447030.164143) can0 05C#C3DAC3DA R
(1722447030.164250) can0 016#22 R
(1722447030.194195) can0 00D#23DA R
(1722447030.194317) can0 05B#23DA R
(1722447030.194436) can0 014#01 R
(1722447030.194548) can0 008#01 R
(1722447030.194667) can0 055#01 R
(1722447030.194781) can0 05D#01 R
(1722447030.196445) can0 007#01 R
(1722447030.209799) can0 00E#6BD9 R
(1722447030.209956) can0 05C#6BD96BD9 R
(1722447030.210075) can0 041#01 R
(1722447030.210190) can0 016#21 R
(1722447030.210311) can0 015#01 R
(1722447030.210423) can0 017#01 R
(1722447030.210545) can0 056#01 R
(1722447030.210655) can0 015#01 R
(1722447030.210771) can0 016#21 R
(1722447030.210933) can0 05C#6BD96BD9 R
(1722447030.211049) can0 056#01 R
(1722447030.211186) can0 00E#6BD9 R
(1722447030.224855) can0 041#01 R
(1722447030.224969) can0 00E#FCD8 R
(1722447030.225149) can0 05C#FCD8FCD8 R
(1722447030.225255) can0 016#21 R
(1722447030.251343) can0 007#01 R
(1722447030.254941) can0 00D#61D8 R
(1722447030.255071) can0 05B#61D8 R
(1722447030.255184) can0 014#01 R
(1722447030.255305) can0 008#01 R
(1722447030.255416) can0 055#01 R
(1722447030.255541) can0 05D#01 R
(1722447030.270014) can0 00E#ADD7 R
(1722447030.270194) can0 05C#ADD7ADD7 R
(1722447030.270307) can0 041#01 R
(1722447030.270423) can0 016#21 R
(1722447030.270538) can0 015#01 R
(1722447030.270656) can0 017#01 R
(1722447030.270772) can0 056#01 R
(1722447030.285650) can0 00E#3CD7 R
(1722447030.301210) can0 007#01 R
(1722447030.301321) can0 015#01 R
(1722447030.301441) can0 016#21 R
(1722447030.301564) can0 041#01 R
(1722447030.301721) can0 05C#C4D6C4D6 R
(1722447030.301833) can0 056#01 R
(1722447030.301970) can0 00E#C4D6 R
(1722447030.302136) can0 05C#C4D6C4D6 R
(1722447030.302242) can0 016#21 R
(1722447030.317440) can0 00D#8FD6 R
(1722447030.317573) can0 05B#8FD6 R
(1722447030.317685) can0 014#01 R
(1722447030.317803) can0 008#01 R
(1722447030.317917) can0 055#01 R
(1722447030.318036) can0 05D#01 R
(1722447030.331871) can0 00E#E0D5 R
(1722447030.332124) can0 05C#E0D5E0D5 R
(1722447030.332237) can0 041#01 R
(1722447030.332353) can0 016#21 R
(1722447030.332468) can0 015#01 R
(1722447030.332589) can0 017#01 R
(1722447030.332704) can0 056#01 R
(1722447030.347523) can0 015#01 R
(1722447030.347633) can0 016#21 R
(1722447030.347752) can0 041#01 R
(1722447030.351475) can0 007#01 R
(1722447030.362813) can0 05C#F2D4F2D4 R
(1722447030.362928) can0 056#01 R
(1722447030.363060) can0 00E#F2D4 R
(1722447030.363192) can0 00E#F2D4 R
(1722447030.363355) can0 05C#F2D4F2D4 R
(1722447030.377721) can0 016#21 R
(1722447030.377850) can0 00D#C4D4 R
(1722447030.377981) can0 05B#C4D4 R
(1722447030.378096) can0 014#01 R
(1722447030.378211) can0 008#01 R
(1722447030.378328) can0 055#01 R
(1722447030.378446) can0 05D#01 R
(1722447030.393681) can0 00E#02D4 R
(1722447030.393847) can0 05C#02D402D4 R
(1722447030.393966) can0 041#01 R
(1722447030.394080) can0 016#21 R
(1722447030.394197) can0 015#01 R
(1722447030.394316) can0 017#01 R
(1722447030.394430) can0 056#01 R
(1722447030.401622) can0 007#01 R
(1722447030.409598) can0 015#01 R
(1722447030.409710) can0 016#21 R
(1722447030.409840) can0 00E#86D3 R
(1722447030.409970) can0 00E#86D3 R
(1722447030.424991) can0 041#01 R
(1722447030.425424) can0 05C#09D309D3 R
(1722447030.425541) can0 056#01 R
(1722447030.425706) can0 05C#09D309D3 R
(1722447030.425821) can0 016#20 R
(1722447030.440870) can0 00D#D2D2 R
(1722447030.440978) can0 05B#D2D2 R
(1722447030.441096) can0 014#01 R
(1722447030.441211) can0 008#01 R
(1722447030.441328) can0 055#01 R
(1722447030.441445) can0 05D#01 R
(1722447030.450853) can0 007#01 R
(1722447030.456724) can0 00E#15D2 R
(1722447030.456894) can0 05C#15D215D2 R
(1722447030.457000) can0 041#01 R
(1722447030.457123) can0 016#20 R
(1722447030.457238) can0 015#01 R
(1722447030.457356) can0 017#01 R
(1722447030.457472) can0 056#01 R
(1722447030.472217) can0 015#01 R
(1722447030.472346) can0 00E#96D1 R
(1722447030.487409) can0 016#20 R
(1722447030.487524) can0 041#01 R
(1722447030.487700) can0 05C#1FD11FD1 R
(1722447030.487811) can0 056#01 R
(1722447030.487942) can0 00E#1FD1 R
(1722447030.488111) can0 05C#1FD11FD1 R
(1722447030.488228) can0 016#20 R
(1722447030.500708) can0 007#01 R
(1722447030.502850) can0 00D#E7D0 R
(1722447030.502983) can0 05B#E7D0 R
(1722447030.503097) can0 014#01 R
(1722447030.503213) can0 008#01 R
(1722447030.503329) can0 055#01 R
(1722447030.503448) can0 05D#01 R
(1722447030.518281) can0 00E#27D0 R
(1722447030.518448) can0 05C#27D027D0 R
(1722447030.518560) can0 041#01 R
(1722447030.518680) can0 016#20 R
(1722447030.518801) can0 015#01 R
(1722447030.518913) can0 017#01 R
(1722447030.519036) can0 056#01 R
(1722447030.533625) can0 00E#AECF R
(1722447030.549494) can0 015#01 R
(1722447030.549596) can0 016#20 R
(1722447030.549719) can0 041#01 R
(1722447030.549884) can0 05C#2DCF2DCF R
(1722447030.549996) can0 056#01 R
(1722447030.550133) can0 00E#2DCF R
(1722447030.550294) can0 05C#2DCF2DCF R
(1722447030.550411) can0 016#20 R
(1722447030.551448) can0 007#01 R
(1722447030.565087) can0 00D#F5CE R
(1722447030.565218) can0 05B#F5CE R
(1722447030.565332) can0 014#01 R
(1722447030.565449) can0 008#01 R
(1722447030.565565) can0 055#01 R
(1722447030.565686) can0 05D#01 R
(1722447030.579846) can0 00E#32CE R
(1722447030.580004) can0 05C#32CE32CE R
(1722447030.580124) can0 041#01 R
(1722447030.580244) can0 016#20 R
(1722447030.580359) can0 015#01 R
(1722447030.580480) can0 017#01 R
(1722447030.580596) can0 056#01 R
(1722447030.594975) can0 015#01 R
(1722447030.595091) can0 016#20 R
(1722447030.595212) can0 041#01 R
(1722447030.601101) can0 007#01 R
(1722447030.610540) can0 05C#3CCD3CCD R
(1722447030.610647) can0 056#01 R
(1722447030.610783) can0 00E#3CCD R
(1722447030.610907) can0 00E#3CCD R
(1722447030.611073) can0 05C#3CCD3CCD R
(1722447030.625638) can0 00D#03CD R
(1722447030.625755) can0 016#1F R
(1722447030.625887) can0 05B#03CD R
(1722447030.626005) can0 014#01 R
(1722447030.626119) can0 008#01 R
(1722447030.626236) can0 055#01 R
(1722447030.626352) can0 05D#01 R
(1722447030.641817) can0 00E#3DCC R
(1722447030.642070) can0 05C#3DCC3DCC R
(1722447030.642189) can0 041#01 R
(1722447030.642307) can0 016#1F R
(1722447030.642422) can0 015#01 R
(1722447030.642539) can0 017#01 R
(1722447030.642656) can0 056#01 R
(1722447030.650932) can0 007#01 R
(1722447030.657562) can0 015#01 R
(1722447030.657676) can0 016#1F R
(1722447030.657808) can0 00E#B8CB R
(1722447030.657937) can0 00E#B8CB R
(1722447030.671762) can0 041#01 R
(1722447030.671983) can0 05C#3CCB3BCB R
(1722447030.672094) can0 056#01 R
(1722447030.672278) can0 05C#3CCB3BCB R
(1722447030.672386) can0 016#1F R
(1722447030.687527) can0 00D#0ACB R
(1722447030.687657) can0 05B#0ACB R
(1722447030.687773) can0 014#01 R
(1722447030.687888) can0 008#01 R
(1722447030.688005) can0 055#01 R
(1722447030.688122) can0 05D#01 R
(1722447030.701450) can0 007#01 R
(1722447030.703706) can0 00E#39CA R
(1722447030.703865) can0 05C#38CA38CA R
(1722447030.703986) can0 041#01 R
(1722447030.704101) can0 016#1F R
(1722447030.704218) can0 015#01 R
(1722447030.704335) can0 017#01 R
(1722447030.704455) can0 056#01 R
(1722447030.718641) can0 015#01 R
(1722447030.718954) can0 00E#BBC9 R
(1722447030.734177) can0 016#1F R
(1722447030.734287) can0 041#01 R
(1722447030.734459) can0 05C#34C934C9 R
(1722447030.734567) can0 056#01 R
(1722447030.734698) can0 00E#34C9 R
(1722447030.734869) can0 05C#34C934C9 R
(1722447030.734976) can0 016#1F R
(1722447030.750068) can0 00D#F8C8 R
(1722447030.750265) can0 05B#F8C8 R
(1722447030.750378) can0 014#01 R
(1722447030.750497) can0 008#01 R
(1722447030.750611) can0 055#01 R
(1722447030.750730) can0 05D#01 R
(1722447030.751752) can0 007#01 R
(1722447030.765180) can0 00E#2DC8 R
(1722447030.765348) can0 05C#2DC82DC8 R
(1722447030.765461) can0 041#01 R
(1722447030.765579) can0 016#1F R
(1722447030.765694) can0 015#01 R
(1722447030.765813) can0 017#01 R
(1722447030.765928) can0 056#01 R
(1722447030.780819) can0 00E#A5C7 R
(1722447030.795592) can0 015#01 R
(1722447030.795958) can0 016#1F R
(1722447030.796073) can0 041#01 R
(1722447030.796239) can0 05C#2DC72DC7 R
(1722447030.796350) can0 056#01 R
(1722447030.796487) can0 00E#2DC7 R
(1722447030.796650) can0 05C#2DC72DC7 R
(1722447030.796800) can0 016#1F R
(1722447030.801261) can0 007#01 R
(1722447030.810952) can0 00D#FAC6 R
(1722447030.811083) can0 05B#FAC6 R
(1722447030.811198) can0 014#01 R
(1722447030.811315) can0 008#01 R
(1722447030.811431) can0 055#01 R
(1722447030.811548) can0 05D#01 R
(1722447030.826676) can0 00E#23C6 R
(1722447030.826833) can0 05C#23C623C6 R
(1722447030.826953) can0 041#01 R
(1722447030.827066) can0 016#1E R
(1722447030.827183) can0 015#01 R
(1722447030.827301) can0 017#01 R
(1722447030.827416) can0 056#01 R
(1722447030.850684) can0 007#01 R
(1722447030.857158) can0 015#01 R
(1722447030.857246) can0 016#1E R
(1722447030.857377) can0 041#01 R
(1722447030.857544) can0 05C#17C517C5 R
(1722447030.857661) can0 056#01 R
(1722447030.857826) can0 00E#17C5 R
(1722447030.857934) can0 00E#17C5 R
(1722447030.858109) can0 05C#17C517C5 R
(1722447030.872382) can0 016#1E R
(1722447030.872510) can0 00D#E3C4 R
(1722447030.872641) can0 05B#E3C4 R
(1722447030.872784) can0 014#01 R
(1722447030.872860) can0 008#01 R
(1722447030.872992) can0 055#01 R
(1722447030.873106) can0 05D#01 R
(1722447030.888271) can0 00E#0AC4 R
(1722447030.888449) can0 05C#0AC40AC4 R
(1722447030.888554) can0 041#01 R
(1722447030.888669) can0 016#1E R
(1722447030.888812) can0 015#01 R
(1722447030.888910) can0 017#01 R
(1722447030.889020) can0 056#01 R
(1722447030.901103) can0 007#01 R
(1722447030.903222) can0 015#01 R
(1722447030.903334) can0 016#1E R
(1722447030.903452) can0 041#01 R
(1722447030.903588) can0 00E#87C3 R
(1722447030.903721) can0 00E#87C3 R
(1722447030.919301) can0 05C#FBC2FBC2 R
(1722447030.919420) can0 056#01 R
(1722447030.919583) can0 05C#FBC2FBC2 R
(1722447030.919692) can0 016#1E R
(1722447030.935070) can0 00D#BDC2 R
(1722447030.935199) can0 05B#BDC2 R
(1722447030.935313) can0 014#01 R
(1722447030.935430) can0 008#01 R
(1722447030.935547) can0 055#01 R
(1722447030.935664) can0 05D#01 R
(1722447030.950264) can0 00E#EAC1 R
(1722447030.950433) can0 05C#EAC1EAC1 R
(1722447030.950544) can0 041#01 R
(1722447030.950656) can0 016#1E R
(1722447030.950777) can0 015#01 R
(1722447030.950890) can0 017#01 R
(1722447030.951014) can0 056#01 R
(1722447030.951787) can0 007#01 R
(1722447030.965175) can0 015#01 R
(1722447030.965262) can0 016#1E R
(1722447030.965413) can0 00E#65C1 R
(1722447030.980824) can0 041#01 R
(1722447030.980994) can0 05C#E0C0E0C0 R
(1722447030.981107) can0 056#01 R
(1722447030.981244) can0 00E#E0C0 R
(1722447030.981420) can0 05C#E0C0E0C0 R
(1722447030.981524) can0 016#1E R
(1722447030.996418) can0 00D#A2C0 R
(1722447030.996525) can0 05B#A2C0 R
(1722447030.996642) can0 014#01 R
(1722447030.996776) can0 008#01 R
(1722447030.996874) can0 055#01 R
(1722447030.996987) can0 05D#01 R
(1722447031.001521) can0 007#01 R
(1722447031.012147) can0 00E#C4BF R
(1722447031.012344) can0 05C#C4BFC4BF R
(1722447031.012460) can0 041#01 R
(1722447031.012573) can0 016#1D R
(1722447031.012689) can0 015#01 R
(1722447031.012809) can0 017#01 R
(1722447031.012923) can0 056#01 R
(1722447031.013042) can0 015#01 R
(1722447031.013172) can0 00E#C4BF R
(1722447031.027843) can0 016#1D R
(1722447031.027957) can0 041#01 R
(1722447031.028129) can0 05C#3DBF3DBF R
(1722447031.028241) can0 056#01 R
(1722447031.028391) can0 00E#3EBF R
(1722447031.028550) can0 05C#3DBF3DBF R
(1722447031.028665) can0 016#1D R
(1722447031.051401) can0 007#01 R
(1722447031.057678) can0 00D#78BE R
(1722447031.057807) can0 05B#78BE R
(1722447031.057923) can0 014#01 R
(1722447031.058040) can0 008#01 R
(1722447031.058155) can0 055#01 R
(1722447031.058279) can0 05D#01 R
(1722447031.074249) can0 00E#97BD R
(1722447031.074400) can0 05C#97BD97BD R
(1722447031.074514) can0 041#01 R
(1722447031.074629) can0 016#1D R
(1722447031.074745) can0 015#01 R
(1722447031.074864) can0 017#01 R
(1722447031.074978) can0 056#01 R
(1722447031.089766) can0 05C#10BD10BD R
(1722447031.089874) can0 056#01 R
(1722447031.103627) can0 007#01 R
(1722447031.105515) can0 015#01 R
(1722447031.105628) can0 016#1D R
(1722447031.105833) can0 041#01 R
(1722447031.105964) can0 00E#7FBC R
(1722447031.106098) can0 00E#7FBC R
(1722447031.106266) can0 05C#7FBC7FBC R
(1722447031.121229) can0 016#1D R
(1722447031.121362) can0 00D#3FBC R
(1722447031.121507) can0 05B#3FBC R
(1722447031.121611) can0 014#01 R
(1722447031.121726) can0 008#01 R
(1722447031.121843) can0 055#01 R
(1722447031.121960) can0 05D#01 R
(1722447031.136406) can0 00E#65BB R
(1722447031.136556) can0 05C#65BB65BB R
(1722447031.136677) can0 041#01 R
(1722447031.136807) can0 016#1D R
(1722447031.136905) can0 015#01 R
(1722447031.137026) can0 017#01 R
(1722447031.137140) can0 056#01 R
(1722447031.152319) can0 015#01 R
(1722447031.152451) can0 016#1D R
(1722447031.152546) can0 041#01 R
(1722447031.152716) can0 05C#D3BAD3BA R
(1722447031.152809) can0 056#01 R
(1722447031.152957) can0 00E#D3BA R
(1722447031.153088) can0 00E#D3BA R
(1722447031.167997) can0 05C#40BA40BA R
(1722447031.168110) can0 016#1D R
(1722447031.175718) can0 007#01 R
(1722447031.183572) can0 00D#00BA R
(1722447031.183706) can0 05B#00BA R
(1722447031.183819) can0 014#01 R
(1722447031.183936) can0 008#01 R
(1722447031.184052) can0 055#01 R
(1722447031.184170) can0 05D#01 R
(1722447031.201564) can0 00E#23B9 R
(1722447031.201725) can0 05C#23B923B9 R
(1722447031.201839) can0 041#01 R
(1722447031.201956) can0 016#1C R
(1722447031.202075) can0 015#01 R
(1722447031.202193) can0 017#01 R
(1722447031.202308) can0 056#01 R
(1722447031.216618) can0 015#01 R
(1722447031.216730) can0 016#1C R
(1722447031.216904) can0 05C#90B890B8 R
(1722447031.217009) can0 056#01 R
(1722447031.217144) can0 00E#90B8 R
(1722447031.225539) can0 007#01 R
(1722447031.230729) can0 041#01 R
(1722447031.230863) can0 00E#05B8 R
(1722447031.231034) can0 05C#05B805B8 R
(1722447031.231148) can0 016#1C R
(1722447031.246414) can0 00D#BBB7 R
(1722447031.246545) can0 05B#BBB7 R
(1722447031.246661) can0 014#01 R
(1722447031.246782) can0 008#01 R
(1722447031.246893) can0 055#01 R
(1722447031.247016) can0 05D#01 R
(1722447031.261632) can0 00E#E5B6 R
(1722447031.261791) can0 05C#E5B6E5B6 R
(1722447031.261908) can0 041#01 R
(1722447031.262023) can0 016#1C R
(1722447031.262144) can0 015#01 R
(1722447031.262257) can0 017#01 R
(1722447031.262378) can0 056#01 R
(1722447031.274953) can0 007#01 R
(1722447031.277225) can0 015#01 R
(1722447031.277532) can0 05C#50B650B6 R
(1722447031.277639) can0 056#01 R
(1722447031.277777) can0 00E#50B6 R
(1722447031.292008) can0 016#1C R
(1722447031.292121) can0 041#01 R
(1722447031.292256) can0 00E#C5B5 R
(1722447031.292420) can0 05C#C4B5C4B5 R
(1722447031.292534) can0 016#1C R
(1722447031.307870) can0 00D#83B5 R
(1722447031.308000) can0 05B#83B5 R
(1722447031.308115) can0 014#01 R
(1722447031.308231) can0 008#01 R
(1722447031.308349) can0 055#01 R
(1722447031.308465) can0 05D#01 R
(1722447031.323520) can0 00E#A2B4 R
(1722447031.323756) can0 05C#A2B4A2B4 R
(1722447031.323873) can0 041#01 R
(1722447031.323987) can0 016#1C R
(1722447031.324105) can0 015#01 R
(1722447031.324221) can0 017#01 R
(1722447031.324338) can0 056#01 R
(1722447031.324982) can0 007#01 R
(1722447031.338156) can0 05C#15B415B4 R
(1722447031.338375) can0 056#01 R
(1722447031.338488) can0 015#01 R
(1722447031.338605) can0 016#1C R
(1722447031.338729) can0 041#01 R
(1722447031.338854) can0 00E#15B4 R
(1722447031.338985) can0 00E#15B4 R
(1722447031.339152) can0 05C#15B415B4 R
(1722447031.352901) can0 016#1C R
(1722447031.368679) can0 00D#50B3 R
(1722447031.368812) can0 05B#50B3 R
(1722447031.368922) can0 014#01 R
(1722447031.369040) can0 008#01 R
(1722447031.369156) can0 055#01 R
(1722447031.369274) can0 05D#01 R
(1722447031.374549) can0 007#01 R
(1722447031.383853) can0 00E#63B2 R
(1722447031.384003) can0 05C#63B263B2 R
(1722447031.384120) can0 041#01 R
(1722447031.384237) can0 016#1B R
(1722447031.384355) can0 015#01 R
(1722447031.384473) can0 017#01 R
(1722447031.384587) can0 056#01 R
(1722447031.398911) can0 015#01 R
(1722447031.399126) can0 016#1B R
(1722447031.399295) can0 05C#DFB1DFB1 R
(1722447031.399429) can0 00E#DFB1 R
(1722447031.399564) can0 00E#DFB1 R
(1722447031.414591) can0 041#01 R
(1722447031.414707) can0 056#01 R
(1722447031.414867) can0 05C#47B147B1 R
(1722447031.414990) can0 016#1B R
(1722447031.429578) can0 00D#04B1 R
(1722447031.429719) can0 05B#04B1 R
(1722447031.429826) can0 014#01 R
(1722447031.429947) can0 008#01 R
(1722447031.430060) can0 055#01 R
(1722447031.430179) can0 05D#01 R
(1722447031.430739) can0 007#01 R
(1722447031.445065) can0 00E#29B0 R
(1722447031.447284) can0 05C#29B029B0 R
(1722447031.447402) can0 041#01 R
(1722447031.447518) can0 016#1B R
(1722447031.447639) can0 015#01 R
(1722447031.447752) can0 017#01 R
(1722447031.447873) can0 056#01 R
(1722447031.459769) can0 015#01 R
(1722447031.459932) can0 05C#9AAF9AAF R
(1722447031.460059) can0 00E#9AAF R
(1722447031.474862) can0 016#1B R
(1722447031.474979) can0 041#01 R
(1722447031.475099) can0 056#01 R
(1722447031.475230) can0 00E#01AF R
(1722447031.475403) can0 05C#01AF01AF R
(1722447031.475514) can0 016#1B R
(1722447031.490543) can0 00D#BEAE R
(1722447031.490670) can0 05B#BEAE R
(1722447031.490777) can0 014#01 R
(1722447031.490893) can0 008#01 R
(1722447031.491010) can0 055#01 R
(1722447031.491129) can0 05D#01 R
(1722447031.496680) can0 007#01 R
(1722447031.505873) can0 00E#D8AD R
(1722447031.506037) can0 05C#D8ADD8AD R
(1722447031.506152) can0 041#01 R
(1722447031.506270) can0 016#1B R
(1722447031.506385) can0 015#01 R
(1722447031.506504) can0 017#01 R
(1722447031.506619) can0 056#01 R
(1722447031.521048) can0 00E#47AD R
(1722447031.521221) can0 015#01 R
(1722447031.521330) can0 016#1B R
(1722447031.521443) can0 041#01 R
(1722447031.521607) can0 05C#47AD47AD R
(1722447031.521723) can0 056#01 R
(1722447031.521851) can0 00E#47AD R
(1722447031.522020) can0 05C#47AD47AD R
(1722447031.522129) can0 016#1B R
(1722447031.547390) can0 007#01 R
(1722447031.551517) can0 00D#73AC R
(1722447031.551642) can0 05B#73AC R
(1722447031.551762) can0 014#01 R
(1722447031.551875) can0 008#01 R
(1722447031.551997) can0 055#01 R
(1722447031.552109) can0 05D#01 R
(1722447031.566692) can0 00E#95AB R
(1722447031.566851) can0 05C#95AB95AB R
(1722447031.566971) can0 041#01 R
(1722447031.567083) can0 016#1A R
(1722447031.567199) can0 015#01 R
(1722447031.567318) can0 017#01 R
(1722447031.567434) can0 056#01 R
(1722447031.582293) can0 015#01 R
(1722447031.582407) can0 016#1A R
(1722447031.597595) can0 007#01 R
(1722447031.597789) can0 041#01 R
(1722447031.597955) can0 05C#68AA68AA R
(1722447031.598067) can0 056#01 R
(1722447031.598201) can0 00E#68AA R
(1722447031.598335) can0 00E#68AA R
(1722447031.598499) can0 05C#68AA68AA R
(1722447031.613318) can0 00D#24AA R
(1722447031.613428) can0 016#1A R
(1722447031.613564) can0 05B#24AA R
(1722447031.613679) can0 014#01 R
(1722447031.613796) can0 008#01 R
(1722447031.613913) can0 055#01 R
(1722447031.614030) can0 05D#01 R
(1722447031.629397) can0 00E#31A9 R
(1722447031.629556) can0 05C#31A931A9 R
(1722447031.629672) can0 041#01 R
(1722447031.629787) can0 016#1A R
(1722447031.629903) can0 015#01 R
(1722447031.630021) can0 017#01 R
(1722447031.630143) can0 056#01 R
(1722447031.644996) can0 015#01 R
(1722447031.645127) can0 00E#9FA8 R
(1722447031.645266) can0 00E#9FA8 R
(1722447031.647401) can0 007#01 R
(1722447031.660469) can0 016#1A R
(1722447031.660584) can0 041#01 R
(1722447031.660788) can0 05C#02A802A8 R
(1722447031.660853) can0 056#01 R
(1722447031.661043) can0 05C#02A802A8 R
(1722447031.661155) can0 016#1A R
(1722447031.675677) can0 00D#C8A7 R
(1722447031.675804) can0 05B#C8A7 R
(1722447031.675921) can0 014#01 R
(1722447031.676036) can0 008#01 R
(1722447031.676153) can0 055#01 R
(1722447031.676270) can0 05D#01 R
(1722447031.690897) can0 00E#DDA6 R
(1722447031.691494) can0 05C#DDA6DDA6 R
(1722447031.691609) can0 041#01 R
(1722447031.691724) can0 016#1A R
(1722447031.691839) can0 015#01 R
(1722447031.691965) can0 017#01 R
(1722447031.692072) can0 056#01 R
(1722447031.697288) can0 007#01 R
(1722447031.706571) can0 00E#40A6 R
(1722447031.722095) can0 015#01 R
(1722447031.722208) can0 016#19 R
(1722447031.722326) can0 041#01 R
(1722447031.722488) can0 05C#A2A5A2A5 R
(1722447031.722604) can0 056#01 R
(1722447031.722739) can0 00E#A2A5 R
(1722447031.722904) can0 05C#A2A5A2A5 R
(1722447031.723012) can0 016#19 R
(1722447031.737746) can0 00D#67A5 R
(1722447031.737879) can0 05B#67A5 R
(1722447031.737988) can0 014#01 R
(1722447031.738110) can0 008#01 R
(1722447031.738219) can0 055#01 R
(1722447031.738340) can0 05D#01 R
(1722447031.751681) can0 007#01 R
(1722447031.753255) can0 00E#71A4 R
(1722447031.753420) can0 05C#71A471A4 R
(1722447031.753535) can0 041#01 R
(1722447031.753649) can0 016#19 R
(1722447031.753766) can0 015#01 R
(1722447031.753883) can0 017#01 R
(1722447031.753998) can0 056#01 R
(1722447031.769080) can0 015#01 R
(1722447031.769191) can0 016#19 R
(1722447031.769310) can0 041#01 R
(1722447031.769471) can0 05C#DDA3DDA3 R
(1722447031.769586) can0 056#01 R
(1722447031.769720) can0 00E#DDA3 R
(1722447031.784805) can0 00E#3FA3 R
(1722447031.784999) can0 05C#3EA33EA3 R
(1722447031.785109) can0 016#19 R
(1722447031.799647) can0 00D#F9A2 R
(1722447031.799781) can0 05B#F9A2 R
(1722447031.799895) can0 014#01 R
(1722447031.800012) can0 008#01 R
(1722447031.800134) can0 055#01 R
(1722447031.800246) can0 05D#01 R
(1722447031.814599) can0 00E#15A2 R
(1722447031.814755) can0 05C#15A215A2 R
(1722447031.814866) can0 041#01 R
(1722447031.814986) can0 016#19 R
(1722447031.815096) can0 015#01 R
(1722447031.815215) can0 017#01 R
(1722447031.815330) can0 056#01 R
(1722447031.819903) can0 007#01 R
(1722447031.830256) can0 015#01 R
(1722447031.830368) can0 016#19 R
(1722447031.830542) can0 05C#76A176A1 R
(1722447031.830652) can0 056#01 R
(1722447031.845601) can0 041#01 R
(1722447031.845738) can0 00E#D7A0 R
(1722447031.845868) can0 00E#D7A0 R
(1722447031.846034) can0 05C#D7A0D7A0 R
(1722447031.860808) can0 00D#9CA0 R
(1722447031.860919) can0 016#19 R
(1722447031.861050) can0 05B#9CA0 R
(1722447031.861165) can0 014#01 R
(1722447031.861282) can0 008#01 R
(1722447031.861397) can0 055#01 R
(1722447031.861516) can0 05D#01 R
(1722447031.869098) can0 007#01 R
(1722447031.875698) can0 00E#AC9F R
(1722447031.875869) can0 05C#AC9FAC9F R
(1722447031.875986) can0 041#01 R
(1722447031.876101) can0 016#18 R
(1722447031.876218) can0 015#01 R
(1722447031.876336) can0 017#01 R
(1722447031.876453) can0 056#01 R
(1722447031.876569) can0 015#01 R
(1722447031.876757) can0 05C#AC9FAC9F R
(1722447031.876842) can0 056#01 R
(1722447031.876990) can0 00E#AC9F R
(1722447031.877119) can0 00E#AC9F R
(1722447031.890716) can0 016#18 R
(1722447031.890830) can0 041#01 R
(1722447031.891002) can0 05C#179F179F R
(1722447031.891113) can0 016#18 R
(1722447031.919810) can0 007#01 R
(1722447031.921853) can0 00D#3B9E R
(1722447031.921984) can0 05B#3B9E R
(1722447031.922096) can0 014#01 R
(1722447031.922214) can0 008#01 R
(1722447031.922331) can0 055#01 R
(1722447031.922450) can0 05D#01 R
(1722447031.937362) can0 00E#4B9D R
(1722447031.937533) can0 05C#4B9D4A9D R
(1722447031.937638) can0 041#01 R
(1722447031.937753) can0 016#18 R
(1722447031.937870) can0 015#01 R
(1722447031.937987) can0 017#01 R
(1722447031.938104) can0 056#01 R
(1722447031.938274) can0 05C#4B9D4A9D R
(1722447031.938384) can0 056#01 R
(1722447031.938513) can0 00E#4B9D R
(1722447031.953079) can0 015#01 R
(1722447031.953191) can0 016#18 R
(1722447031.953309) can0 041#01 R
(1722447031.953443) can0 00E#AA9C R
(1722447031.953614) can0 05C#AA9CAA9C R
(1722447031.953725) can0 016#18 R
(1722447031.969239) can0 007#01 R
(1722447031.984621) can0 00D#C39B R
(1722447031.984780) can0 05B#C39B R
(1722447031.984837) can0 014#01 R
(1722447031.984987) can0 008#01 R
(1722447031.985095) can0 055#01 R
(1722447031.985216) can0 05D#01 R
(1722447032.000319) can0 00E#DC9A R
(1722447032.000479) can0 05C#DC9ADC9A R
(1722447032.000597) can0 041#01 R
(1722447032.000715) can0 016#18 R
(1722447032.000835) can0 015#01 R
(1722447032.000949) can0 017#01 R
(1722447032.001063) can0 056#01 R
(1722447032.015028) can0 015#01 R
(1722447032.015166) can0 016#18 R
(1722447032.015330) can0 05C#3B9A3B9A R
(1722447032.015457) can0 00E#3B9A R
(1722447032.018603) can0 007#01 R
(1722447032.030182) can0 041#01 R
(1722447032.030256) can0 056#01 R
(1722447032.030415) can0 00E#A499 R
(1722447032.030577) can0 05C#A399A399 R
(1722447032.030690) can0 016#18 R
(1722447032.046258) can0 00D#5D99 R
(1722447032.046389) can0 05B#5D99 R
(1722447032.046505) can0 014#01 R
(1722447032.046619) can0 008#01 R
(1722447032.046740) can0 055#01 R
(1722447032.046853) can0 05D#01 R
(1722447032.061465) can0 00E#6B98 R
(1722447032.061629) can0 05C#6B986B98 R
(1722447032.061746) can0 041#01 R
(1722447032.061855) can0 016#17 R
(1722447032.061977) can0 015#01 R
(1722447032.062089) can0 017#01 R
(1722447032.062205) can0 056#01 R
(1722447032.062322) can0 015#01 R
(1722447032.062498) can0 05C#60986098 R
(1722447032.069477) can0 007#01 R
(1722447032.076945) can0 016#17 R
(1722447032.077062) can0 041#01 R
(1722447032.077178) can0 056#01 R
(1722447032.077308) can0 00E#D397 R
(1722447032.077439) can0 00E#D397 R
(1722447032.077611) can0 05C#D397D397 R
(1722447032.091530) can0 016#17 R
(1722447032.107667) can0 00D#EA96 R
(1722447032.107856) can0 05B#EA96 R
(1722447032.107970) can0 014#01 R
(1722447032.108087) can0 008#01 R
(1722447032.108203) can0 055#01 R
(1722447032.108320) can0 05D#01 R
(1722447032.119780) can0 007#01 R
(1722447032.123886) can0 00E#F795 R
(1722447032.124187) can0 05C#F795F795 R
(1722447032.124301) can0 041#01 R
(1722447032.124418) can0 016#17 R
(1722447032.124533) can0 015#01 R
(1722447032.124651) can0 017#01 R
(1722447032.124797) can0 056#01 R
(1722447032.124894) can0 015#01 R
(1722447032.125001) can0 016#17 R
(1722447032.125118) can0 041#01 R
(1722447032.125254) can0 00E#ED95 R
(1722447032.125385) can0 00E#ED95 R
(1722447032.138784) can0 05C#55955595 R
(1722447032.138897) can0 056#01 R
(1722447032.139068) can0 05C#55955595 R
(1722447032.139178) can0 016#17 R
(1722447032.168759) can0 007#01 R
(1722447032.168879) can0 00D#7F94 R
(1722447032.169014) can0 05B#7F94 R
(1722447032.169127) can0 014#01 R
(1722447032.169245) can0 008#01 R
(1722447032.169366) can0 055#01 R
(1722447032.169478) can0 05D#01 R
(1722447032.183970) can0 00E#8B93 R
(1722447032.184133) can0 05C#8B938B93 R
(1722447032.184253) can0 041#01 R
(1722447032.184371) can0 016#17 R
(1722447032.184480) can0 015#01 R
(1722447032.184599) can0 017#01 R
(1722447032.184715) can0 056#01 R
(1722447032.184879) can0 05C#8B938B93 R
(1722447032.185008) can0 00E#8B93 R
(1722447032.199146) can0 015#01 R
(1722447032.199262) can0 016#16 R
(1722447032.199372) can0 041#01 R
(1722447032.199487) can0 056#01 R
(1722447032.199619) can0 00E#F392 R
(1722447032.199785) can0 05C#F392F392 R
(1722447032.199895) can0 016#16 R
(1722447032.219076) can0 007#01 R
(1722447032.230410) can0 00D#0892 R
(1722447032.230599) can0 05B#0892 R
(1722447032.230707) can0 014#01 R
(1722447032.230825) can0 008#01 R
(1722447032.230940) can0 055#01 R
(1722447032.231059) can0 05D#01 R
(1722447032.245551) can0 00E#1E91 R
(1722447032.245741) can0 05C#1E911E91 R
(1722447032.245858) can0 041#01 R
(1722447032.245973) can0 016#16 R
(1722447032.246088) can0 015#01 R
(1722447032.246208) can0 017#01 R
(1722447032.246322) can0 056#01 R
(1722447032.261562) can0 015#01 R
(1722447032.261674) can0 016#16 R
(1722447032.261809) can0 00E#7B90 R
(1722447032.261925) can0 041#01 R
(1722447032.262098) can0 05C#7B907A90 R
(1722447032.262207) can0 056#01 R
(1722447032.262348) can0 00E#7B90 R
(1722447032.262514) can0 05C#7B907A90 R
(1722447032.262624) can0 016#16 R
(1722447032.269428) can0 007#01 R
(1722447032.292299) can0 00D#9A8F R
(1722447032.292431) can0 05B#9A8F R
(1722447032.292545) can0 014#01 R
(1722447032.292662) can0 008#01 R
(1722447032.292810) can0 055#01 R
(1722447032.292907) can0 05D#01 R
(1722447032.308470) can0 00E#9A8E R
(1722447032.308633) can0 05C#9A8E9A8E R
(1722447032.308752) can0 041#01 R
(1722447032.308864) can0 016#16 R
(1722447032.308978) can0 015#01 R
(1722447032.309100) can0 017#01 R
(1722447032.309214) can0 056#01 R
(1722447032.320943) can0 007#01 R
(1722447032.322916) can0 05C#018E018E R
(1722447032.323031) can0 056#01 R
(1722447032.338494) can0 015#01 R
(1722447032.338668) can0 016#16 R
(1722447032.338783) can0 041#01 R
(1722447032.338914) can0 00E#678D R
(1722447032.339048) can0 00E#678D R
(1722447032.339211) can0 05C#678D678D R
(1722447032.354316) can0 00D#208D R
(1722447032.354417) can0 016#15 R
(1722447032.354547) can0 05B#208D R
(1722447032.354661) can0 014#01 R
(1722447032.354781) can0 008#01 R
(1722447032.354895) can0 055#01 R
(1722447032.355014) can0 05D#01 R
(1722447032.369432) can0 00E#2A8C R
(1722447032.369643) can0 05C#2A8C2A8C R
(1722447032.369754) can0 041#01 R
(1722447032.369873) can0 016#15 R
(1722447032.369993) can0 015#01 R
(1722447032.370106) can0 017#01 R
(1722447032.370227) can0 056#01 R
(1722447032.371137) can0 007#01 R
(1722447032.385124) can0 015#01 R
(1722447032.385238) can0 016#15 R
(1722447032.385354) can0 041#01 R
(1722447032.385587) can0 05C#868B868B R
(1722447032.385694) can0 056#01 R
(1722447032.385827) can0 00E#868B R
(1722447032.385955) can0 00E#868B R
(1722447032.401028) can0 05C#EC8AEC8A R
(1722447032.401140) can0 016#15 R
(1722447032.415784) can0 00D#A48A R
(1722447032.415912) can0 05B#A48A R
(1722447032.416026) can0 014#01 R
(1722447032.416144) can0 008#01 R
(1722447032.416262) can0 055#01 R
(1722447032.416389) can0 05D#01 R
(1722447032.421320) can0 007#01 R
(1722447032.431610) can0 00E#AE89 R
(1722447032.431767) can0 05C#AE89AE89 R
(1722447032.431885) can0 041#01 R
(1722447032.432002) can0 016#15 R
(1722447032.432119) can0 015#01 R
(1722447032.432238) can0 017#01 R
(1722447032.432359) can0 056#01 R
(1722447032.446942) can0 015#01 R
(1722447032.447111) can0 05C#14891489 R
(1722447032.447223) can0 056#01 R
(1722447032.447358) can0 00E#1489 R
(1722447032.462176) can0 016#15 R
(1722447032.462283) can0 041#01 R
(1722447032.462412) can0 00E#7088 R
(1722447032.462582) can0 05C#70887088 R
(1722447032.462690) can0 016#15 R
(1722447032.477929) can0 00D#2888 R
(1722447032.478062) can0 05B#2888 R
(1722447032.478170) can0 014#01 R
(1722447032.478288) can0 008#01 R
(1722447032.478403) can0 055#01 R
(1722447032.478521) can0 05D#01 R
(1722447032.481714) can0 007#01 R
(1722447032.493086) can0 00E#3187 R
(1722447032.493254) can0 05C#31873187 R
(1722447032.493368) can0 041#01 R
(1722447032.493488) can0 016#15 R
(1722447032.493599) can0 015#01 R
(1722447032.493723) can0 017#01 R
(1722447032.493834) can0 056#01 R
(1722447032.494006) can0 05C#31873187 R
(1722447032.494114) can0 056#01 R
(1722447032.494247) can0 00E#3187 R
(1722447032.508475) can0 015#01 R
(1722447032.508586) can0 016#15 R
(1722447032.508707) can0 041#01 R
(1722447032.508838) can0 00E#9786 R
(1722447032.509000) can0 05C#97869786 R
(1722447032.509116) can0 016#15 R
(1722447032.531007) can0 007#01 R
(1722447032.539119) can0 00D#B585 R
(1722447032.539249) can0 05B#B585 R
(1722447032.539365) can0 014#01 R
(1722447032.539486) can0 008#01 R
(1722447032.539597) can0 055#01 R
(1722447032.539722) can0 05D#01 R
(1722447032.555061) can0 00E#B484 R
(1722447032.555227) can0 05C#B384B384 R
(1722447032.555348) can0 041#01 R
(1722447032.555457) can0 016#14 R
(1722447032.555579) can0 015#01 R
(1722447032.555692) can0 017#01 R
(1722447032.555809) can0 056#01 R
(1722447032.555924) can0 015#01 R
(1722447032.570720) can0 016#14 R
(1722447032.570821) can0 041#01 R
(1722447032.570999) can0 05C#19841984 R
(1722447032.571114) can0 056#01 R
(1722447032.571248) can0 00E#1984 R
(1722447032.571381) can0 00E#1984 R
(1722447032.571550) can0 05C#19841984 R
(1722447032.571661) can0 016#14 R
(1722447032.581420) can0 007#01 R
(1722447032.602191) can0 00D#2D83 R
(1722447032.602385) can0 05B#2D83 R
(1722447032.602501) can0 014#01 R
(1722447032.602617) can0 008#01 R
(1722447032.602734) can0 055#01 R
(1722447032.602856) can0 05D#01 R
(1722447032.617710) can0 00E#3682 R
(1722447032.617872) can0 05C#35823582 R
(1722447032.617990) can0 041#01 R
(1722447032.618105) can0 016#14 R
(1722447032.618226) can0 015#01 R
(1722447032.618339) can0 017#01 R
(1722447032.618459) can0 056#01 R
(1722447032.618571) can0 015#01 R
(1722447032.618686) can0 016#14 R
(1722447032.618804) can0 041#01 R
(1722447032.618979) can0 05C#35823582 R
(1722447032.619087) can0 056#01 R
(1722447032.619226) can0 00E#3682 R
(1722447032.619355) can0 00E#3682 R
(1722447032.631264) can0 007#01 R
(1722447032.633555) can0 05C#91819181 R
(1722447032.633667) can0 016#14 R
(1722447032.664258) can0 00D#AE80 R
(1722447032.664849) can0 05B#AE80 R
(1722447032.664960) can0 014#01 R
(1722447032.665079) can0 008#01 R
(1722447032.665193) can0 055#01 R
(1722447032.665312) can0 05D#01 R
(1722447032.679638) can0 00E#B77F R
(1722447032.679805) can0 05C#B77FB77F R
(1722447032.679923) can0 041#00 R
(1722447032.680041) can0 016#13 R
(1722447032.680160) can0 015#00 R
(1722447032.680278) can0 017#00 R
(1722447032.680397) can0 056#00 R
(1722447032.680516) can0 015#00 R
(1722447032.680691) can0 05C#AD7FAD7F R
(1722447032.680802) can0 00E#AD7F R
(1722447032.681695) can0 007#01 R
(1722447032.694995) can0 016#13 R
(1722447032.695109) can0 041#00 R
(1722447032.695235) can0 056#00 R
(1722447032.695369) can0 00E#137F R
(1722447032.695540) can0 05C#137F137F R
(1722447032.695650) can0 016#13 R
(1722447032.725838) can0 00D#307E R
