(1722447115.213101) can0 007#00 R
(1722447115.215586) can0 015#00 R
(1722447115.215700) can0 016#05 R
(1722447115.215821) can0 041#00 R
(1722447115.215983) can0 05C#31243124 R
(1722447115.230672) can0 00D#0624 R
(1722447115.230800) can0 05B#0624 R
(1722447115.230917) can0 014#00 R
(1722447115.231033) can0 008#00 R
(1722447115.231154) can0 055#00 R
(1722447115.231269) can0 05D#00 R
(1722447115.246570) can0 00E#5323 R
(1722447115.246731) can0 05C#53235323 R
(1722447115.246855) can0 041#00 R
(1722447115.246970) can0 016#05 R
(1722447115.247096) can0 015#00 R
(1722447115.247208) can0 017#00 R
(1722447115.247334) can0 056#00 R
(1722447115.261031) can0 056#00 R
(1722447115.262377) can0 007#00 R
(1722447115.275364) can0 015#00 R
(1722447115.275483) can0 016#05 R
(1722447115.275603) can0 041#00 R
(1722447115.275735) can0 00E#8722 R
(1722447115.275866) can0 00E#8722 R
(1722447115.276029) can0 05C#87228722 R
(1722447115.290963) can0 00D#5C22 R
(1722447115.291093) can0 05B#5C22 R
(1722447115.291207) can0 014#00 R
(1722447115.291327) can0 008#00 R
(1722447115.291445) can0 055#00 R
(1722447115.291565) can0 05D#00 R
(1722447115.291780) can0 05C#1D221D22 R
(1722447115.291895) can0 016#05 R
(1722447115.307304) can0 00E#AE21 R
(1722447115.307467) can0 05C#AE21AE21 R
(1722447115.307589) can0 041#00 R
(1722447115.307706) can0 016#05 R
(1722447115.307827) can0 015#00 R
(1722447115.307942) can0 017#00 R
(1722447115.308062) can0 056#00 R
(1722447115.322484) can0 056#00 R
(1722447115.322605) can0 00E#3F21 R
(1722447115.322737) can0 00E#3F21 R
(1722447115.328712) can0 007#00 R
(1722447115.338308) can0 015#00 R
(1722447115.338426) can0 016#05 R
(1722447115.338595) can0 05C#D720D720 R
(1722447115.338711) can0 016#05 R
(1722447115.353440) can0 041#00 R
(1722447115.353571) can0 00D#A720 R
(1722447115.353702) can0 05B#A720 R
(1722447115.353872) can0 05C#69206920 R
(1722447115.353985) can0 014#00 R
(1722447115.354103) can0 008#00 R
(1722447115.354225) can0 055#00 R
(1722447115.354341) can0 05D#00 R
(1722447115.368408) can0 00E#0A20 R
(1722447115.368565) can0 05C#0A200A20 R
(1722447115.368686) can0 041#00 R
(1722447115.368803) can0 016#05 R
(1722447115.368926) can0 015#00 R
(1722447115.369040) can0 017#00 R
(1722447115.369158) can0 056#00 R
(1722447115.377618) can0 007#00 R
(1722447115.384075) can0 056#00 R
(1722447115.384207) can0 00E#9D1F R
(1722447115.399206) can0 015#00 R
(1722447115.399341) can0 00E#381F R
(1722447115.399509) can0 05C#381F381F R
(1722447115.399626) can0 016#04 R
(1722447115.415121) can0 00D#081F R
(1722447115.415236) can0 016#04 R
(1722447115.415358) can0 041#00 R
(1722447115.415495) can0 05B#081F R
(1722447115.415611) can0 014#00 R
(1722447115.415729) can0 008#00 R
(1722447115.415849) can0 055#00 R
(1722447115.416020) can0 05C#CC1ECC1E R
(1722447115.416139) can0 05D#00 R
(1722447115.428306) can0 007#00 R
(1722447115.431222) can0 00E#611E R
(1722447115.431383) can0 05C#611E611E R
(1722447115.431505) can0 041#00 R
(1722447115.431622) can0 016#04 R
(1722447115.431741) can0 015#00 R
(1722447115.431862) can0 017#00 R
(1722447115.431977) can0 056#00 R
(1722447115.446915) can0 056#00 R
(1722447115.447046) can0 00E#F71D R
(1722447115.461734) can0 00E#941D R
(1722447115.461902) can0 05C#941D941D R
(1722447115.462021) can0 016#04 R
(1722447115.476964) can0 015#00 R
(1722447115.477097) can0 00D#6D1D R
(1722447115.477210) can0 016#04 R
(1722447115.477332) can0 041#00 R
(1722447115.477461) can0 05B#6D1D R
(1722447115.477578) can0 014#00 R
(1722447115.477693) can0 007#00 R
(1722447115.477813) can0 008#00 R
(1722447115.477978) can0 05C#321D321D R
(1722447115.478100) can0 055#00 R
(1722447115.478218) can0 05D#00 R
(1722447115.493043) can0 056#00 R
(1722447115.493172) can0 00E#C91C R
(1722447115.493332) can0 05C#C91CC91C R
(1722447115.493456) can0 041#00 R
(1722447115.493571) can0 016#04 R
(1722447115.493692) can0 015#00 R
(1722447115.493807) can0 017#00 R
(1722447115.493930) can0 056#00 R
(1722447115.525002) can0 00E#071C R
(1722447115.525096) can0 00E#071C R
(1722447115.525282) can0 05C#071C071C R
(1722447115.527811) can0 007#00 R
(1722447115.538785) can0 015#00 R
(1722447115.538900) can0 016#04 R
(1722447115.539032) can0 00D#DA1B R
(1722447115.539150) can0 041#00 R
(1722447115.539269) can0 016#04 R
(1722447115.539396) can0 05B#DA1B R
(1722447115.539513) can0 014#00 R
(1722447115.539629) can0 008#00 R
(1722447115.539751) can0 055#00 R
(1722447115.539869) can0 05D#00 R
(1722447115.554168) can0 05C#411B411B R
(1722447115.554310) can0 00E#411B R
(1722447115.554475) can0 05C#411B411B R
(1722447115.554592) can0 041#00 R
(1722447115.554709) can0 016#04 R
(1722447115.554829) can0 015#00 R
(1722447115.554945) can0 017#00 R
(1722447115.555067) can0 056#00 R
(1722447115.570790) can0 056#00 R
(1722447115.570897) can0 00E#DC1A R
(1722447115.571039) can0 00E#DC1A R
(1722447115.577960) can0 007#00 R
(1722447115.585367) can0 05C#7D1A7D1A R
(1722447115.585481) can0 016#04 R
(1722447115.601536) can0 00D#4B1A R
(1722447115.601659) can0 015#00 R
(1722447115.601774) can0 016#04 R
(1722447115.601905) can0 05B#4B1A R
(1722447115.602016) can0 014#00 R
(1722447115.602144) can0 008#00 R
(1722447115.602254) can0 055#00 R
(1722447115.602376) can0 05D#00 R
(1722447115.616268) can0 041#00 R
(1722447115.616433) can0 05C#BC19BC19 R
(1722447115.616569) can0 00E#BC19 R
(1722447115.616761) can0 05C#BC19BC19 R
(1722447115.616858) can0 041#00 R
(1722447115.616978) can0 016#04 R
(1722447115.617107) can0 015#00 R
(1722447115.617213) can0 017#00 R
(1722447115.617345) can0 056#00 R
(1722447115.627502) can0 007#00 R
(1722447115.631708) can0 056#00 R
(1722447115.631839) can0 00E#5A19 R
(1722447115.646327) can0 00E#FE18 R
(1722447115.646494) can0 05C#FE18FE18 R
(1722447115.646608) can0 016#03 R
(1722447115.661828) can0 015#00 R
(1722447115.661962) can0 00D#D918 R
(1722447115.662093) can0 05B#D918 R
(1722447115.662208) can0 014#00 R
(1722447115.662328) can0 008#00 R
(1722447115.662452) can0 055#00 R
(1722447115.662565) can0 05D#00 R
(1722447115.676595) can0 016#03 R
(1722447115.676727) can0 041#00 R
(1722447115.676897) can0 05C#47184718 R
(1722447115.677022) can0 00E#4718 R
(1722447115.677189) can0 05C#47184718 R
(1722447115.677308) can0 041#00 R
(1722447115.677428) can0 016#03 R
(1722447115.677546) can0 015#00 R
(1722447115.677665) can0 017#00 R
(1722447115.677782) can0 056#00 R
(1722447115.677954) can0 007#00 R
(1722447115.692111) can0 056#00 R
(1722447115.692240) can0 00E#ED17 R
(1722447115.708032) can0 00E#8E17 R
(1722447115.708242) can0 05C#8E178E17 R
(1722447115.708351) can0 016#03 R
(1722447115.722637) can0 00D#6A17 R
(1722447115.722772) can0 05B#6A17 R
(1722447115.722885) can0 014#00 R
(1722447115.723003) can0 008#00 R
(1722447115.723122) can0 055#00 R
(1722447115.723241) can0 05D#00 R
(1722447115.728066) can0 007#00 R
(1722447115.737919) can0 015#00 R
(1722447115.738034) can0 016#03 R
(1722447115.738166) can0 041#00 R
(1722447115.738324) can0 05C#DC16DC16 R
(1722447115.738455) can0 00E#DC16 R
(1722447115.738622) can0 05C#DC16DC16 R
(1722447115.738743) can0 041#00 R
(1722447115.738860) can0 016#03 R
(1722447115.738980) can0 015#00 R
(1722447115.739096) can0 017#00 R
(1722447115.739215) can0 056#00 R
(1722447115.754153) can0 056#00 R
(1722447115.769603) can0 00E#2816 R
(1722447115.769740) can0 00E#2816 R
(1722447115.769899) can0 05C#28162816 R
(1722447115.777593) can0 007#00 R
(1722447115.785009) can0 016#03 R
(1722447115.785141) can0 00D#FF15 R
(1722447115.785272) can0 05B#FF15 R
(1722447115.785388) can0 014#00 R
(1722447115.785505) can0 008#00 R
(1722447115.785626) can0 055#00 R
(1722447115.785743) can0 05D#00 R
(1722447115.801263) can0 015#00 R
(1722447115.801379) can0 016#03 R
(1722447115.801499) can0 041#00 R
(1722447115.801624) can0 056#00 R
(1722447115.801751) can0 00E#7015 R
(1722447115.801919) can0 05C#70157015 R
(1722447115.802039) can0 041#00 R
(1722447115.802162) can0 016#03 R
(1722447115.802275) can0 015#00 R
(1722447115.802404) can0 017#00 R
(1722447115.802512) can0 056#00 R
(1722447115.816807) can0 05C#1A151A15 R
(1722447115.816941) can0 00E#1B15 R
(1722447115.817069) can0 00E#1B15 R
(1722447115.829434) can0 007#00 R
(1722447115.831353) can0 05C#C614C614 R
(1722447115.831478) can0 016#03 R
(1722447115.847050) can0 00D#9F14 R
(1722447115.847184) can0 05B#9F14 R
(1722447115.847297) can0 014#00 R
(1722447115.847417) can0 008#00 R
(1722447115.847535) can0 055#00 R
(1722447115.847654) can0 05D#00 R
(1722447115.862871) can0 015#00 R
(1722447115.862999) can0 016#03 R
(1722447115.863115) can0 00E#1314 R
(1722447115.863292) can0 05C#13141314 R
(1722447115.863406) can0 041#00 R
(1722447115.863528) can0 016#03 R
(1722447115.863642) can0 015#00 R
(1722447115.863766) can0 017#00 R
(1722447115.863878) can0 056#00 R
(1722447115.878368) can0 007#00 R
(1722447115.878548) can0 041#00 R
(1722447115.878799) can0 05C#BB13BB13 R
(1722447115.878919) can0 056#00 R
(1722447115.879048) can0 00E#BB13 R
(1722447115.894143) can0 00E#6913 R
(1722447115.894306) can0 05C#69136913 R
(1722447115.894423) can0 016#03 R
(1722447115.909774) can0 00D#4313 R
(1722447115.909896) can0 05B#4313 R
(1722447115.910018) can0 014#00 R
(1722447115.910142) can0 008#00 R
(1722447115.910251) can0 055#00 R
(1722447115.910375) can0 05D#00 R
(1722447115.924479) can0 015#00 R
(1722447115.924707) can0 00E#C112 R
(1722447115.924876) can0 05C#C112C112 R
(1722447115.924998) can0 041#00 R
(1722447115.925113) can0 016#02 R
(1722447115.925233) can0 015#00 R
(1722447115.925348) can0 017#00 R
(1722447115.925469) can0 056#00 R
(1722447115.939049) can0 007#00 R
(1722447115.940701) can0 016#02 R
(1722447115.940825) can0 041#00 R
(1722447115.940989) can0 05C#6C126C12 R
(1722447115.941107) can0 056#00 R
(1722447115.941240) can0 00E#6C12 R
(1722447115.955795) can0 00E#1C12 R
(1722447115.955961) can0 05C#1C121C12 R
(1722447115.956076) can0 016#02 R
(1722447115.970462) can0 00D#FD11 R
(1722447115.970598) can0 05B#FD11 R
(1722447115.970712) can0 014#00 R
(1722447115.970831) can0 008#00 R
(1722447115.970952) can0 055#00 R
(1722447115.971071) can0 05D#00 R
(1722447115.986149) can0 00E#7F11 R
(1722447115.986307) can0 05C#7F117F11 R
(1722447115.986429) can0 041#00 R
(1722447115.986545) can0 016#02 R
(1722447115.986666) can0 015#00 R
(1722447115.986788) can0 017#00 R
(1722447115.986901) can0 056#00 R
(1722447115.987898) can0 007#00 R
(1722447116.001111) can0 015#00 R
(1722447116.001239) can0 016#02 R
(1722447116.001349) can0 041#00 R
(1722447116.001516) can0 05C#32113211 R
(1722447116.001632) can0 056#00 R
(1722447116.016754) can0 00E#E010 R
(1722447116.016876) can0 00E#E010 R
(1722447116.017041) can0 05C#E010E010 R
(1722447116.032787) can0 00D#C110 R
(1722447116.032900) can0 016#02 R
(1722447116.033036) can0 05B#C110 R
(1722447116.033152) can0 014#00 R
(1722447116.033270) can0 008#00 R
(1722447116.033390) can0 055#00 R
(1722447116.033508) can0 05D#00 R
(1722447116.038126) can0 007#00 R
(1722447116.047836) can0 00E#4310 R
(1722447116.048001) can0 05C#43104310 R
(1722447116.048358) can0 041#00 R
(1722447116.048476) can0 016#02 R
(1722447116.048595) can0 015#00 R
(1722447116.048718) can0 017#00 R
(1722447116.048835) can0 056#00 R
(1722447116.062693) can0 015#00 R
(1722447116.062814) can0 016#02 R
(1722447116.062931) can0 041#00 R
(1722447116.063055) can0 056#00 R
(1722447116.063189) can0 00E#F80F R
(1722447116.063330) can0 00E#F80F R
(1722447116.077832) can0 05C#AD0FAD0F R
(1722447116.077998) can0 05C#AD0FAD0F R
(1722447116.078116) can0 016#02 R
(1722447116.088099) can0 007#00 R
(1722447116.092913) can0 00D#900F R
(1722447116.093045) can0 05B#900F R
(1722447116.093161) can0 014#00 R
(1722447116.093278) can0 008#00 R
(1722447116.093399) can0 055#00 R
(1722447116.093516) can0 05D#00 R
(1722447116.107973) can0 056#00 R
(1722447116.108112) can0 00E#1A0F R
(1722447116.108277) can0 05C#1A0F1A0F R
(1722447116.108407) can0 041#00 R
(1722447116.108516) can0 016#02 R
(1722447116.108643) can0 015#00 R
(1722447116.108766) can0 017#00 R
(1722447116.108873) can0 056#00 R
(1722447116.123887) can0 00E#D20E R
(1722447116.137769) can0 007#00 R
(1722447116.138734) can0 015#00 R
(1722447116.138868) can0 00E#8A0E R
(1722447116.139033) can0 05C#8A0E8A0E R
(1722447116.139157) can0 016#02 R
(1722447116.153888) can0 016#02 R
(1722447116.154016) can0 00D#690E R
(1722447116.154137) can0 041#00 R
(1722447116.154269) can0 05B#690E R
(1722447116.154388) can0 014#00 R
(1722447116.154503) can0 008#00 R
(1722447116.154623) can0 055#00 R
(1722447116.154796) can0 05C#3E0E3E0E R
(1722447116.154916) can0 05D#00 R
(1722447116.169123) can0 00E#F80D R
(1722447116.169292) can0 05C#F80DF80D R
(1722447116.169922) can0 041#00 R
(1722447116.170041) can0 016#02 R
(1722447116.170158) can0 015#00 R
(1722447116.170287) can0 017#00 R
(1722447116.170395) can0 056#00 R
(1722447116.184721) can0 056#00 R
(1722447116.184861) can0 00E#AD0D R
(1722447116.188193) can0 007#00 R
(1722447116.199706) can0 00E#680D R
(1722447116.199873) can0 05C#680D680D R
(1722447116.199987) can0 016#02 R
(1722447116.214796) can0 015#00 R
(1722447116.214928) can0 00D#4D0D R
(1722447116.215042) can0 016#02 R
(1722447116.215165) can0 041#00 R
(1722447116.215295) can0 05B#4D0D R
(1722447116.215463) can0 05C#240D240D R
(1722447116.215578) can0 014#00 R
(1722447116.215697) can0 008#00 R
(1722447116.215816) can0 055#00 R
(1722447116.215935) can0 05D#00 R
(1722447116.229916) can0 00E#E00C R
(1722447116.230080) can0 05C#E00CE00C R
(1722447116.230208) can0 041#00 R
(1722447116.230318) can0 016#02 R
(1722447116.230444) can0 015#00 R
(1722447116.230554) can0 017#00 R
(1722447116.230676) can0 056#00 R
(1722447116.238410) can0 007#00 R
(1722447116.244943) can0 056#00 R
(1722447116.259564) can0 00E#5A0C R
(1722447116.259699) can0 00E#5A0C R
(1722447116.259865) can0 05C#5A0C5A0C R
(1722447116.275182) can0 015#00 R
(1722447116.275312) can0 00D#3B0C R
(1722447116.275425) can0 016#01 R
(1722447116.275551) can0 041#00 R
(1722447116.275663) can0 016#01 R
(1722447116.275796) can0 05B#3B0C R
(1722447116.275912) can0 014#00 R
(1722447116.276029) can0 008#00 R
(1722447116.276147) can0 055#00 R
(1722447116.276266) can0 05D#00 R
(1722447116.287761) can0 007#00 R
(1722447116.291256) can0 05C#D30BD30B R
(1722447116.291381) can0 00E#D30B R
(1722447116.291543) can0 05C#D30BD30B R
(1722447116.291667) can0 041#00 R
(1722447116.291780) can0 016#01 R
(1722447116.291900) can0 015#00 R
(1722447116.292016) can0 017#00 R
(1722447116.292136) can0 056#00 R
(1722447116.307107) can0 056#00 R
(1722447116.307236) can0 00E#8E0B R
(1722447116.307374) can0 00E#8E0B R
(1722447116.322207) can0 05C#4E0B4E0B R
(1722447116.322318) can0 016#01 R
(1722447116.337037) can0 015#00 R
(1722447116.337163) can0 00D#350B R
(1722447116.337284) can0 016#01 R
(1722447116.337410) can0 05B#350B R
(1722447116.337532) can0 014#00 R
(1722447116.337644) can0 008#00 R
(1722447116.337772) can0 055#00 R
(1722447116.337882) can0 05D#00 R
(1722447116.338010) can0 007#00 R
(1722447116.352719) can0 041#00 R
(1722447116.352943) can0 05C#CD0ACD0A R
(1722447116.353077) can0 00E#CD0A R
(1722447116.353241) can0 05C#CD0ACD0A R
(1722447116.353365) can0 041#00 R
(1722447116.353478) can0 016#01 R
(1722447116.353606) can0 015#00 R
(1722447116.353715) can0 017#00 R
(1722447116.353837) can0 056#00 R
(1722447116.368044) can0 056#00 R
(1722447116.368175) can0 00E#8F0A R
(1722447116.383232) can0 00E#520A R
(1722447116.383404) can0 05C#520A520A R
(1722447116.383512) can0 016#01 R
(1722447116.387643) can0 007#00 R
(1722447116.398051) can0 00D#350A R
(1722447116.398151) can0 015#00 R
(1722447116.398287) can0 05B#350A R
(1722447116.398399) can0 014#00 R
(1722447116.398529) can0 008#00 R
(1722447116.398637) can0 055#00 R
(1722447116.398765) can0 05D#00 R
(1722447116.414631) can0 016#01 R
(1722447116.414746) can0 041#00 R
(1722447116.414911) can0 05C#D609D609 R
(1722447116.415035) can0 056#00 R
(1722447116.415163) can0 00E#D609 R
(1722447116.415331) can0 05C#D609D609 R
(1722447116.415451) can0 041#00 R
(1722447116.415567) can0 016#01 R
(1722447116.415687) can0 015#00 R
(1722447116.415804) can0 017#00 R
(1722447116.415923) can0 056#00 R
(1722447116.429762) can0 00E#9709 R
(1722447116.437638) can0 007#00 R
(1722447116.445224) can0 00E#5C09 R
(1722447116.445385) can0 05C#5C095C09 R
(1722447116.445509) can0 016#01 R
(1722447116.460489) can0 00D#4109 R
(1722447116.460620) can0 05B#4109 R
(1722447116.460754) can0 014#00 R
(1722447116.460857) can0 008#00 R
(1722447116.460973) can0 055#00 R
(1722447116.461095) can0 05D#00 R
(1722447116.476084) can0 015#00 R
(1722447116.476199) can0 016#01 R
(1722447116.476324) can0 041#00 R
(1722447116.476489) can0 05C#E608E608 R
(1722447116.476627) can0 00E#E608 R
(1722447116.476791) can0 05C#E608E608 R
(1722447116.476911) can0 041#00 R
(1722447116.477027) can0 016#01 R
(1722447116.477155) can0 015#00 R
(1722447116.477263) can0 017#00 R
(1722447116.477390) can0 056#00 R
(1722447116.488091) can0 007#00 R
(1722447116.490393) can0 056#00 R
(1722447116.506385) can0 00E#7608 R
(1722447116.506580) can0 00E#7608 R
(1722447116.506744) can0 05C#76087608 R
(1722447116.521941) can0 00D#5D08 R
(1722447116.522059) can0 016#01 R
(1722447116.522190) can0 05B#5D08 R
(1722447116.522306) can0 014#00 R
(1722447116.522425) can0 008#00 R
(1722447116.522546) can0 055#00 R
(1722447116.522664) can0 05D#00 R
(1722447116.537029) can0 015#00 R
(1722447116.537138) can0 016#01 R
(1722447116.537267) can0 041#00 R
(1722447116.537395) can0 00E#0608 R
(1722447116.537523) can0 007#00 R
(1722447116.537686) can0 05C#06080608 R
(1722447116.537807) can0 041#00 R
(1722447116.537924) can0 016#01 R
(1722447116.538043) can0 015#00 R
(1722447116.538159) can0 017#00 R
(1722447116.538281) can0 056#00 R
(1722447116.553353) can0 05C#CD07CD07 R
(1722447116.553480) can0 056#00 R
(1722447116.553605) can0 00E#C907 R
(1722447116.553739) can0 00E#C907 R
(1722447116.568495) can0 05C#98079807 R
(1722447116.568610) can0 016#01 R
(1722447116.584128) can0 00D#7C07 R
(1722447116.584255) can0 015#00 R
(1722447116.584363) can0 016#01 R
(1722447116.584506) can0 05B#7C07 R
(1722447116.584615) can0 014#00 R
(1722447116.584754) can0 008#00 R
(1722447116.584859) can0 055#00 R
(1722447116.584979) can0 05D#00 R
(1722447116.595848) can0 007#00 R
(1722447116.600100) can0 041#00 R
(1722447116.600268) can0 05C#2A072A07 R
(1722447116.600408) can0 00E#2A07 R
(1722447116.600572) can0 05C#2A072A07 R
(1722447116.600697) can0 041#00 R
(1722447116.600824) can0 016#01 R
(1722447116.600931) can0 015#00 R
(1722447116.601046) can0 017#00 R
(1722447116.601169) can0 056#00 R
(1722447116.615254) can0 056#00 R
(1722447116.615387) can0 00E#F706 R
(1722447116.630673) can0 00E#C206 R
(1722447116.630839) can0 05C#C206C206 R
(1722447116.630955) can0 016#01 R
(1722447116.645563) can0 007#00 R
(1722447116.645785) can0 00D#AE06 R
(1722447116.645919) can0 05B#AE06 R
(1722447116.646035) can0 014#00 R
(1722447116.646179) can0 008#00 R
(1722447116.646269) can0 015#00 R
(1722447116.646391) can0 055#00 R
(1722447116.646510) can0 05D#00 R
(1722447116.661614) can0 016#00 R
(1722447116.661734) can0 041#00 R
(1722447116.661901) can0 05C#5D065D06 R
(1722447116.662034) can0 00E#5D06 R
(1722447116.662200) can0 05C#5D065D06 R
(1722447116.662324) can0 041#00 R
(1722447116.662436) can0 016#00 R
(1722447116.662561) can0 015#00 R
(1722447116.662675) can0 017#00 R
(1722447116.662798) can0 056#00 R
(1722447116.676338) can0 056#00 R
(1722447116.676497) can0 00E#3006 R
(1722447116.692022) can0 00E#FE05 R
(1722447116.692189) can0 05C#FE05FE05 R
(1722447116.692309) can0 016#00 R
(1722447116.696390) can0 007#00 R
(1722447116.706881) can0 00D#EB05 R
(1722447116.707010) can0 05B#EB05 R
(1722447116.707118) can0 014#00 R
(1722447116.707236) can0 008#00 R
(1722447116.707356) can0 055#00 R
(1722447116.707474) can0 05D#00 R
(1722447116.721402) can0 015#00 R
(1722447116.721515) can0 016#00 R
(1722447116.721640) can0 041#00 R
(1722447116.721807) can0 05C#A505A505 R
(1722447116.721941) can0 00E#A505 R
(1722447116.722107) can0 05C#A505A505 R
(1722447116.722232) can0 041#00 R
(1722447116.722345) can0 016#00 R
(1722447116.722467) can0 015#00 R
(1722447116.722584) can0 017#00 R
(1722447116.722706) can0 056#00 R
(1722447116.737716) can0 056#00 R
(1722447116.746828) can0 007#00 R
(1722447116.752111) can0 00E#4905 R
(1722447116.752253) can0 00E#4905 R
(1722447116.752413) can0 05C#49054905 R
(1722447116.767040) can0 00D#3705 R
(1722447116.767160) can0 016#00 R
(1722447116.767286) can0 05B#3705 R
(1722447116.767404) can0 014#00 R
(1722447116.767522) can0 008#00 R
(1722447116.767650) can0 055#00 R
(1722447116.767761) can0 05D#00 R
(1722447116.783310) can0 015#00 R
(1722447116.783473) can0 016#00 R
(1722447116.783601) can0 041#00 R
(1722447116.783726) can0 00E#F004 R
(1722447116.783900) can0 05C#F004F004 R
(1722447116.784014) can0 041#00 R
(1722447116.784137) can0 016#00 R
(1722447116.784250) can0 015#00 R
(1722447116.784373) can0 017#00 R
(1722447116.784487) can0 056#00 R
(1722447116.796600) can0 007#00 R
(1722447116.798787) can0 05C#C304C304 R
(1722447116.798909) can0 056#00 R
(1722447116.799042) can0 00E#C304 R
(1722447116.799175) can0 00E#C304 R
(1722447116.814165) can0 05C#99049904 R
(1722447116.814266) can0 016#00 R
(1722447116.829678) can0 00D#8604 R
(1722447116.829814) can0 05B#8604 R
(1722447116.829921) can0 014#00 R
(1722447116.830040) can0 008#00 R
(1722447116.830162) can0 055#00 R
(1722447116.830279) can0 05D#00 R
(1722447116.845064) can0 015#00 R
(1722447116.845178) can0 016#00 R
(1722447116.845295) can0 056#00 R
(1722447116.845427) can0 00E#4604 R
(1722447116.845597) can0 05C#46044604 R
(1722447116.845713) can0 041#00 R
(1722447116.845833) can0 016#00 R
(1722447116.845952) can0 015#00 R
(1722447116.846069) can0 017#00 R
(1722447116.846190) can0 056#00 R
(1722447116.846897) can0 007#00 R
(1722447116.860583) can0 041#00 R
(1722447116.860794) can0 05C#1F041F04 R
(1722447116.860860) can0 00E#1F04 R
(1722447116.875672) can0 00E#F603 R
(1722447116.875841) can0 05C#F603F603 R
(1722447116.875952) can0 016#00 R
(1722447116.891132) can0 00D#E703 R
(1722447116.891258) can0 05B#E703 R
(1722447116.891375) can0 014#00 R
(1722447116.891492) can0 008#00 R
(1722447116.891613) can0 055#00 R
(1722447116.891730) can0 05D#00 R
(1722447116.896844) can0 007#00 R
(1722447116.906718) can0 015#00 R
(1722447116.906847) can0 00E#A803 R
(1722447116.907018) can0 05C#A803A803 R
(1722447116.907136) can0 041#00 R
(1722447116.907256) can0 016#00 R
(1722447116.907375) can0 015#00 R
(1722447116.907491) can0 017#00 R
(1722447116.907611) can0 056#00 R
(1722447116.923001) can0 016#00 R
(1722447116.923123) can0 041#00 R
(1722447116.923299) can0 05C#84038403 R
(1722447116.923411) can0 056#00 R
(1722447116.923545) can0 00E#8403 R
(1722447116.937898) can0 00E#5E03 R
(1722447116.938063) can0 05C#5E035E03 R
(1722447116.938175) can0 016#00 R
(1722447116.952783) can0 00D#5003 R
(1722447116.952915) can0 05B#5003 R
(1722447116.953029) can0 014#00 R
(1722447116.953147) can0 008#00 R
(1722447116.953268) can0 055#00 R
(1722447116.953385) can0 05D#00 R
(1722447116.964482) can0 007#00 R
(1722447116.968346) can0 00E#1903 R
(1722447116.968516) can0 05C#19031903 R
(1722447116.968636) can0 041#00 R
(1722447116.968753) can0 016#00 R
(1722447116.968873) can0 015#00 R
(1722447116.968988) can0 017#00 R
(1722447116.969109) can0 056#00 R
(1722447116.983306) can0 015#00 R
(1722447116.983419) can0 016#00 R
(1722447116.983542) can0 041#00 R
(1722447116.983723) can0 05C#F802F802 R
(1722447116.983835) can0 056#00 R
(1722447116.998646) can0 00E#D502 R
(1722447116.998793) can0 00E#D502 R
(1722447116.998957) can0 05C#D502D502 R
(1722447116.999069) can0 016#00 R
(1722447117.014339) can0 007#00 R
(1722447117.014706) can0 00D#C602 R
(1722447117.014842) can0 05B#C602 R
(1722447117.014952) can0 014#00 R
(1722447117.015073) can0 008#00 R
(1722447117.015192) can0 055#00 R
(1722447117.015311) can0 05D#00 R
(1722447117.030691) can0 015#00 R
(1722447117.030779) can0 016#00 R
(1722447117.030915) can0 041#00 R
(1722447117.031045) can0 00E#9402 R
(1722447117.031214) can0 05C#94029402 R
(1722447117.031332) can0 041#00 R
(1722447117.031450) can0 016#00 R
(1722447117.031569) can0 015#00 R
(1722447117.031686) can0 017#00 R
(1722447117.031805) can0 056#00 R
(1722447117.045053) can0 05C#75027502 R
(1722447117.045170) can0 056#00 R
(1722447117.045303) can0 00E#7502 R
(1722447117.045437) can0 00E#7502 R
(1722447117.060500) can0 05C#57025702 R
(1722447117.060615) can0 016#00 R
(1722447117.063855) can0 007#00 R
(1722447117.075621) can0 00D#4A02 R
(1722447117.075755) can0 05B#4A02 R
(1722447117.075868) can0 014#00 R
(1722447117.075987) can0 008#00 R
(1722447117.076106) can0 055#00 R
(1722447117.076226) can0 05D#00 R
(1722447117.090441) can0 015#00 R
(1722447117.090551) can0 016#00 R
(1722447117.090687) can0 00E#1E02 R
(1722447117.090860) can0 05C#1E021E02 R
(1722447117.090979) can0 041#00 R
(1722447117.091096) can0 016#00 R
(1722447117.091215) can0 015#00 R
(1722447117.091330) can0 017#00 R
(1722447117.091451) can0 056#00 R
(1722447117.105765) can0 041#00 R
(1722447117.105936) can0 05C#01020102 R
(1722447117.106053) can0 056#00 R
(1722447117.106195) can0 00E#0102 R
(1722447117.114230) can0 007#00 R
(1722447117.120791) can0 00E#E601 R
(1722447117.120927) can0 05C#E601E601 R
(1722447117.121044) can0 016#00 R
(1722447117.135327) can0 00D#DB01 R
(1722447117.135450) can0 05B#DB01 R
(1722447117.135559) can0 014#00 R
(1722447117.135679) can0 008#00 R
(1722447117.135798) can0 055#00 R
(1722447117.135917) can0 05D#00 R
(1722447117.151610) can0 015#00 R
(1722447117.151853) can0 00E#B201 R
(1722447117.152020) can0 05C#B201B201 R
(1722447117.152139) can0 041#00 R
(1722447117.152258) can0 016#00 R
(1722447117.152377) can0 015#00 R
(1722447117.152493) can0 017#00 R
(1722447117.152613) can0 056#00 R
(1722447117.164017) can0 007#00 R
(1722447117.167086) can0 016#00 R
(1722447117.167204) can0 041#00 R
(1722447117.167379) can0 05C#98019801 R
(1722447117.167495) can0 056#00 R
(1722447117.167636) can0 00E#9801 R
(1722447117.182431) can0 00E#8001 R
(1722447117.182600) can0 05C#80018001 R
(1722447117.182715) can0 016#00 R
(1722447117.197517) can0 00D#7501 R
(1722447117.197643) can0 05B#7501 R
(1722447117.197762) can0 014#00 R
(1722447117.197875) can0 008#00 R
(1722447117.197998) can0 055#00 R
(1722447117.198140) can0 05D#00 R
(1722447117.213019) can0 015#00 R
(1722447117.213132) can0 016#00 R
(1722447117.213257) can0 041#00 R
(1722447117.213423) can0 05C#51015101 R
(1722447117.213554) can0 00E#5101 R
(1722447117.213721) can0 05C#51015101 R
(1722447117.213834) can0 007#00 R
(1722447117.213957) can0 041#00 R
(1722447117.214073) can0 016#00 R
(1722447117.214194) can0 015#00 R
(1722447117.214308) can0 017#00 R
(1722447117.214429) can0 056#00 R
(1722447117.228617) can0 056#00 R
(1722447117.243581) can0 00E#2601 R
(1722447117.243704) can0 00E#2601 R
(1722447117.243868) can0 05C#26012601 R
(1722447117.258933) can0 00D#1C01 R
(1722447117.259044) can0 016#00 R
(1722447117.259167) can0 015#00 R
(1722447117.259282) can0 016#00 R
(1722447117.259405) can0 041#00 R
(1722447117.259537) can0 05B#1C01 R
(1722447117.259652) can0 014#00 R
(1722447117.259771) can0 008#00 R
(1722447117.259892) can0 055#00 R
(1722447117.260015) can0 05D#00 R
(1722447117.265342) can0 007#00 R
(1722447117.274763) can0 05C#FC00FC00 R
(1722447117.274896) can0 00E#FC00 R
(1722447117.275075) can0 05C#FC00FC00 R
(1722447117.275192) can0 041#00 R
(1722447117.275310) can0 016#00 R
(1722447117.275430) can0 015#00 R
(1722447117.275547) can0 017#00 R
(1722447117.275666) can0 056#00 R
(1722447117.289968) can0 056#00 R
(1722447117.290102) can0 00E#E900 R
(1722447117.290246) can0 00E#E900 R
(1722447117.290407) can0 05C#E900E900 R
(1722447117.290519) can0 016#00 R
(1722447117.305320) can0 015#00 R
(1722447117.305432) can0 016#00 R
(1722447117.315116) can0 007#00 R
(1722447117.320277) can0 041#00 R
(1722447117.320406) can0 00D#CF00 R
(1722447117.320544) can0 05B#CF00 R
(1722447117.320653) can0 014#00 R
(1722447117.320829) can0 05C#C400C400 R
(1722447117.320944) can0 008#00 R
(1722447117.321075) can0 055#00 R
(1722447117.321180) can0 05D#00 R
(1722447117.335832) can0 056#00 R
(1722447117.335961) can0 00E#B400 R
(1722447117.336135) can0 05C#B400B400 R
(1722447117.336252) can0 041#00 R
(1722447117.336369) can0 016#00 R
(1722447117.336489) can0 015#00 R
(1722447117.336605) can0 017#00 R
(1722447117.336725) can0 056#00 R
(1722447117.351472) can0 00E#A400 R
(1722447117.364789) can0 007#00 R
(1722447117.366801) can0 015#00 R
(1722447117.366941) can0 00E#9400 R
(1722447117.367111) can0 05C#94009400 R
(1722447117.367226) can0 016#00 R
(1722447117.382196) can0 016#00 R
(1722447117.382325) can0 00D#8D00 R
(1722447117.382447) can0 041#00 R
(1722447117.382579) can0 05B#8D00 R
(1722447117.382695) can0 014#00 R
(1722447117.382813) can0 008#00 R
(1722447117.382935) can0 055#00 R
(1722447117.383104) can0 05C#86008600 R
(1722447117.383220) can0 05D#00 R
(1722447117.397555) can0 00E#7800 R
(1722447117.397728) can0 05C#78007800 R
(1722447117.397848) can0 041#00 R
(1722447117.397966) can0 016#00 R
(1722447117.398084) can0 015#00 R
(1722447117.398205) can0 017#00 R
(1722447117.398320) can0 056#00 R
(1722447117.413630) can0 056#00 R
(1722447117.413765) can0 00E#6A00 R
(1722447117.414837) can0 007#00 R
(1722447117.428972) can0 00E#5D00 R
(1722447117.429146) can0 05C#5D005D00 R
(1722447117.429258) can0 016#00 R
(1722447117.444568) can0 015#00 R
(1722447117.444696) can0 00D#5800 R
(1722447117.444794) can0 016#00 R
(1722447117.444925) can0 041#00 R
(1722447117.445060) can0 05B#5800 R
(1722447117.445172) can0 014#00 R
(1722447117.445291) can0 008#00 R
(1722447117.445410) can0 055#00 R
(1722447117.445581) can0 05C#52005200 R
(1722447117.445698) can0 05D#00 R
(1722447117.460491) can0 00E#4600 R
(1722447117.460652) can0 05C#46004600 R
(1722447117.460796) can0 041#00 R
(1722447117.460888) can0 016#00 R
(1722447117.461015) can0 015#00 R
(1722447117.461125) can0 017#00 R
(1722447117.461253) can0 056#00 R
(1722447117.464446) can0 007#00 R
(1722447117.474515) can0 056#00 R
(1722447117.490439) can0 00E#3400 R
(1722447117.490577) can0 00E#3400 R
(1722447117.490746) can0 05C#34003400 R
(1722447117.505920) can0 015#00 R
(1722447117.506051) can0 00D#3000 R
(1722447117.506168) can0 016#00 R
(1722447117.506288) can0 041#00 R
(1722447117.506411) can0 016#00 R
(1722447117.506538) can0 05B#3000 R
(1722447117.506661) can0 014#00 R
(1722447117.506772) can0 008#00 R
(1722447117.506895) can0 055#00 R
(1722447117.507010) can0 05D#00 R
(1722447117.514279) can0 007#00 R
(1722447117.520781) can0 05C#23002300 R
(1722447117.520916) can0 00E#2300 R
(1722447117.521083) can0 05C#23002300 R
(1722447117.521214) can0 041#00 R
(1722447117.521322) can0 016#00 R
(1722447117.521446) can0 015#00 R
(1722447117.521558) can0 017#00 R
(1722447117.521681) can0 056#00 R
(1722447117.536053) can0 056#00 R
(1722447117.536187) can0 00E#1D00 R
(1722447117.536317) can0 00E#1D00 R
(1722447117.550898) can0 05C#16001600 R
(1722447117.551016) can0 016#00 R
(1722447117.566265) can0 00D#1400 R
(1722447117.566362) can0 015#00 R
(1722447117.566497) can0 016#00 R
(1722447117.566614) can0 05B#1400 R
(1722447117.566737) can0 014#00 R
(1722447117.566848) can0 008#00 R
(1722447117.566971) can0 055#00 R
(1722447117.567086) can0 05D#00 R
(1722447117.581648) can0 041#00 R
(1722447117.581821) can0 05C#0C000C00 R
(1722447117.581955) can0 00E#0C00 R
(1722447117.582127) can0 05C#0C000C00 R
(1722447117.582257) can0 041#00 R
(1722447117.582365) can0 016#00 R
(1722447117.582490) can0 015#00 R
(1722447117.582601) can0 017#00 R
(1722447117.582723) can0 056#00 R
(1722447117.586862) can0 007#00 R
(1722447117.596680) can0 056#00 R
(1722447117.596816) can0 00E#0800 R
(1722447117.612168) can0 00E#0500 R
(1722447117.612342) can0 05C#05000500 R
(1722447117.612455) can0 016#00 R
(1722447117.627636) can0 015#00 R
(1722447117.627766) can0 00D#0400 R
(1722447117.627888) can0 016#00 R
(1722447117.628018) can0 05B#0400 R
(1722447117.628138) can0 014#00 R
(1722447117.628255) can0 008#00 R
(1722447117.628383) can0 055#00 R
(1722447117.628492) can0 05D#00 R
(1722447117.635363) can0 007#00 R
(1722447117.642495) can0 041#00 R
(1722447117.642663) can0 05C#01000100 R
(1722447117.642783) can0 056#00 R
(1722447117.642919) can0 00E#0100 R
(1722447117.643094) can0 05C#01000100 R
(1722447117.643217) can0 041#00 R
(1722447117.643332) can0 016#00 R
(1722447117.643452) can0 015#00 R
(1722447117.643569) can0 017#00 R
(1722447117.643689) can0 056#00 R
(1722447117.658412) can0 00E#0000 R
(1722447117.673843) can0 00E#0000 R
(1722447117.674015) can0 05C#00000000 R
(1722447117.674123) can0 016#00 R
(1722447117.685597) can0 007#00 R
(1722447117.689014) can0 00D#0000 R
(1722447117.689126) can0 015#00 R
(1722447117.689243) can0 016#00 R
(1722447117.689363) can0 041#00 R
(1722447117.689501) can0 05B#0000 R
(1722447117.689616) can0 014#00 R
(1722447117.689737) can0 008#00 R
(1722447117.689855) can0 055#00 R
(1722447117.690034) can0 05C#00000000 R
(1722447117.690150) can0 05D#00 R
(1722447117.703973) can0 00E#0100 R
(1722447117.704150) can0 05C#01000100 R
(1722447117.704270) can0 041#00 R
(1722447117.704394) can0 016#00 R
(1722447117.704505) can0 015#00 R
(1722447117.704622) can0 017#00 R
(1722447117.704755) can0 056#00 R
(1722447117.719727) can0 056#00 R
(1722447117.734799) can0 015#00 R
(1722447117.734914) can0 016#00 R
(1722447117.735051) can0 00E#0600 R
(1722447117.735186) can0 00E#0600 R
(1722447117.735362) can0 05C#06000600 R
(1722447117.735881) can0 007#00 R
(1722447117.750278) can0 041#00 R
(1722447117.750417) can0 00D#0800 R
(1722447117.750550) can0 05B#0800 R
(1722447117.750668) can0 014#00 R
(1722447117.750784) can0 008#00 R
(1722447117.750909) can0 055#00 R
(1722447117.751076) can0 05C#0A000A00 R
(1722447117.751199) can0 016#00 R
(1722447117.751310) can0 05D#00 R
(1722447117.766267) can0 056#00 R
(1722447117.766401) can0 00E#0E00 R
(1722447117.766742) can0 05C#0E000E00 R
(1722447117.766857) can0 041#00 R
(1722447117.766984) can0 016#00 R
(1722447117.767093) can0 015#00 R
(1722447117.767211) can0 017#00 R
(1722447117.767330) can0 056#00 R
(1722447117.781451) can0 00E#1300 R
(1722447117.781570) can0 00E#1300 R
(1722447117.785850) can0 007#00 R
(1722447117.796295) can0 015#00 R
(1722447117.796416) can0 016#00 R
(1722447117.796628) can0 05C#1A001A00 R
(1722447117.796779) can0 016#00 R
(1722447117.811687) can0 041#00 R
(1722447117.811824) can0 00D#1C00 R
(1722447117.811958) can0 05B#1C00 R
(1722447117.812075) can0 014#00 R
(1722447117.812193) can0 008#00 R
(1722447117.812313) can0 055#00 R
(1722447117.812487) can0 05C#20002000 R
(1722447117.812605) can0 05D#00 R
(1722447117.827926) can0 00E#2700 R
(1722447117.828093) can0 05C#27002700 R
(1722447117.828216) can0 041#00 R
(1722447117.828331) can0 016#00 R
(1722447117.828452) can0 015#00 R
(1722447117.828567) can0 017#00 R
(1722447117.828688) can0 056#00 R
(1722447117.835897) can0 007#00 R
(1722447117.842180) can0 056#00 R
(1722447117.842404) can0 00E#2F00 R
(1722447117.857833) can0 015#00 R
(1722447117.857967) can0 00E#3900 R
(1722447117.858136) can0 05C#39003900 R
(1722447117.858251) can0 016#00 R
(1722447117.873641) can0 016#00 R
(1722447117.873771) can0 00D#3D00 R
(1722447117.873894) can0 041#00 R
(1722447117.874027) can0 05B#3D00 R
(1722447117.874143) can0 014#00 R
(1722447117.874261) can0 008#00 R
(1722447117.874384) can0 055#00 R
(1722447117.874550) can0 05C#43004300 R
(1722447117.874668) can0 05D#00 R
(1722447117.889050) can0 00E#4C00 R
(1722447117.889205) can0 05C#4C004C00 R
(1722447117.889325) can0 041#00 R
(1722447117.889441) can0 016#00 R
(1722447117.889561) can0 015#00 R
(1722447117.889676) can0 017#00 R
(1722447117.889797) can0 056#00 R
(1722447117.903581) can0 056#00 R
(1722447117.903717) can0 00E#5800 R
(1722447117.903848) can0 00E#5800 R
(1722447117.904017) can0 05C#58005800 R
(1722447117.904134) can0 016#00 R
(1722447117.905766) can0 007#00 R
(1722447117.919052) can0 015#00 R
(1722447117.919168) can0 016#00 R
(1722447117.919292) can0 041#00 R
(1722447117.919459) can0 05C#64006400 R
(1722447117.934627) can0 00D#6900 R
(1722447117.934754) can0 05B#6900 R
(1722447117.934878) can0 014#00 R
(1722447117.934989) can0 008#00 R
(1722447117.935117) can0 055#00 R
(1722447117.935227) can0 05D#00 R
(1722447117.949432) can0 00E#7D00 R
(1722447117.949600) can0 05C#7D007D00 R
(1722447117.949722) can0 041#00 R
(1722447117.949837) can0 016#00 R
(1722447117.949980) can0 015#00 R
(1722447117.950072) can0 017#00 R
(1722447117.950194) can0 056#00 R
(1722447117.955185) can0 007#00 R
(1722447117.964291) can0 056#00 R
(1722447117.979800) can0 015#00 R
(1722447117.979914) can0 016#00 R
(1722447117.980036) can0 041#00 R
(1722447117.980169) can0 00E#9B00 R
(1722447117.980304) can0 00E#9B00 R
(1722447117.980470) can0 05C#9B009B00 R
(1722447117.994597) can0 05C#AA00AA00 R
(1722447117.994732) can0 00D#A100 R
(1722447117.994848) can0 016#00 R
(1722447117.994979) can0 05B#A100 R
(1722447117.995096) can0 014#00 R
(1722447117.995214) can0 008#00 R
(1722447117.995337) can0 055#00 R
(1722447117.995452) can0 05D#00 R
(1722447118.005003) can0 007#00 R
(1722447118.010184) can0 00E#BA00 R
(1722447118.010355) can0 05C#BA00BA00 R
(1722447118.010474) can0 041#00 R
(1722447118.010590) can0 016#00 R
(1722447118.010710) can0 015#00 R
(1722447118.010827) can0 017#00 R
(1722447118.010946) can0 056#00 R
(1722447118.026055) can0 056#00 R
(1722447118.026188) can0 00E#CC00 R
(1722447118.026324) can0 00E#CC00 R
(1722447118.041129) can0 015#00 R
(1722447118.041241) can0 016#00 R
(1722447118.041410) can0 05C#DE00DE00 R
(1722447118.041527) can0 016#00 R
(1722447118.054893) can0 007#00 R
(1722447118.057261) can0 00D#E600 R
(1722447118.057395) can0 05B#E600 R
(1722447118.057511) can0 014#00 R
(1722447118.057634) can0 008#00 R
(1722447118.057752) can0 041#00 R
(1722447118.057880) can0 055#00 R
(1722447118.058039) can0 05C#F100F100 R
(1722447118.058157) can0 05D#00 R
(1722447118.072181) can0 00E#0401 R
(1722447118.072356) can0 05C#04010401 R
(1722447118.072472) can0 041#00 R
(1722447118.072591) can0 016#00 R
(1722447118.072708) can0 015#00 R
(1722447118.072830) can0 017#00 R
(1722447118.072945) can0 056#00 R
(1722447118.073069) can0 056#00 R
(1722447118.073199) can0 00E#0601 R
(1722447118.087057) can0 015#00 R
(1722447118.087203) can0 00E#1801 R
(1722447118.087369) can0 05C#18011801 R
(1722447118.087494) can0 016#00 R
(1722447118.102619) can0 016#00 R
(1722447118.102732) can0 041#00 R
(1722447118.102895) can0 05C#2E012E01 R
(1722447118.104885) can0 007#00 R
(1722447118.117551) can0 00D#3701 R
(1722447118.117751) can0 05B#3701 R
(1722447118.117876) can0 014#00 R
(1722447118.117984) can0 008#00 R
(1722447118.118104) can0 055#00 R
(1722447118.118231) can0 05D#00 R
(1722447118.132463) can0 00E#5901 R
(1722447118.132637) can0 05C#59015901 R
(1722447118.132776) can0 041#00 R
(1722447118.132878) can0 016#00 R
(1722447118.132992) can0 015#00 R
(1722447118.133109) can0 017#00 R
(1722447118.133229) can0 056#00 R
(1722447118.147825) can0 056#00 R
(1722447118.147958) can0 00E#7001 R
(1722447118.155138) can0 007#00 R
(1722447118.163064) can0 00E#8801 R
(1722447118.163346) can0 05C#88018801 R
(1722447118.163462) can0 016#00 R
(1722447118.178140) can0 015#00 R
(1722447118.178269) can0 00D#9301 R
(1722447118.178386) can0 016#00 R
(1722447118.178516) can0 05B#9301 R
(1722447118.178635) can0 014#00 R
(1722447118.178753) can0 008#00 R
(1722447118.178873) can0 041#00 R
(1722447118.178992) can0 055#00 R
(1722447118.179111) can0 05D#00 R
(1722447118.194535) can0 05C#BA01BA01 R
(1722447118.194664) can0 00E#BA01 R
(1722447118.194832) can0 05C#BA01BA01 R
(1722447118.194952) can0 041#00 R
(1722447118.195069) can0 016#00 R
(1722447118.195188) can0 015#00 R
(1722447118.195310) can0 017#00 R
(1722447118.195424) can0 056#00 R
(1722447118.205104) can0 007#00 R
(1722447118.209949) can0 056#00 R
(1722447118.225560) can0 00E#F201 R
(1722447118.225693) can0 00E#F201 R
(1722447118.225859) can0 05C#F201F201 R
(1722447118.240878) can0 00D#FD01 R
(1722447118.240993) can0 015#00 R
(1722447118.241110) can0 016#00 R
(1722447118.241224) can0 016#00 R
(1722447118.241359) can0 05B#FD01 R
(1722447118.241475) can0 014#00 R
(1722447118.241593) can0 008#00 R
(1722447118.241714) can0 055#00 R
(1722447118.241834) can0 05D#00 R
(1722447118.254715) can0 007#00 R
(1722447118.256026) can0 041#00 R
(1722447118.256191) can0 05C#29022902 R
(1722447118.256324) can0 00E#2902 R
(1722447118.256490) can0 05C#29022902 R
(1722447118.256612) can0 041#00 R
(1722447118.256728) can0 016#00 R
(1722447118.256853) can0 015#00 R
(1722447118.256965) can0 017#00 R
(1722447118.257087) can0 056#00 R
(1722447118.272159) can0 056#00 R
(1722447118.272294) can0 00E#4802 R
(1722447118.272427) can0 00E#4802 R
(1722447118.287162) can0 05C#65026502 R
(1722447118.287278) can0 016#00 R
(1722447118.302580) can0 00D#7302 R
(1722447118.302696) can0 015#00 R
(1722447118.302829) can0 05B#7302 R
(1722447118.302944) can0 014#00 R
(1722447118.303062) can0 008#00 R
(1722447118.303182) can0 055#00 R
(1722447118.303301) can0 05D#00 R
(1722447118.304723) can0 007#00 R
(1722447118.317980) can0 016#00 R
(1722447118.318107) can0 041#00 R
(1722447118.318260) can0 05C#A402A402 R
(1722447118.318380) can0 056#00 R
(1722447118.318513) can0 00E#A402 R
(1722447118.318681) can0 05C#A402A402 R
(1722447118.318803) can0 041#00 R
(1722447118.318919) can0 016#00 R
(1722447118.319040) can0 015#00 R
(1722447118.319155) can0 017#00 R
(1722447118.319276) can0 056#00 R
(1722447118.333723) can0 00E#C602 R
(1722447118.348827) can0 00E#E602 R
(1722447118.348988) can0 05C#E602E602 R
(1722447118.349104) can0 016#00 R
(1722447118.355248) can0 007#00 R
(1722447118.363456) can0 00D#F302 R
(1722447118.363586) can0 05B#F302 R
(1722447118.363704) can0 014#00 R
(1722447118.363819) can0 008#00 R
(1722447118.363947) can0 055#00 R
(1722447118.364058) can0 05D#00 R
(1722447118.378792) can0 015#00 R
(1722447118.378909) can0 016#00 R
(1722447118.379032) can0 041#00 R
(1722447118.379199) can0 05C#29032903 R
(1722447118.379331) can0 00E#2903 R
(1722447118.379503) can0 05C#29032903 R
(1722447118.379620) can0 041#00 R
(1722447118.379737) can0 016#00 R
(1722447118.379856) can0 015#00 R
(1722447118.379973) can0 017#00 R
(1722447118.380093) can0 056#00 R
(1722447118.393952) can0 056#00 R
(1722447118.394083) can0 00E#4B03 R
(1722447118.407215) can0 007#00 R
(1722447118.408643) can0 00E#6F03 R
(1722447118.408813) can0 05C#6F036F03 R
(1722447118.408925) can0 016#00 R
(1722447118.423886) can0 00D#7D03 R
(1722447118.424008) can0 05B#7D03 R
(1722447118.424127) can0 014#00 R
(1722447118.424251) can0 008#00 R
(1722447118.424365) can0 055#00 R
(1722447118.424492) can0 05D#00 R
(1722447118.439473) can0 015#00 R
(1722447118.439589) can0 016#00 R
(1722447118.439710) can0 041#00 R
(1722447118.439843) can0 00E#B703 R
(1722447118.440011) can0 05C#B703B703 R
(1722447118.440135) can0 041#00 R
(1722447118.440251) can0 016#00 R
(1722447118.440369) can0 015#00 R
(1722447118.440485) can0 017#00 R
(1722447118.440605) can0 056#00 R
(1722447118.454615) can0 05C#DF03DF03 R
(1722447118.454730) can0 056#00 R
(1722447118.457566) can0 007#00 R
(1722447118.470442) can0 00E#0504 R
(1722447118.470581) can0 00E#0504 R
(1722447118.471234) can0 05C#05040504 R
(1722447118.485397) can0 00D#1704 R
(1722447118.485513) can0 016#00 R
(1722447118.485648) can0 05B#1704 R
(1722447118.485762) can0 014#00 R
(1722447118.485881) can0 008#00 R
(1722447118.486026) can0 055#00 R
(1722447118.486140) can0 05D#00 R
(1722447118.501489) can0 015#00 R
(1722447118.501612) can0 016#00 R
(1722447118.501738) can0 00E#5804 R
(1722447118.501907) can0 05C#58045804 R
(1722447118.502032) can0 041#00 R
(1722447118.502147) can0 016#00 R
(1722447118.502265) can0 015#00 R
(1722447118.502382) can0 017#00 R
(1722447118.502502) can0 056#00 R
(1722447118.508433) can0 007#00 R
(1722447118.516793) can0 041#00 R
(1722447118.516961) can0 05C#81048104 R
(1722447118.517144) can0 056#00 R
(1722447118.517275) can0 00E#8104 R
(1722447118.517411) can0 00E#8104 R
(1722447118.532675) can0 05C#AA04AA04 R
(1722447118.532803) can0 016#00 R
(1722447118.547428) can0 00D#BD04 R
(1722447118.547561) can0 05B#BD04 R
(1722447118.547675) can0 014#00 R
(1722447118.547794) can0 008#00 R
(1722447118.547913) can0 055#00 R
(1722447118.548032) can0 05D#00 R
(1722447118.562817) can0 015#00 R
(1722447118.562955) can0 00E#0005 R
(1722447118.563124) can0 05C#00050005 R
(1722447118.563247) can0 007#00 R
(1722447118.563363) can0 041#00 R
(1722447118.563485) can0 016#00 R
(1722447118.563599) can0 015#00 R
(1722447118.563723) can0 017#00 R
(1722447118.563835) can0 056#00 R
(1722447118.577792) can0 016#00 R
(1722447118.577912) can0 041#00 R
(1722447118.578080) can0 05C#2C052C05 R
(1722447118.578199) can0 056#00 R
(1722447118.578332) can0 00E#2C05 R
(1722447118.578463) can0 00E#2C05 R
(1722447118.578632) can0 05C#2C052C05 R
(1722447118.578748) can0 016#00 R
(1722447118.607499) can0 00D#6905 R
(1722447118.607624) can0 05B#6905 R
(1722447118.607746) can0 014#00 R
(1722447118.607859) can0 008#00 R
(1722447118.607986) can0 055#00 R
(1722447118.608096) can0 05D#00 R
(1722447118.612686) can0 007#00 R
(1722447118.623241) can0 015#00 R
(1722447118.623359) can0 016#00 R
(1722447118.623479) can0 041#00 R
(1722447118.623647) can0 05C#AE05AE05 R
(1722447118.623777) can0 00E#AE05 R
(1722447118.623945) can0 05C#AE05AE05 R
(1722447118.624065) can0 041#00 R
(1722447118.624182) can0 016#00 R
(1722447118.624300) can0 015#00 R
(1722447118.624418) can0 017#00 R
(1722447118.624537) can0 056#00 R
(1722447118.638077) can0 056#00 R
(1722447118.638202) can0 00E#DF05 R
(1722447118.653740) can0 00E#1106 R
(1722447118.653904) can0 05C#11061106 R
(1722447118.654020) can0 016#00 R
(1722447118.662717) can0 007#00 R
(1722447118.669019) can0 00D#2306 R
(1722447118.669152) can0 05B#2306 R
(1722447118.669269) can0 014#00 R
(1722447118.669386) can0 008#00 R
(1722447118.669506) can0 055#00 R
(1722447118.669624) can0 05D#00 R
(1722447118.683709) can0 015#00 R
(1722447118.683875) can0 016#01 R
(1722447118.683997) can0 041#00 R
(1722447118.684128) can0 00E#7006 R
(1722447118.684295) can0 05C#70067006 R
(1722447118.684417) can0 041#00 R
(1722447118.684534) can0 016#01 R
(1722447118.684653) can0 015#00 R
(1722447118.684800) can0 017#00 R
(1722447118.684895) can0 056#00 R
(1722447118.698804) can0 05C#A106A106 R
(1722447118.698924) can0 056#00 R
(1722447118.712896) can0 007#00 R
(1722447118.714307) can0 00E#D206 R
(1722447118.714439) can0 00E#D206 R
(1722447118.714614) can0 05C#D206D206 R
(1722447118.729115) can0 00D#E606 R
(1722447118.729231) can0 016#01 R
(1722447118.729361) can0 05B#E606 R
(1722447118.729478) can0 014#00 R
(1722447118.729594) can0 008#00 R
(1722447118.729715) can0 055#00 R
(1722447118.729833) can0 05D#00 R
(1722447118.744519) can0 015#00 R
(1722447118.744620) can0 016#01 R
(1722447118.744761) can0 056#00 R
(1722447118.744877) can0 00E#3A07 R
(1722447118.745045) can0 05C#3A073A07 R
(1722447118.745164) can0 041#00 R
(1722447118.745286) can0 016#01 R
(1722447118.745400) can0 015#00 R
(1722447118.745524) can0 017#00 R
(1722447118.745639) can0 056#00 R
(1722447118.759736) can0 041#00 R
(1722447118.759901) can0 05C#6E076E07 R
(1722447118.760089) can0 00E#6E07 R
(1722447118.760215) can0 00E#6E07 R
(1722447118.762930) can0 007#00 R
(1722447118.775054) can0 05C#A207A207 R
(1722447118.775167) can0 016#01 R
(1722447118.789877) can0 015#00 R
(1722447118.790007) can0 00D#B707 R
(1722447118.790143) can0 05B#B707 R
(1722447118.790261) can0 014#00 R
(1722447118.790385) can0 008#00 R
(1722447118.790499) can0 055#00 R
(1722447118.790623) can0 05D#00 R
(1722447118.806133) can0 016#01 R
(1722447118.806254) can0 041#00 R
(1722447118.806426) can0 05C#10081008 R
(1722447118.806560) can0 00E#1008 R
(1722447118.806732) can0 05C#10081008 R
(1722447118.806853) can0 041#00 R
(1722447118.806970) can0 016#01 R
(1722447118.807090) can0 015#00 R
(1722447118.807206) can0 017#00 R
(1722447118.807326) can0 056#00 R
(1722447118.812791) can0 007#00 R
(1722447118.820952) can0 056#00 R
(1722447118.821155) can0 00E#4608 R
(1722447118.835364) can0 00E#7D08 R
(1722447118.835525) can0 05C#7D087D08 R
(1722447118.835648) can0 016#01 R
(1722447118.850960) can0 00D#9408 R
(1722447118.851085) can0 05B#9408 R
(1722447118.851210) can0 014#00 R
(1722447118.851609) can0 008#00 R
(1722447118.851724) can0 055#00 R
(1722447118.851844) can0 05D#00 R
(1722447118.863443) can0 007#00 R
(1722447118.866644) can0 015#00 R
(1722447118.866756) can0 016#01 R
(1722447118.866880) can0 041#00 R
(1722447118.867043) can0 05C#F108F108 R
(1722447118.867160) can0 056#00 R
(1722447118.867291) can0 00E#F108 R
(1722447118.867451) can0 05C#F108F108 R
(1722447118.867575) can0 041#00 R
(1722447118.867692) can0 016#01 R
(1722447118.867810) can0 015#00 R
(1722447118.867926) can0 017#00 R
(1722447118.868046) can0 056#00 R
(1722447118.881672) can0 00E#2A09 R
(1722447118.897039) can0 00E#6409 R
(1722447118.897211) can0 05C#64096409 R
(1722447118.897319) can0 016#01 R
(1722447118.913034) can0 007#00 R
(1722447118.913192) can0 00D#8309 R
(1722447118.913312) can0 05B#8309 R
(1722447118.913427) can0 014#00 R
(1722447118.913546) can0 008#00 R
(1722447118.913666) can0 055#00 R
(1722447118.913785) can0 05D#00 R
(1722447118.929172) can0 015#00 R
(1722447118.929285) can0 016#01 R
(1722447118.929407) can0 041#00 R
(1722447118.929541) can0 00E#E109 R
(1722447118.929705) can0 05C#E109E109 R
(1722447118.929824) can0 041#00 R
(1722447118.929940) can0 016#01 R
(1722447118.930060) can0 015#00 R
(1722447118.930176) can0 017#00 R
(1722447118.930296) can0 056#00 R
(1722447118.944490) can0 05C#210A210A R
(1722447118.944604) can0 056#00 R
(1722447118.959974) can0 00E#5E0A R
(1722447118.960097) can0 00E#5E0A R
(1722447118.960263) can0 05C#5E0A5E0A R
(1722447118.962867) can0 007#00 R
(1722447118.975594) can0 016#01 R
(1722447118.975729) can0 00D#7A0A R
(1722447118.975860) can0 05B#7A0A R
(1722447118.975974) can0 014#00 R
(1722447118.976089) can0 008#00 R
(1722447118.976215) can0 055#00 R
(1722447118.976327) can0 05D#00 R
(1722447118.991137) can0 015#00 R
(1722447118.991249) can0 016#01 R
(1722447118.991380) can0 00E#DD0A R
(1722447118.991546) can0 05C#DD0ADD0A R
(1722447118.991664) can0 041#00 R
(1722447118.991782) can0 016#01 R
(1722447118.991902) can0 015#00 R
(1722447118.992018) can0 017#00 R
(1722447118.992138) can0 056#00 R
(1722447119.007339) can0 041#00 R
(1722447119.007502) can0 05C#200B200B R
(1722447119.007617) can0 056#00 R
(1722447119.007752) can0 00E#200B R
(1722447119.007895) can0 00E#200B R
(1722447119.012786) can0 007#00 R
(1722447119.022114) can0 05C#5F0B5F0B R
(1722447119.022182) can0 016#01 R
(1722447119.037871) can0 00D#7D0B R
(1722447119.038000) can0 05B#7D0B R
(1722447119.038118) can0 014#00 R
(1722447119.038233) can0 008#00 R
(1722447119.038354) can0 055#00 R
(1722447119.038471) can0 05D#00 R
(1722447119.053011) can0 015#00 R
(1722447119.053216) can0 00E#E80B R
(1722447119.053383) can0 05C#E80BE80B R
(1722447119.053503) can0 041#00 R
(1722447119.053618) can0 016#01 R
(1722447119.053742) can0 015#00 R
(1722447119.053856) can0 017#00 R
(1722447119.054003) can0 056#00 R
(1722447119.064514) can0 007#00 R
(1722447119.067984) can0 016#01 R
(1722447119.068103) can0 041#00 R
(1722447119.068270) can0 05C#250C250C R
(1722447119.068385) can0 056#00 R
(1722447119.068517) can0 00E#250C R
(1722447119.083984) can0 00E#6C0C R
(1722447119.084147) can0 05C#6C0C6C0C R
(1722447119.084256) can0 016#01 R
(1722447119.099024) can0 00D#860C R
(1722447119.099691) can0 05B#860C R
(1722447119.099809) can0 014#00 R
(1722447119.099926) can0 008#00 R
(1722447119.100045) can0 055#00 R
(1722447119.100163) can0 05D#00 R
(1722447119.114136) can0 007#00 R
(1722447119.114290) can0 00E#F20C R
(1722447119.114449) can0 05C#F20CF20C R
(1722447119.114564) can0 041#00 R
(1722447119.114682) can0 016#02 R
(1722447119.114801) can0 015#00 R
(1722447119.114917) can0 017#00 R
(1722447119.115037) can0 056#00 R
(1722447119.130109) can0 015#00 R
(1722447119.130227) can0 016#02 R
(1722447119.130344) can0 041#00 R
(1722447119.130521) can0 05C#3A0D3F0D R
(1722447119.130634) can0 056#00 R
(1722447119.130768) can0 00E#3F0D R
(1722447119.145102) can0 00E#7F0D R
(1722447119.145268) can0 05C#7F0D7F0D R
(1722447119.145382) can0 016#02 R
(1722447119.159464) can0 00D#9B0D R
(1722447119.159600) can0 05B#9B0D R
(1722447119.159708) can0 014#00 R
(1722447119.159833) can0 008#00 R
(1722447119.159948) can0 055#00 R
(1722447119.160066) can0 05D#00 R
(1722447119.163696) can0 007#00 R
(1722447119.174869) can0 015#00 R
(1722447119.174971) can0 016#02 R
(1722447119.175096) can0 041#00 R
(1722447119.175225) can0 00E#0A0E R
(1722447119.175394) can0 05C#0A0E0A0E R
(1722447119.175518) can0 041#00 R
(1722447119.175632) can0 016#02 R
(1722447119.175754) can0 015#00 R
(1722447119.175868) can0 017#00 R
(1722447119.175989) can0 056#00 R
(1722447119.190924) can0 05C#560E560E R
(1722447119.191041) can0 056#00 R
(1722447119.206170) can0 00E#9D0E R
(1722447119.206300) can0 00E#9D0E R
(1722447119.206468) can0 05C#9D0E9D0E R
(1722447119.206579) can0 016#02 R
(1722447119.220001) can0 007#00 R
(1722447119.221609) can0 015#00 R
(1722447119.221743) can0 00D#BE0E R
(1722447119.221860) can0 016#02 R
(1722447119.222011) can0 05B#BE0E R
(1722447119.222113) can0 014#00 R
(1722447119.222229) can0 008#00 R
(1722447119.222349) can0 055#00 R
(1722447119.222466) can0 05D#00 R
(1722447119.236803) can0 041#00 R
(1722447119.236968) can0 05C#320F320F R
(1722447119.237104) can0 00E#320F R
(1722447119.237277) can0 05C#320F320F R
(1722447119.237395) can0 041#00 R
(1722447119.237512) can0 016#02 R
(1722447119.237632) can0 015#00 R
(1722447119.237748) can0 017#00 R
(1722447119.237868) can0 056#00 R
(1722447119.251996) can0 056#00 R
(1722447119.252128) can0 00E#7C0F R
(1722447119.252267) can0 00E#7C0F R
(1722447119.267879) can0 05C#CB0FCB0F R
(1722447119.267991) can0 016#02 R
(1722447119.269771) can0 007#00 R
(1722447119.282760) can0 00D#E80F R
(1722447119.282878) can0 015#00 R
(1722447119.283013) can0 05B#E80F R
(1722447119.283128) can0 014#00 R
(1722447119.283246) can0 008#00 R
(1722447119.283365) can0 055#00 R
(1722447119.283486) can0 05D#00 R
(1722447119.299392) can0 016#02 R
(1722447119.299513) can0 041#00 R
(1722447119.299684) can0 05C#65106510 R
(1722447119.299810) can0 00E#6510 R
(1722447119.299983) can0 05C#65106510 R
(1722447119.300096) can0 041#00 R
(1722447119.300219) can0 016#02 R
(1722447119.300333) can0 015#00 R
(1722447119.300454) can0 017#00 R
(1722447119.300569) can0 056#00 R
(1722447119.314230) can0 056#00 R
(1722447119.314427) can0 00E#B110 R
(1722447119.319468) can0 007#00 R
(1722447119.329587) can0 00E#0311 R
(1722447119.329748) can0 05C#03110311 R
(1722447119.329860) can0 016#02 R
(1722447119.344774) can0 00D#2211 R
(1722447119.344843) can0 05B#2211 R
(1722447119.344993) can0 014#00 R
(1722447119.345103) can0 008#00 R
(1722447119.345225) can0 055#00 R
(1722447119.345341) can0 05D#00 R
(1722447119.359909) can0 015#00 R
(1722447119.360078) can0 016#02 R
(1722447119.360198) can0 041#00 R
(1722447119.360365) can0 05C#9E119E11 R
(1722447119.360492) can0 00E#9E11 R
(1722447119.360657) can0 05C#9E119E11 R
(1722447119.360799) can0 041#00 R
(1722447119.360900) can0 016#02 R
(1722447119.361012) can0 015#00 R
(1722447119.361128) can0 017#00 R
(1722447119.361249) can0 056#00 R
(1722447119.370251) can0 007#00 R
(1722447119.374889) can0 056#00 R
(1722447119.375022) can0 00E#ED11 R
(1722447119.389600) can0 00E#3C12 R
(1722447119.389745) can0 05C#3C123C12 R
(1722447119.389861) can0 016#02 R
(1722447119.405491) can0 00D#6112 R
(1722447119.405617) can0 05B#6112 R
(1722447119.405736) can0 014#00 R
(1722447119.405857) can0 008#00 R
(1722447119.405974) can0 055#00 R
(1722447119.406090) can0 05D#00 R
(1722447119.420756) can0 007#00 R
(1722447119.420824) can0 015#00 R
(1722447119.421281) can0 016#02 R
(1722447119.421398) can0 041#00 R
(1722447119.421520) can0 056#00 R
(1722447119.421653) can0 00E#E112 R
(1722447119.421968) can0 05C#E712E712 R
(1722447119.422093) can0 041#00 R
(1722447119.422204) can0 016#02 R
(1722447119.422323) can0 015#00 R
(1722447119.422440) can0 017#00 R
(1722447119.423899) can0 056#00 R
(1722447119.435450) can0 05C#32133213 R
(1722447119.435580) can0 00E#3213 R
(1722447119.435716) can0 00E#3213 R
(1722447119.435879) can0 05C#32133213 R
(1722447119.451607) can0 016#03 R
(1722447119.466697) can0 015#00 R
(1722447119.466830) can0 00D#AA13 R
(1722447119.466938) can0 016#03 R
(1722447119.467070) can0 05B#AA13 R
(1722447119.467185) can0 014#00 R
(1722447119.467306) can0 008#00 R
(1722447119.467423) can0 055#00 R
(1722447119.467541) can0 05D#00 R
(1722447119.470232) can0 007#00 R
(1722447119.481244) can0 041#00 R
(1722447119.481403) can0 05C#29142914 R
(1722447119.481535) can0 00E#2914 R
(1722447119.481701) can0 05C#29142914 R
(1722447119.481818) can0 041#00 R
(1722447119.481934) can0 016#03 R
(1722447119.482056) can0 015#00 R
(1722447119.482170) can0 017#00 R
(1722447119.482290) can0 056#00 R
(1722447119.496975) can0 056#00 R
(1722447119.497104) can0 00E#8214 R
(1722447119.497228) can0 00E#8214 R
(1722447119.512388) can0 05C#D614D614 R
(1722447119.512503) can0 016#03 R
(1722447119.519833) can0 007#00 R
(1722447119.528260) can0 00D#FE14 R
(1722447119.528374) can0 015#00 R
(1722447119.528510) can0 05B#FE14 R
(1722447119.528623) can0 014#00 R
(1722447119.528758) can0 008#00 R
(1722447119.528860) can0 055#00 R
(1722447119.528984) can0 05D#00 R
(1722447119.543217) can0 016#03 R
(1722447119.543399) can0 041#00 R
(1722447119.543572) can0 05C#8C158C15 R
(1722447119.543693) can0 056#00 R
(1722447119.543828) can0 00E#8C15 R
(1722447119.543992) can0 05C#8C158C15 R
(1722447119.544113) can0 041#00 R
(1722447119.544232) can0 016#03 R
(1722447119.544350) can0 015#00 R
(1722447119.544470) can0 017#00 R
(1722447119.544585) can0 056#00 R
(1722447119.559062) can0 00E#E215 R
(1722447119.569891) can0 007#00 R
(1722447119.574424) can0 00E#3916 R
(1722447119.574593) can0 05C#39163916 R
(1722447119.574699) can0 016#03 R
(1722447119.590331) can0 00D#6716 R
(1722447119.590458) can0 05B#6716 R
(1722447119.590578) can0 014#00 R
(1722447119.590691) can0 008#00 R
(1722447119.590811) can0 055#00 R
(1722447119.590929) can0 05D#00 R
(1722447119.605158) can0 015#00 R
(1722447119.605285) can0 016#03 R
(1722447119.605402) can0 041#00 R
(1722447119.605569) can0 05C#EE16EE16 R
(1722447119.605697) can0 00E#EE16 R
(1722447119.605863) can0 05C#EE16EE16 R
(1722447119.605984) can0 041#00 R
(1722447119.606100) can0 016#03 R
(1722447119.606222) can0 015#00 R
(1722447119.606338) can0 017#00 R
(1722447119.606458) can0 056#00 R
(1722447119.619911) can0 007#00 R
(1722447119.620913) can0 056#00 R
(1722447119.621046) can0 00E#4C17 R
(1722447119.636900) can0 00E#AB17 R
(1722447119.637148) can0 05C#AB17AB17 R
(1722447119.637261) can0 016#03 R
(1722447119.651181) can0 00D#CF17 R
(1722447119.651309) can0 05B#CF17 R
(1722447119.651428) can0 014#00 R
(1722447119.651541) can0 008#00 R
(1722447119.651662) can0 055#00 R
(1722447119.651782) can0 05D#00 R
(1722447119.667398) can0 015#00 R
(1722447119.667512) can0 016#03 R
(1722447119.667633) can0 041#00 R
(1722447119.667768) can0 00E#5F18 R
(1722447119.667938) can0 05C#5F185F18 R
(1722447119.668056) can0 041#00 R
(1722447119.668178) can0 016#03 R
(1722447119.668293) can0 015#00 R
(1722447119.668409) can0 017#00 R
(1722447119.668529) can0 056#00 R
(1722447119.669334) can0 007#00 R
(1722447119.682735) can0 05C#C018C018 R
(1722447119.682852) can0 056#00 R
(1722447119.682989) can0 00E#C018 R
(1722447119.683129) can0 00E#C018 R
(1722447119.683295) can0 05C#C018C018 R
(1722447119.697315) can0 016#03 R
(1722447119.713302) can0 00D#4119 R
(1722447119.713404) can0 015#00 R
(1722447119.713520) can0 016#03 R
(1722447119.713652) can0 05B#4119 R
(1722447119.713767) can0 014#00 R
(1722447119.713884) can0 008#00 R
(1722447119.714005) can0 055#00 R
(1722447119.714124) can0 05D#00 R
(1722447119.719310) can0 007#00 R
(1722447119.728627) can0 041#00 R
(1722447119.728807) can0 05C#DB19DB19 R
(1722447119.728918) can0 00E#DB19 R
(1722447119.729078) can0 05C#DB19DB19 R
(1722447119.729211) can0 041#00 R
(1722447119.729320) can0 016#04 R
(1722447119.729441) can0 015#00 R
(1722447119.729556) can0 017#00 R
(1722447119.729677) can0 056#00 R
(1722447119.744214) can0 056#00 R
(1722447119.744347) can0 00E#381A R
(1722447119.744503) can0 00E#381A R
(1722447119.759060) can0 05C#961A961A R
(1722447119.759171) can0 016#04 R
(1722447119.770108) can0 007#00 R
(1722447119.774337) can0 015#00 R
(1722447119.774462) can0 00D#C21A R
(1722447119.774602) can0 05B#C21A R
(1722447119.774706) can0 014#00 R
(1722447119.774829) can0 008#00 R
(1722447119.774946) can0 055#00 R
(1722447119.775073) can0 05D#00 R
(1722447119.789545) can0 016#04 R
(1722447119.789662) can0 041#00 R
(1722447119.789834) can0 05C#5A1B5A1B R
(1722447119.789956) can0 00E#5A1B R
(1722447119.790129) can0 05C#5A1B5A1B R
(1722447119.790241) can0 041#00 R
(1722447119.790357) can0 016#04 R
(1722447119.790479) can0 015#00 R
(1722447119.790592) can0 017#00 R
(1722447119.790714) can0 056#00 R
(1722447119.804787) can0 056#00 R
(1722447119.804854) can0 00E#B31B R
(1722447119.820456) can0 007#00 R
(1722447119.820623) can0 00E#1A1C R
(1722447119.820817) can0 05C#1A1C1A1C R
(1722447119.820882) can0 016#04 R
(1722447119.835351) can0 00D#471C R
(1722447119.835482) can0 05B#471C R
(1722447119.835592) can0 014#00 R
(1722447119.835714) can0 008#00 R
(1722447119.835830) can0 055#00 R
(1722447119.835951) can0 05D#00 R
(1722447119.850681) can0 015#00 R
(1722447119.850797) can0 016#04 R
(1722447119.850918) can0 041#00 R
(1722447119.851097) can0 05C#DC1CDC1C R
(1722447119.851218) can0 00E#DC1C R
(1722447119.851383) can0 05C#DC1CDC1C R
(1722447119.851507) can0 041#00 R
(1722447119.851620) can0 016#04 R
(1722447119.851741) can0 015#00 R
(1722447119.851856) can0 017#00 R
(1722447119.851979) can0 056#00 R
(1722447119.866345) can0 056#00 R
(1722447119.866477) can0 00E#451D R
(1722447119.870515) can0 007#00 R
(1722447119.881895) can0 00E#AE1D R
(1722447119.882061) can0 05C#AE1DAE1D R
(1722447119.882168) can0 016#04 R
(1722447119.897095) can0 00D#D61D R
(1722447119.897218) can0 015#00 R
(1722447119.897328) can0 016#04 R
(1722447119.897452) can0 041#00 R
(1722447119.897581) can0 05B#D61D R
(1722447119.897701) can0 014#00 R
(1722447119.897814) can0 008#00 R
(1722447119.897937) can0 055#00 R
(1722447119.898052) can0 05D#00 R
(1722447119.912881) can0 05C#7B1E7B1E R
(1722447119.913013) can0 00E#7B1E R
(1722447119.913176) can0 05C#7B1E7B1E R
(1722447119.913299) can0 041#00 R
(1722447119.913411) can0 016#04 R
(1722447119.913532) can0 015#00 R
(1722447119.913647) can0 017#00 R
(1722447119.913768) can0 056#00 R
(1722447119.927966) can0 056#00 R
(1722447119.935271) can0 007#00 R
(1722447119.943864) can0 00E#4B1F R
(1722447119.943994) can0 00E#4B1F R
(1722447119.944161) can0 05C#4B1F4B1F R
(1722447119.959972) can0 00D#7B1F R
(1722447119.960087) can0 015#00 R
(1722447119.960206) can0 016#04 R
(1722447119.960320) can0 016#04 R
(1722447119.960454) can0 05B#7B1F R
(1722447119.960568) can0 014#00 R
(1722447119.960689) can0 008#00 R
(1722447119.960816) can0 055#00 R
(1722447119.960929) can0 05D#00 R
(1722447119.975168) can0 041#00 R
(1722447119.975343) can0 05C#1E201E20 R
(1722447119.975471) can0 00E#1E20 R
(1722447119.975643) can0 05C#1E201E20 R
(1722447119.975764) can0 041#00 R
(1722447119.975882) can0 016#05 R
(1722447119.976003) can0 015#00 R
(1722447119.976120) can0 017#00 R
(1722447119.976241) can0 056#00 R
(1722447119.984419) can0 007#00 R
(1722447119.990962) can0 056#00 R
(1722447119.991102) can0 00E#8B20 R
(1722447119.991229) can0 00E#8B20 R
(1722447120.005951) can0 05C#F220F220 R
(1722447120.006058) can0 016#05 R
(1722447120.021069) can0 015#00 R
(1722447120.021201) can0 00D#1C21 R
(1722447120.021331) can0 05B#1C21 R
(1722447120.021450) can0 014#00 R
(1722447120.021565) can0 008#00 R
(1722447120.021684) can0 055#00 R
(1722447120.021802) can0 05D#00 R
(1722447120.035382) can0 007#00 R
(1722447120.037628) can0 016#05 R
(1722447120.037745) can0 041#00 R
(1722447120.037916) can0 05C#C921C921 R
(1722447120.038047) can0 00E#C921 R
(1722447120.038211) can0 05C#C921C921 R
(1722447120.038336) can0 041#00 R
(1722447120.038453) can0 016#05 R
(1722447120.038573) can0 015#00 R
(1722447120.038690) can0 017#00 R
(1722447120.038812) can0 056#00 R
(1722447120.053423) can0 056#00 R
(1722447120.053553) can0 00E#3922 R
(1722447120.068894) can0 00E#A922 R
(1722447120.069059) can0 05C#A922A922 R
(1722447120.069173) can0 016#05 R
(1722447120.084531) can0 00D#DB22 R
(1722447120.084729) can0 05B#DB22 R
(1722447120.084822) can0 014#00 R
(1722447120.084971) can0 008#00 R
(1722447120.085084) can0 055#00 R
(1722447120.085205) can0 007#00 R
(1722447120.085317) can0 05D#00 R
(1722447120.100570) can0 015#00 R
(1722447120.100686) can0 016#05 R
(1722447120.100813) can0 041#00 R
(1722447120.100979) can0 05C#85238523 R
(1722447120.101090) can0 056#00 R
(1722447120.101226) can0 00E#8C23 R
(1722447120.101391) can0 05C#8C238C23 R
(1722447120.101511) can0 041#00 R
(1722447120.101629) can0 016#05 R
(1722447120.101749) can0 015#00 R
(1722447120.101865) can0 017#00 R
(1722447120.101984) can0 056#00 R
(1722447120.115125) can0 00E#F023 R
(1722447120.131200) can0 00E#6324 R
(1722447120.131367) can0 05C#63246324 R
(1722447120.131477) can0 016#05 R
(1722447120.135365) can0 007#00 R
(1722447120.146779) can0 00D#9524 R
(1722447120.146990) can0 05B#9524 R
(1722447120.147102) can0 014#00 R
(1722447120.147224) can0 008#00 R
(1722447120.147347) can0 055#00 R
(1722447120.147460) can0 05D#00 R
(1722447120.161137) can0 015#00 R
(1722447120.161252) can0 016#05 R
(1722447120.161375) can0 041#00 R
(1722447120.161505) can0 00E#3B25 R
(1722447120.161673) can0 05C#3B253B25 R
(1722447120.161792) can0 041#00 R
(1722447120.161909) can0 016#05 R
(1722447120.162029) can0 015#00 R
(1722447120.162145) can0 017#00 R
(1722447120.162266) can0 056#00 R
(1722447120.176490) can0 05C#B025B025 R
(1722447120.176607) can0 056#00 R
(1722447120.185214) can0 007#00 R
(1722447120.191658) can0 00E#1626 R
(1722447120.191787) can0 00E#1626 R
(1722447120.191954) can0 05C#16261626 R
(1722447120.206811) can0 00D#4926 R
(1722447120.206923) can0 016#06 R
(1722447120.207054) can0 05B#4926 R
(1722447120.207171) can0 014#00 R
(1722447120.207290) can0 008#00 R
(1722447120.207409) can0 055#00 R
(1722447120.207527) can0 05D#00 R
(1722447120.222710) can0 015#00 R
(1722447120.222818) can0 016#06 R
(1722447120.222957) can0 00E#0227 R
(1722447120.223122) can0 05C#02270227 R
(1722447120.223239) can0 041#00 R
(1722447120.223357) can0 016#06 R
(1722447120.223477) can0 015#00 R
(1722447120.223593) can0 017#00 R
(1722447120.223718) can0 056#00 R
(1722447120.234546) can0 007#00 R
(1722447120.237658) can0 041#00 R
(1722447120.237805) can0 05C#71277127 R
(1722447120.237924) can0 056#00 R
(1722447120.238074) can0 00E#7127 R
(1722447120.238191) can0 00E#7127 R
(1722447120.253495) can0 05C#E827E827 R
(1722447120.253607) can0 016#06 R
(1722447120.268719) can0 00D#1528 R
(1722447120.268862) can0 05B#1528 R
(1722447120.268968) can0 014#00 R
(1722447120.269082) can0 008#00 R
(1722447120.269204) can0 055#00 R
(1722447120.269319) can0 05D#00 R
(1722447120.283998) can0 015#00 R
(1722447120.284128) can0 00E#C928 R
(1722447120.284293) can0 05C#C928C928 R
(1722447120.284411) can0 041#00 R
(1722447120.284527) can0 016#06 R
(1722447120.284647) can0 015#00 R
(1722447120.284783) can0 007#00 R
(1722447120.284884) can0 017#00 R
(1722447120.285000) can0 056#00 R
(1722447120.300112) can0 016#06 R
(1722447120.300230) can0 041#00 R
(1722447120.300402) can0 05C#42294229 R
(1722447120.300513) can0 056#00 R
(1722447120.300645) can0 00E#4229 R
(1722447120.316212) can0 00E#BB29 R
(1722447120.316385) can0 05C#BB29BB29 R
(1722447120.316500) can0 016#06 R
(1722447120.332149) can0 00D#F129 R
(1722447120.332277) can0 05B#F129 R
(1722447120.332391) can0 014#00 R
(1722447120.332510) can0 008#00 R
(1722447120.332629) can0 055#00 R
(1722447120.332758) can0 05D#00 R
(1722447120.334681) can0 007#00 R
(1722447120.347416) can0 00E#B02A R
(1722447120.347586) can0 05C#B02AB02A R
(1722447120.347703) can0 041#00 R
(1722447120.347822) can0 016#06 R
(1722447120.347940) can0 015#00 R
(1722447120.348056) can0 017#00 R
(1722447120.348176) can0 056#00 R
(1722447120.362643) can0 015#00 R
(1722447120.362756) can0 016#06 R
(1722447120.362877) can0 041#00 R
(1722447120.363044) can0 05C#232B232B R
(1722447120.363161) can0 056#00 R
(1722447120.363294) can0 00E#232B R
(1722447120.378006) can0 00E#972B R
(1722447120.378164) can0 05C#972B972B R
(1722447120.378282) can0 016#06 R
(1722447120.384331) can0 007#00 R
(1722447120.392712) can0 00D#C62B R
(1722447120.392848) can0 05B#C62B R
(1722447120.392962) can0 014#00 R
(1722447120.393072) can0 008#00 R
(1722447120.393195) can0 055#00 R
(1722447120.393312) can0 05D#00 R
(1722447120.408455) can0 056#00 R
(1722447120.408582) can0 00E#882C R
(1722447120.408757) can0 05C#882C882C R
(1722447120.408871) can0 041#00 R
(1722447120.408985) can0 016#06 R
(1722447120.409106) can0 015#00 R
(1722447120.409221) can0 017#00 R
(1722447120.409344) can0 056#00 R
(1722447120.424472) can0 015#00 R
(1722447120.424584) can0 016#07 R
(1722447120.424713) can0 041#00 R
(1722447120.436814) can0 007#00 R
(1722447120.439815) can0 05C#7B2D7B2D R
(1722447120.439951) can0 00E#7B2D R
(1722447120.440076) can0 00E#7B2D R
(1722447120.440240) can0 05C#7B2D7B2D R
(1722447120.456073) can0 00D#B22D R
(1722447120.456166) can0 016#07 R
(1722447120.456314) can0 05B#B22D R
(1722447120.456425) can0 014#00 R
(1722447120.456544) can0 008#00 R
(1722447120.456663) can0 055#00 R
(1722447120.456807) can0 05D#00 R
(1722447120.471847) can0 00E#682E R
(1722447120.472014) can0 05C#682E682E R
(1722447120.472133) can0 041#00 R
(1722447120.472251) can0 016#07 R
(1722447120.472370) can0 015#00 R
(1722447120.472490) can0 017#00 R
(1722447120.472610) can0 056#00 R
(1722447120.485762) can0 056#00 R
(1722447120.485887) can0 00E#E72E R
(1722447120.486015) can0 00E#E72E R
(1722447120.487359) can0 007#00 R
(1722447120.500661) can0 015#00 R
(1722447120.500906) can0 05C#5F2F5F2F R
(1722447120.501020) can0 016#07 R
(1722447120.515747) can0 016#07 R
(1722447120.515865) can0 041#00 R
(1722447120.515997) can0 00D#8F2F R
(1722447120.516126) can0 05B#8F2F R
(1722447120.516242) can0 014#00 R
(1722447120.516407) can0 05C#D72FD72F R
(1722447120.516523) can0 008#00 R
(1722447120.516644) can0 055#00 R
(1722447120.516784) can0 05D#00 R
(1722447120.531073) can0 056#00 R
(1722447120.531219) can0 00E#5030 R
(1722447120.531379) can0 05C#50305030 R
(1722447120.531500) can0 041#00 R
(1722447120.531617) can0 016#07 R
(1722447120.531737) can0 015#00 R
(1722447120.531853) can0 017#00 R
(1722447120.531973) can0 056#00 R
(1722447120.546909) can0 00E#D130 R
(1722447120.547634) can0 007#00 R
(1722447120.561980) can0 00E#4A31 R
(1722447120.562145) can0 05C#4A314A31 R
(1722447120.562256) can0 016#07 R
(1722447120.578084) can0 00D#8331 R
(1722447120.578200) can0 015#00 R
(1722447120.578317) can0 016#07 R
(1722447120.578439) can0 041#00 R
(1722447120.578572) can0 05B#8331 R
(1722447120.578686) can0 014#00 R
(1722447120.578805) can0 008#00 R
(1722447120.578926) can0 055#00 R
(1722447120.579045) can0 05D#00 R
(1722447120.593308) can0 05C#47324732 R
(1722447120.593441) can0 00E#4732 R
(1722447120.593602) can0 05C#47324732 R
(1722447120.593721) can0 041#00 R
(1722447120.593840) can0 016#07 R
(1722447120.593964) can0 015#00 R
(1722447120.594099) can0 017#00 R
(1722447120.594195) can0 056#00 R
(1722447120.596600) can0 007#00 R
(1722447120.608910) can0 056#00 R
(1722447120.609038) can0 00E#CA32 R
(1722447120.624313) can0 00E#4E33 R
(1722447120.624530) can0 05C#4E334E33 R
(1722447120.624641) can0 016#08 R
(1722447120.639411) can0 015#00 R
(1722447120.639542) can0 00D#7F33 R
(1722447120.639656) can0 016#08 R
(1722447120.639788) can0 05B#7F33 R
(1722447120.639904) can0 014#00 R
(1722447120.640021) can0 008#00 R
(1722447120.640143) can0 055#00 R
(1722447120.640259) can0 05D#00 R
(1722447120.647576) can0 007#00 R
(1722447120.654733) can0 041#00 R
(1722447120.654949) can0 05C#46344634 R
(1722447120.655078) can0 00E#4634 R
(1722447120.655243) can0 05C#46344634 R
(1722447120.655363) can0 041#00 R
(1722447120.655478) can0 016#08 R
(1722447120.655597) can0 015#00 R
(1722447120.655715) can0 017#00 R
(1722447120.655834) can0 056#00 R
(1722447120.669361) can0 056#00 R
(1722447120.684876) can0 00E#4035 R
(1722447120.685005) can0 00E#4035 R
(1722447120.685174) can0 05C#40354035 R
(1722447120.698575) can0 007#00 R
(1722447120.700885) can0 00D#7A35 R
(1722447120.701003) can0 015#00 R
(1722447120.701117) can0 016#08 R
(1722447120.701250) can0 05B#7A35 R
(1722447120.701364) can0 014#00 R
(1722447120.701482) can0 008#00 R
(1722447120.701603) can0 055#00 R
(1722447120.701721) can0 05D#00 R
(1722447120.715630) can0 016#08 R
(1722447120.715748) can0 041#00 R
(1722447120.715917) can0 05C#44364436 R
(1722447120.716045) can0 00E#4436 R
(1722447120.716211) can0 05C#44364436 R
(1722447120.716336) can0 041#00 R
(1722447120.716444) can0 016#08 R
(1722447120.716570) can0 015#00 R
(1722447120.716680) can0 017#00 R
(1722447120.716814) can0 056#00 R
(1722447120.731390) can0 056#00 R
(1722447120.731516) can0 00E#C236 R
(1722447120.731645) can0 00E#C236 R
(1722447120.746795) can0 05C#49374937 R
(1722447120.747067) can0 016#08 R
(1722447120.748943) can0 007#00 R
(1722447120.762062) can0 00D#7C37 R
(1722447120.762362) can0 05B#7C37 R
(1722447120.762479) can0 014#00 R
(1722447120.762596) can0 008#00 R
(1722447120.762717) can0 055#00 R
(1722447120.762837) can0 05D#00 R
(1722447120.776529) can0 015#00 R
(1722447120.776641) can0 016#08 R
(1722447120.776778) can0 041#00 R
(1722447120.776940) can0 05C#48384838 R
(1722447120.777067) can0 00E#4838 R
(1722447120.777236) can0 05C#48384838 R
(1722447120.777355) can0 041#00 R
(1722447120.777469) can0 016#08 R
(1722447120.777590) can0 015#00 R
(1722447120.777707) can0 017#00 R
(1722447120.777833) can0 056#00 R
(1722447120.792643) can0 056#00 R
(1722447120.792796) can0 00E#C838 R
(1722447120.798617) can0 007#00 R
(1722447120.807822) can0 00E#5239 R
(1722447120.807997) can0 05C#51395139 R
(1722447120.808109) can0 016#08 R
(1722447120.823306) can0 00D#8E39 R
(1722447120.823437) can0 05B#8E39 R
(1722447120.823549) can0 014#00 R
(1722447120.823668) can0 008#00 R
(1722447120.823788) can0 055#00 R
(1722447120.823909) can0 05D#00 R
(1722447120.838525) can0 015#00 R
(1722447120.838662) can0 016#09 R
(1722447120.838781) can0 041#00 R
(1722447120.838901) can0 056#00 R
(1722447120.839033) can0 00E#5C3A R
(1722447120.839200) can0 05C#5C3A5C3A R
(1722447120.839314) can0 041#00 R
(1722447120.839436) can0 016#09 R
(1722447120.839551) can0 015#00 R
(1722447120.839667) can0 017#00 R
(1722447120.839787) can0 056#00 R
(1722447120.849201) can0 007#00 R
(1722447120.854264) can0 05C#DE3ADE3A R
(1722447120.854393) can0 00E#DE3A R
(1722447120.869843) can0 00E#693B R
(1722447120.870002) can0 05C#693B693B R
(1722447120.870115) can0 016#09 R
(1722447120.886200) can0 00D#AF3B R
(1722447120.886337) can0 05B#AF3B R
(1722447120.886446) can0 014#00 R
(1722447120.886569) can0 008#00 R
(1722447120.886684) can0 055#00 R
(1722447120.886808) can0 05D#00 R
(1722447120.898273) can0 007#00 R
(1722447120.901537) can0 015#00 R
(1722447120.901656) can0 016#09 R
(1722447120.901786) can0 00E#803C R
(1722447120.901960) can0 05C#803C803C R
(1722447120.902098) can0 041#00 R
(1722447120.902196) can0 016#09 R
(1722447120.902313) can0 015#00 R
(1722447120.902426) can0 017#00 R
(1722447120.902553) can0 056#00 R
(1722447120.916558) can0 041#00 R
(1722447120.916721) can0 05C#033D033D R
(1722447120.916816) can0 056#00 R
(1722447120.931844) can0 00E#873D R
(1722447120.931969) can0 00E#873D R
(1722447120.932133) can0 05C#873D873D R
(1722447120.946942) can0 00D#BC3D R
(1722447120.947053) can0 016#09 R
(1722447120.947189) can0 05B#BC3D R
(1722447120.947302) can0 014#00 R
(1722447120.947423) can0 008#00 R
(1722447120.947542) can0 055#00 R
(1722447120.947661) can0 05D#00 R
(1722447120.948840) can0 007#00 R
(1722447120.961906) can0 015#00 R
(1722447120.962051) can0 00E#903E R
(1722447120.962226) can0 05C#903E903E R
(1722447120.962344) can0 041#00 R
(1722447120.962461) can0 016#09 R
(1722447120.962580) can0 015#00 R
(1722447120.962697) can0 017#00 R
(1722447120.962816) can0 056#00 R
(1722447120.977762) can0 016#09 R
(1722447120.977881) can0 041#00 R
(1722447120.978054) can0 05C#1E3F1E3F R
(1722447120.978171) can0 056#00 R
(1722447120.978308) can0 00E#1E3F R
(1722447120.978449) can0 00E#1E3F R
(1722447120.993198) can0 05C#A33FA33F R
(1722447120.993311) can0 016#09 R
(1722447120.998525) can0 007#00 R
(1722447121.008870) can0 00D#E13F R
(1722447121.008966) can0 05B#E13F R
(1722447121.009090) can0 014#00 R
(1722447121.009207) can0 008#00 R
(1722447121.009327) can0 055#00 R
(1722447121.009442) can0 05D#00 R
(1722447121.024305) can0 00E#B840 R
(1722447121.024397) can0 05C#B840B840 R
(1722447121.024548) can0 041#00 R
(1722447121.024655) can0 016#0A R
(1722447121.024810) can0 015#00 R
(1722447121.024866) can0 017#00 R
(1722447121.025021) can0 056#00 R
(1722447121.039869) can0 015#00 R
(1722447121.039978) can0 016#0A R
(1722447121.040101) can0 041#00 R
(1722447121.040272) can0 05C#47414741 R
(1722447121.040388) can0 056#00 R
(1722447121.040531) can0 00E#4741 R
(1722447121.053964) can0 007#00 R
(1722447121.054247) can0 00E#CE41 R
(1722447121.054414) can0 05C#CE41CE41 R
(1722447121.054530) can0 016#0A R
(1722447121.070552) can0 00D#0D42 R
(1722447121.070667) can0 05B#0D42 R
(1722447121.070784) can0 014#00 R
(1722447121.070900) can0 008#00 R
(1722447121.071022) can0 055#00 R
(1722447121.071138) can0 05D#00 R
(1722447121.085566) can0 00E#E542 R
(1722447121.085732) can0 05C#E542E542 R
(1722447121.085856) can0 041#00 R
(1722447121.085966) can0 016#0A R
(1722447121.086096) can0 015#00 R
(1722447121.086202) can0 017#00 R
(1722447121.086342) can0 056#00 R
(1722447121.101085) can0 015#00 R
(1722447121.101200) can0 016#0A R
(1722447121.101320) can0 041#00 R
(1722447121.101445) can0 056#00 R
(1722447121.101571) can0 00E#6D43 R
(1722447121.102991) can0 007#00 R
(1722447121.117234) can0 05C#FF43FF43 R
(1722447121.117367) can0 00E#FF43 R
(1722447121.117535) can0 05C#FF43FF43 R
(1722447121.117648) can0 016#0A R
(1722447121.132681) can0 00D#3E44 R
(1722447121.132815) can0 05B#3E44 R
(1722447121.132929) can0 014#00 R
(1722447121.133046) can0 008#00 R
(1722447121.133171) can0 055#00 R
(1722447121.133286) can0 05D#00 R
(1722447121.148398) can0 056#00 R
(1722447121.148534) can0 00E#2245 R
(1722447121.148693) can0 05C#22452245 R
(1722447121.148812) can0 041#00 R
(1722447121.148928) can0 016#0A R
(1722447121.149057) can0 015#00 R
(1722447121.149163) can0 017#00 R
(1722447121.149292) can0 056#00 R
(1722447121.152303) can0 007#00 R
(1722447121.180321) can0 015#00 R
(1722447121.180520) can0 00E#3E46 R
(1722447121.180650) can0 00E#3E46 R
(1722447121.180824) can0 05C#3E463E46 R
(1722447121.196455) can0 016#0B R
(1722447121.196581) can0 00D#8846 R
(1722447121.196708) can0 041#00 R
(1722447121.196832) can0 05B#8846 R
(1722447121.196952) can0 014#00 R
(1722447121.197073) can0 008#00 R
(1722447121.197188) can0 055#00 R
(1722447121.197360) can0 05C#DB46DB46 R
(1722447121.197464) can0 016#0B R
(1722447121.197582) can0 05D#00 R
(1722447121.207160) can0 007#00 R
(1722447121.212010) can0 00E#6547 R
(1722447121.212181) can0 05C#65476547 R
(1722447121.212294) can0 041#00 R
(1722447121.212409) can0 016#0B R
(1722447121.212529) can0 015#00 R
(1722447121.212645) can0 017#00 R
(1722447121.212783) can0 056#00 R
(1722447121.228053) can0 056#00 R
(1722447121.228186) can0 00E#F947 R
(1722447121.228318) can0 00E#F947 R
(1722447121.243488) can0 05C#8D488D48 R
(1722447121.243600) can0 016#0B R
(1722447121.256238) can0 007#00 R
(1722447121.258451) can0 00D#C548 R
(1722447121.258566) can0 015#00 R
(1722447121.258683) can0 016#0B R
(1722447121.258804) can0 041#00 R
(1722447121.258935) can0 05B#C548 R
(1722447121.259050) can0 014#00 R
(1722447121.259169) can0 008#00 R
(1722447121.259288) can0 055#00 R
(1722447121.259407) can0 05D#00 R
(1722447121.273424) can0 05C#A449A449 R
(1722447121.273607) can0 056#00 R
(1722447121.273738) can0 00E#A449 R
(1722447121.273902) can0 05C#A449A449 R
(1722447121.274021) can0 041#00 R
(1722447121.274136) can0 016#0B R
(1722447121.274256) can0 015#00 R
(1722447121.274372) can0 017#00 R
(1722447121.274491) can0 056#00 R
(1722447121.289034) can0 00E#304A R
(1722447121.305028) can0 00E#C64A R
(1722447121.305185) can0 05C#C64AC64A R
(1722447121.305300) can0 016#0B R
(1722447121.307009) can0 007#00 R
(1722447121.319697) can0 015#00 R
(1722447121.319822) can0 00D#FE4A R
(1722447121.319940) can0 016#0B R
(1722447121.320068) can0 05B#FE4A R
(1722447121.320188) can0 014#00 R
(1722447121.320301) can0 008#00 R
(1722447121.320428) can0 055#00 R
(1722447121.320539) can0 05D#00 R
(1722447121.335006) can0 041#00 R
(1722447121.335174) can0 05C#DF4BDF4B R
(1722447121.335298) can0 00E#DF4B R
(1722447121.335465) can0 05C#DF4BDF4B R
(1722447121.335587) can0 041#00 R
(1722447121.335697) can0 016#0B R
(1722447121.335819) can0 015#00 R
(1722447121.335934) can0 017#00 R
(1722447121.336055) can0 056#00 R
(1722447121.351615) can0 056#00 R
(1722447121.351746) can0 00E#764C R
(1722447121.356584) can0 007#00 R
(1722447121.367142) can0 00E#0D4D R
(1722447121.367311) can0 05C#0D4D0D4D R
(1722447121.367416) can0 016#0C R
(1722447121.381812) can0 015#00 R
(1722447121.381922) can0 00D#464D R
(1722447121.382058) can0 05B#464D R
(1722447121.382178) can0 014#00 R
(1722447121.382290) can0 008#00 R
(1722447121.382411) can0 055#00 R
(1722447121.382529) can0 05D#00 R
(1722447121.399902) can0 016#0C R
(1722447121.400025) can0 041#00 R
(1722447121.400188) can0 05C#454E454E R
(1722447121.400321) can0 00E#454E R
(1722447121.400481) can0 05C#454E454E R
(1722447121.400599) can0 041#00 R
(1722447121.400714) can0 016#0C R
(1722447121.400821) can0 015#00 R
(1722447121.400955) can0 017#00 R
(1722447121.401075) can0 056#00 R
(1722447121.407114) can0 007#00 R
(1722447121.413364) can0 056#00 R
(1722447121.428247) can0 00E#594F R
(1722447121.428431) can0 00E#594F R
(1722447121.428593) can0 05C#594F594F R
(1722447121.428706) can0 016#0C R
(1722447121.443384) can0 015#00 R
(1722447121.443514) can0 00D#924F R
(1722447121.443627) can0 016#0C R
(1722447121.443750) can0 041#00 R
(1722447121.443882) can0 05B#924F R
(1722447121.443997) can0 014#00 R
(1722447121.444116) can0 008#00 R
(1722447121.444235) can0 055#00 R
(1722447121.444402) can0 05C#DE4FDE4F R
(1722447121.444517) can0 05D#00 R
(1722447121.456831) can0 007#00 R
(1722447121.459024) can0 00E#7750 R
(1722447121.459189) can0 05C#77507750 R
(1722447121.459312) can0 041#00 R
(1722447121.459420) can0 016#0C R
(1722447121.459547) can0 015#00 R
(1722447121.459656) can0 017#00 R
(1722447121.459778) can0 056#00 R
(1722447121.473946) can0 056#00 R
(1722447121.474078) can0 00E#0651 R
(1722447121.474213) can0 00E#0651 R
(1722447121.490276) can0 05C#A051A051 R
(1722447121.490378) can0 016#0C R
(1722447121.505569) can0 00D#E351 R
(1722447121.505683) can0 015#00 R
(1722447121.505819) can0 05B#E351 R
(1722447121.505927) can0 014#00 R
(1722447121.506051) can0 008#00 R
(1722447121.506161) can0 016#0C R
(1722447121.506283) can0 041#00 R
(1722447121.506404) can0 055#00 R
(1722447121.506523) can0 05D#00 R
(1722447121.507329) can0 007#00 R
(1722447121.520431) can0 05C#CA52CA52 R
(1722447121.520535) can0 00E#CA52 R
(1722447121.520677) can0 05C#CA52CA52 R
(1722447121.520849) can0 041#00 R
(1722447121.520896) can0 016#0C R
(1722447121.521025) can0 015#00 R
(1722447121.521134) can0 017#00 R
(1722447121.521256) can0 056#00 R
(1722447121.535757) can0 056#00 R
(1722447121.535882) can0 00E#5A53 R
(1722447121.550737) can0 00E#EB53 R
(1722447121.550907) can0 05C#EB53EB53 R
(1722447121.551017) can0 016#0D R
(1722447121.556716) can0 007#00 R
(1722447121.565946) can0 00D#2F54 R
(1722447121.566085) can0 015#00 R
(1722447121.566189) can0 05B#2F54 R
(1722447121.566310) can0 014#00 R
(1722447121.566422) can0 008#00 R
(1722447121.566536) can0 016#0D R
(1722447121.566656) can0 055#00 R
(1722447121.566774) can0 05D#00 R
(1722447121.582072) can0 041#00 R
(1722447121.582257) can0 05C#17551755 R
(1722447121.582395) can0 00E#1755 R
(1722447121.582557) can0 05C#17551755 R
(1722447121.582682) can0 041#00 R
(1722447121.582791) can0 016#0D R
(1722447121.582911) can0 015#00 R
(1722447121.583028) can0 017#00 R
(1722447121.583148) can0 056#00 R
(1722447121.597604) can0 056#00 R
(1722447121.597731) can0 00E#B355 R
(1722447121.606751) can0 007#00 R
(1722447121.613437) can0 00E#4E56 R
(1722447121.613592) can0 05C#4E564E56 R
(1722447121.613704) can0 016#0D R
(1722447121.628880) can0 00D#8956 R
(1722447121.628999) can0 015#00 R
(1722447121.629129) can0 05B#8956 R
(1722447121.629245) can0 014#00 R
(1722447121.629362) can0 008#00 R
(1722447121.629483) can0 055#00 R
(1722447121.629600) can0 05D#00 R
(1722447121.643781) can0 016#0D R
(1722447121.643896) can0 041#00 R
(1722447121.644070) can0 05C#73577357 R
(1722447121.644191) can0 00E#7357 R
(1722447121.644357) can0 05C#73577357 R
(1722447121.644476) can0 041#00 R
(1722447121.644591) can0 016#0D R
(1722447121.644711) can0 015#00 R
(1722447121.644834) can0 017#00 R
(1722447121.644948) can0 056#00 R
(1722447121.657345) can0 007#00 R
(1722447121.658207) can0 056#00 R
(1722447121.673684) can0 00E#9858 R
(1722447121.673818) can0 00E#9858 R
(1722447121.673980) can0 05C#98589858 R
(1722447121.688700) can0 016#0D R
(1722447121.688831) can0 00D#D358 R
(1722447121.688963) can0 05B#D358 R
(1722447121.689080) can0 014#00 R
(1722447121.689198) can0 008#00 R
(1722447121.689319) can0 055#00 R
(1722447121.689435) can0 05D#00 R
(1722447121.703704) can0 015#00 R
(1722447121.703986) can0 016#0E R
(1722447121.704104) can0 041#00 R
(1722447121.704276) can0 05C#BE59BE59 R
(1722447121.704392) can0 056#00 R
(1722447121.704526) can0 00E#BE59 R
(1722447121.704695) can0 05C#BE59BE59 R
(1722447121.704828) can0 041#00 R
(1722447121.704929) can0 016#0E R
(1722447121.705057) can0 015#00 R
(1722447121.705167) can0 017#00 R
(1722447121.705293) can0 056#00 R
(1722447121.707509) can0 007#00 R
(1722447121.719358) can0 00E#525A R
(1722447121.719486) can0 00E#525A R
(1722447121.734915) can0 05C#E65AE65A R
(1722447121.735030) can0 016#0E R
(1722447121.749720) can0 00D#2B5B R
(1722447121.749847) can0 05B#2B5B R
(1722447121.749962) can0 014#00 R
(1722447121.750081) can0 008#00 R
(1722447121.750201) can0 055#00 R
(1722447121.750321) can0 05D#00 R
(1722447121.758293) can0 007#00 R
(1722447121.766146) can0 015#00 R
(1722447121.766256) can0 016#0E R
(1722447121.766381) can0 041#00 R
(1722447121.766511) can0 00E#175C R
(1722447121.766684) can0 05C#175C175C R
(1722447121.766798) can0 041#00 R
(1722447121.766921) can0 016#0E R
(1722447121.767034) can0 015#00 R
(1722447121.767150) can0 017#00 R
(1722447121.767272) can0 056#00 R
(1722447121.780669) can0 05C#AC5CAC5C R
(1722447121.780809) can0 056#00 R
(1722447121.780918) can0 00E#AC5C R
(1722447121.796023) can0 00E#4A5D R
(1722447121.796194) can0 05C#4A5D4A5D R
(1722447121.796299) can0 016#0E R
(1722447121.808468) can0 007#00 R
(1722447121.811741) can0 00D#905D R
(1722447121.811875) can0 05B#905D R
(1722447121.811990) can0 014#00 R
(1722447121.812108) can0 008#00 R
(1722447121.812228) can0 055#00 R
(1722447121.812346) can0 05D#00 R
(1722447121.826870) can0 015#00 R
(1722447121.826981) can0 016#0E R
(1722447121.827114) can0 00E#7E5E R
(1722447121.827290) can0 05C#7E5E7E5E R
(1722447121.827406) can0 041#00 R
(1722447121.827519) can0 016#0E R
(1722447121.827641) can0 015#00 R
(1722447121.827754) can0 017#00 R
(1722447121.827883) can0 056#00 R
(1722447121.841907) can0 041#00 R
(1722447121.842079) can0 05C#135F135F R
(1722447121.842194) can0 056#00 R
(1722447121.842324) can0 00E#135F R
(1722447121.857451) can0 00E#B25F R
(1722447121.857617) can0 05C#B25FB25F R
(1722447121.857729) can0 016#0E R
(1722447121.868986) can0 007#00 R
(1722447121.872407) can0 00D#EE5F R
(1722447121.872538) can0 05B#EE5F R
(1722447121.872654) can0 014#00 R
(1722447121.872796) can0 008#00 R
(1722447121.872893) can0 055#00 R
(1722447121.873009) can0 05D#00 R
(1722447121.887832) can0 015#00 R
(1722447121.887961) can0 00E#DD60 R
(1722447121.888130) can0 05C#DD60DD60 R
(1722447121.888249) can0 041#00 R
(1722447121.888366) can0 016#0F R
(1722447121.888486) can0 015#00 R
(1722447121.888602) can0 017#00 R
(1722447121.888722) can0 056#00 R
(1722447121.903612) can0 016#0F R
(1722447121.903730) can0 041#00 R
(1722447121.903904) can0 05C#7D617D61 R
(1722447121.904018) can0 056#00 R
(1722447121.919068) can0 00E#1362 R
(1722447121.919185) can0 007#00 R
(1722447121.919312) can0 00E#1362 R
(1722447121.919481) can0 05C#13621362 R
(1722447121.934891) can0 00D#5962 R
(1722447121.934999) can0 016#0F R
(1722447121.935139) can0 05B#5962 R
(1722447121.935247) can0 014#00 R
(1722447121.935366) can0 008#00 R
(1722447121.935486) can0 055#00 R
(1722447121.935605) can0 05D#00 R
(1722447121.950481) can0 00E#4A63 R
(1722447121.950650) can0 05C#4A634A63 R
(1722447121.950766) can0 041#00 R
(1722447121.950881) can0 016#0F R
(1722447121.951001) can0 015#00 R
(1722447121.951116) can0 017#00 R
(1722447121.951237) can0 056#00 R
(1722447121.966041) can0 015#00 R
(1722447121.966153) can0 016#0F R
(1722447121.966278) can0 041#00 R
(1722447121.966439) can0 05C#EA63EA63 R
(1722447121.966561) can0 056#00 R
(1722447121.966690) can0 00E#EB63 R
(1722447121.966826) can0 00E#EB63 R
(1722447121.969447) can0 007#00 R
(1722447121.981055) can0 05C#81648164 R
(1722447121.981169) can0 016#0F R
(1722447121.997255) can0 00D#C864 R
(1722447121.997467) can0 05B#C864 R
(1722447121.997578) can0 014#00 R
(1722447121.997698) can0 008#00 R
(1722447121.997819) can0 055#00 R
(1722447121.997961) can0 05D#00 R
(1722447122.012493) can0 056#00 R
(1722447122.012616) can0 00E#B965 R
(1722447122.012805) can0 05C#B965B965 R
(1722447122.012871) can0 041#00 R
(1722447122.013019) can0 016#0F R
(1722447122.013131) can0 015#00 R
(1722447122.013248) can0 017#00 R
(1722447122.013369) can0 056#00 R
(1722447122.019552) can0 007#00 R
(1722447122.028222) can0 015#00 R
(1722447122.028334) can0 016#0F R
(1722447122.028457) can0 041#00 R
(1722447122.028587) can0 00E#5B66 R
(1722447122.042745) can0 05C#F266F266 R
(1722447122.042869) can0 00E#F266 R
(1722447122.043038) can0 05C#F266F266 R
(1722447122.043147) can0 016#10 R
(1722447122.057838) can0 00D#2E67 R
(1722447122.057964) can0 05B#2E67 R
(1722447122.058404) can0 014#00 R
(1722447122.058520) can0 008#00 R
(1722447122.058640) can0 055#00 R
(1722447122.058764) can0 05D#00 R
(1722447122.069537) can0 007#00 R
(1722447122.073864) can0 00E#2B68 R
(1722447122.074032) can0 05C#2B682B68 R
(1722447122.074149) can0 041#00 R
(1722447122.074262) can0 016#10 R
(1722447122.074383) can0 015#00 R
(1722447122.074498) can0 017#00 R
(1722447122.074623) can0 056#00 R
(1722447122.088798) can0 056#00 R
(1722447122.088904) can0 00E#C368 R
(1722447122.104541) can0 015#00 R
(1722447122.104729) can0 00E#6569 R
(1722447122.104891) can0 05C#65696569 R
(1722447122.105002) can0 016#10 R
(1722447122.119953) can0 007#00 R
(1722447122.120084) can0 00D#A269 R
(1722447122.120193) can0 016#10 R
(1722447122.120318) can0 041#00 R
(1722447122.120447) can0 05B#A269 R
(1722447122.120563) can0 014#00 R
(1722447122.120686) can0 008#00 R
(1722447122.120849) can0 05C#FD69FD69 R
(1722447122.120966) can0 055#00 R
(1722447122.121085) can0 05D#00 R
(1722447122.134783) can0 00E#956A R
(1722447122.134943) can0 05C#956A956A R
(1722447122.135067) can0 041#00 R
(1722447122.135177) can0 016#10 R
(1722447122.135299) can0 015#00 R
(1722447122.135413) can0 017#00 R
(1722447122.135535) can0 056#00 R
(1722447122.150622) can0 056#00 R
(1722447122.166424) can0 00E#D06B R
(1722447122.166549) can0 00E#D06B R
(1722447122.166718) can0 05C#D06BD06B R
(1722447122.170150) can0 007#00 R
(1722447122.182341) can0 015#00 R
(1722447122.182471) can0 00D#216C R
(1722447122.182583) can0 016#10 R
(1722447122.182706) can0 041#00 R
(1722447122.182837) can0 05B#216C R
(1722447122.182951) can0 014#00 R
(1722447122.183070) can0 008#00 R
(1722447122.183190) can0 055#00 R
(1722447122.183359) can0 05C#7D6C7D6C R
(1722447122.183471) can0 016#10 R
(1722447122.183589) can0 05D#00 R
(1722447122.197216) can0 00E#0B6D R
(1722447122.197445) can0 05C#0B6D0B6D R
(1722447122.197565) can0 041#00 R
(1722447122.197679) can0 016#11 R
(1722447122.197802) can0 015#00 R
(1722447122.197913) can0 017#00 R
(1722447122.198033) can0 056#00 R
(1722447122.212687) can0 056#00 R
(1722447122.212824) can0 00E#AE6D R
(1722447122.212954) can0 00E#AE6D R
(1722447122.227728) can0 05C#476E476E R
(1722447122.227830) can0 016#11 R
(1722447122.227947) can0 015#00 R
(1722447122.228060) can0 016#11 R
(1722447122.228183) can0 041#00 R
(1722447122.230711) can0 007#00 R
(1722447122.243281) can0 00D#8F6E R
(1722447122.243404) can0 05B#8F6E R
(1722447122.243520) can0 014#00 R
(1722447122.243637) can0 008#00 R
(1722447122.243761) can0 055#00 R
(1722447122.243922) can0 05C#EA6EEA6E R
(1722447122.244039) can0 05D#00 R
(1722447122.258413) can0 00E#846F R
(1722447122.258572) can0 05C#836F836F R
(1722447122.258694) can0 041#00 R
(1722447122.258808) can0 016#11 R
(1722447122.258934) can0 015#00 R
(1722447122.259044) can0 017#00 R
(1722447122.259171) can0 056#00 R
(1722447122.273912) can0 056#00 R
(1722447122.274041) can0 00E#1D70 R
(1722447122.280448) can0 007#00 R
(1722447122.290021) can0 015#00 R
(1722447122.290133) can0 016#11 R
(1722447122.290265) can0 00E#C070 R
(1722447122.290436) can0 05C#C070C070 R
(1722447122.290548) can0 016#11 R
(1722447122.305062) can0 041#00 R
(1722447122.305224) can0 05C#5A715971 R
(1722447122.305353) can0 00D#FE70 R
(1722447122.305487) can0 05B#FE70 R
(1722447122.305601) can0 014#00 R
(1722447122.305721) can0 008#00 R
(1722447122.305840) can0 055#00 R
(1722447122.305961) can0 05D#00 R
(1722447122.319913) can0 00E#F371 R
(1722447122.320074) can0 05C#F371F371 R
(1722447122.320198) can0 041#00 R
(1722447122.320313) can0 016#11 R
(1722447122.320431) can0 015#00 R
(1722447122.320546) can0 017#00 R
(1722447122.320668) can0 056#00 R
(1722447122.331614) can0 007#00 R
(1722447122.335457) can0 056#00 R
(1722447122.335582) can0 00E#8D72 R
(1722447122.349961) can0 015#00 R
(1722447122.350069) can0 00E#2673 R
(1722447122.350235) can0 05C#26732673 R
(1722447122.350341) can0 016#11 R
(1722447122.364851) can0 016#12 R
(1722447122.364977) can0 00D#6473 R
(1722447122.365100) can0 041#00 R
(1722447122.365230) can0 05B#6473 R
(1722447122.365345) can0 014#00 R
(1722447122.365462) can0 008#00 R
(1722447122.365583) can0 055#00 R
(1722447122.365754) can0 05C#C073C073 R
(1722447122.365871) can0 05D#00 R
(1722447122.380716) can0 00E#5A74 R
(1722447122.380878) can0 05C#64746474 R
(1722447122.380998) can0 041#00 R
(1722447122.381109) can0 016#12 R
(1722447122.381231) can0 015#00 R
(1722447122.381345) can0 007#00 R
(1722447122.381463) can0 017#00 R
(1722447122.381582) can0 056#00 R
(1722447122.396458) can0 056#00 R
(1722447122.411908) can0 00E#A275 R
(1722447122.412037) can0 00E#A275 R
(1722447122.412203) can0 05C#A275A275 R
(1722447122.427490) can0 015#00 R
(1722447122.427620) can0 00D#EA75 R
(1722447122.427734) can0 016#12 R
(1722447122.427857) can0 041#00 R
(1722447122.427987) can0 05B#EA75 R
(1722447122.428100) can0 014#00 R
(1722447122.428221) can0 008#00 R
(1722447122.428338) can0 055#00 R
(1722447122.428508) can0 05C#46764676 R
(1722447122.428618) can0 016#12 R
(1722447122.428756) can0 05D#00 R
(1722447122.431544) can0 007#00 R
(1722447122.442912) can0 056#00 R
(1722447122.443049) can0 00E#E076 R
(1722447122.443213) can0 05C#E076E076 R
(1722447122.443333) can0 041#00 R
(1722447122.443448) can0 016#12 R
(1722447122.443567) can0 015#00 R
(1722447122.443686) can0 017#00 R
(1722447122.443809) can0 056#00 R
(1722447122.457661) can0 00E#7A77 R
(1722447122.457783) can0 00E#7A77 R
(1722447122.472824) can0 05C#14781478 R
(1722447122.472939) can0 016#12 R
(1722447122.482131) can0 007#00 R
(1722447122.488239) can0 00D#5278 R
(1722447122.488369) can0 05B#5278 R
(1722447122.488482) can0 014#00 R
(1722447122.488601) can0 008#00 R
(1722447122.488721) can0 015#00 R
(1722447122.488843) can0 016#12 R
(1722447122.488957) can0 041#00 R
(1722447122.489078) can0 055#00 R
(1722447122.489195) can0 05D#00 R
(1722447122.502944) can0 05C#48794879 R
(1722447122.503076) can0 00E#4879 R
(1722447122.503238) can0 05C#48794879 R
(1722447122.503359) can0 041#00 R
(1722447122.503472) can0 016#12 R
(1722447122.503593) can0 015#00 R
(1722447122.503708) can0 017#00 R
(1722447122.503829) can0 056#00 R
(1722447122.518744) can0 056#00 R
(1722447122.518870) can0 00E#ED79 R
(1722447122.531792) can0 007#00 R
(1722447122.534114) can0 00E#877A R
(1722447122.534278) can0 05C#877A877A R
(1722447122.534387) can0 016#13 R
(1722447122.549017) can0 00D#CF7A R
(1722447122.549137) can0 015#00 R
(1722447122.549250) can0 016#13 R
(1722447122.549381) can0 05B#CF7A R
(1722447122.549495) can0 014#00 R
(1722447122.549616) can0 008#00 R
(1722447122.549734) can0 055#00 R
(1722447122.549852) can0 05D#00 R
(1722447122.564562) can0 041#00 R
(1722447122.564727) can0 05C#C67BC67B R
(1722447122.564866) can0 00E#C67B R
(1722447122.565029) can0 05C#C67BC67B R
(1722447122.565138) can0 041#00 R
(1722447122.565256) can0 016#13 R
(1722447122.565374) can0 015#00 R
(1722447122.565490) can0 017#00 R
(1722447122.565609) can0 056#00 R
(1722447122.579869) can0 056#00 R
(1722447122.580009) can0 00E#607C R
(1722447122.581582) can0 007#00 R
(1722447122.594431) can0 00E#FB7C R
(1722447122.594598) can0 05C#FB7CFB7C R
(1722447122.594707) can0 016#13 R
(1722447122.609618) can0 00D#387D R
(1722447122.609735) can0 015#00 R
(1722447122.609874) can0 05B#387D R
(1722447122.609987) can0 014#00 R
(1722447122.610105) can0 008#00 R
(1722447122.610225) can0 055#00 R
(1722447122.610343) can0 05D#00 R
(1722447122.624724) can0 016#13 R
(1722447122.625286) can0 041#00 R
(1722447122.625453) can0 05C#2F7E2F7E R
(1722447122.625582) can0 00E#2F7E R
(1722447122.625748) can0 05C#2F7E2F7E R
(1722447122.625869) can0 041#00 R
(1722447122.625981) can0 016#13 R
(1722447122.626103) can0 015#00 R
(1722447122.626218) can0 017#00 R
(1722447122.626339) can0 056#00 R
(1722447122.635429) can0 007#00 R
(1722447122.639666) can0 056#00 R
(1722447122.639796) can0 00E#CA7E R
(1722447122.639932) can0 00E#CA7E R
(1722447122.640098) can0 05C#CA7ECA7E R
(1722447122.655293) can0 016#13 R
(1722447122.671229) can0 00D#AC7F R
(1722447122.671341) can0 015#01 R
(1722447122.671455) can0 016#14 R
(1722447122.671591) can0 05B#AC7F R
(1722447122.671707) can0 014#00 R
(1722447122.671823) can0 041#01 R
(1722447122.671946) can0 008#00 R
(1722447122.672062) can0 055#00 R
(1722447122.672235) can0 05C#09800980 R
(1722447122.672351) can0 05D#00 R
(1722447122.685660) can0 00E#A380 R
(1722447122.685830) can0 05C#A380A380 R
(1722447122.685944) can0 041#01 R
(1722447122.686058) can0 016#14 R
(1722447122.686177) can0 015#01 R
(1722447122.686289) can0 017#01 R
(1722447122.686408) can0 056#01 R
(1722447122.686974) can0 007#01 R
(1722447122.700484) can0 056#01 R
(1722447122.700618) can0 00E#3E81 R
(1722447122.700784) can0 00E#3E81 R
(1722447122.716391) can0 05C#D881D881 R
(1722447122.716502) can0 016#14 R
(1722447122.731310) can0 015#01 R
(1722447122.731444) can0 00D#2082 R
(1722447122.731556) can0 016#14 R
(1722447122.731676) can0 041#01 R
(1722447122.731811) can0 05B#2082 R
(1722447122.731928) can0 014#01 R
(1722447122.732050) can0 008#01 R
(1722447122.732159) can0 055#01 R
(1722447122.732281) can0 05D#01 R
(1722447122.737338) can0 007#01 R
(1722447122.746630) can0 05C#0D830D83 R
(1722447122.746822) can0 00E#0D83 R
(1722447122.746990) can0 05C#0D830D83 R
(1722447122.747102) can0 041#01 R
(1722447122.747217) can0 016#14 R
(1722447122.747333) can0 015#01 R
(1722447122.747451) can0 017#01 R
(1722447122.747568) can0 056#01 R
(1722447122.762223) can0 05C#B283B283 R
(1722447122.762337) can0 056#01 R
(1722447122.762503) can0 00E#B283 R
(1722447122.777714) can0 015#01 R
(1722447122.777826) can0 016#14 R
(1722447122.777944) can0 041#01 R
(1722447122.778074) can0 00E#4C84 R
