(1722447205.220936) can0 015#01 R
(1722447205.221013) can0 00E#F8DB R
(1722447205.237043) can0 016#22 R
(1722447205.237148) can0 041#01 R
(1722447205.237310) can0 05C#6BDC6BDC R
(1722447205.237422) can0 056#01 R
(1722447205.237552) can0 00E#6BDC R
(1722447205.237716) can0 05C#6BDC6BDC R
(1722447205.237828) can0 016#22 R
(1722447205.248623) can0 007#01 R
(1722447205.252007) can0 00D#95DC R
(1722447205.252141) can0 05B#95DC R
(1722447205.252256) can0 014#01 R
(1722447205.252372) can0 008#01 R
(1722447205.252488) can0 055#01 R
(1722447205.253035) can0 05D#01 R
(1722447205.266662) can0 00E#3FDD R
(1722447205.266825) can0 05C#3FDD3FDD R
(1722447205.266944) can0 041#01 R
(1722447205.267057) can0 016#22 R
(1722447205.267174) can0 015#01 R
(1722447205.267291) can0 017#01 R
(1722447205.267408) can0 056#01 R
(1722447205.267574) can0 05C#3FDD3FDD R
(1722447205.267690) can0 056#01 R
(1722447205.267824) can0 00E#3FDD R
(1722447205.282796) can0 015#01 R
(1722447205.282913) can0 016#22 R
(1722447205.283030) can0 041#01 R
(1722447205.283161) can0 00E#A9DD R
(1722447205.283325) can0 05C#A9DDA9DD R
(1722447205.283442) can0 016#22 R
(1722447205.299218) can0 007#01 R
(1722447205.312906) can0 00D#43DE R
(1722447205.313035) can0 05B#43DE R
(1722447205.313149) can0 014#01 R
(1722447205.313262) can0 008#01 R
(1722447205.313380) can0 055#01 R
(1722447205.313497) can0 05D#01 R
(1722447205.328588) can0 00E#F0DE R
(1722447205.328767) can0 05C#F0DEF0DE R
(1722447205.328873) can0 041#01 R
(1722447205.328981) can0 016#22 R
(1722447205.329099) can0 015#01 R
(1722447205.329216) can0 017#01 R
(1722447205.329333) can0 056#01 R
(1722447205.343902) can0 015#01 R
(1722447205.344016) can0 016#22 R
(1722447205.344186) can0 05C#57DF57DF R
(1722447205.344303) can0 056#01 R
(1722447205.348277) can0 007#01 R
(1722447205.358482) can0 041#01 R
(1722447205.358615) can0 00E#BEDF R
(1722447205.358748) can0 00E#BEDF R
(1722447205.358917) can0 05C#BEDFBEDF R
(1722447205.373975) can0 00D#E7DF R
(1722447205.374086) can0 016#23 R
(1722447205.374220) can0 05B#E7DF R
(1722447205.374337) can0 014#01 R
(1722447205.374455) can0 008#01 R
(1722447205.374573) can0 055#01 R
(1722447205.374688) can0 05D#01 R
(1722447205.389492) can0 00E#91E0 R
(1722447205.389660) can0 05C#90E090E0 R
(1722447205.389777) can0 041#01 R
(1722447205.389889) can0 016#23 R
(1722447205.390007) can0 015#01 R
(1722447205.390123) can0 017#01 R
(1722447205.390241) can0 056#01 R
(1722447205.398984) can0 007#01 R
(1722447205.405028) can0 015#01 R
(1722447205.405195) can0 05C#F6E0F6E0 R
(1722447205.405305) can0 056#01 R
(1722447205.405441) can0 00E#F6E0 R
(1722447205.405570) can0 00E#F6E0 R
(1722447205.421058) can0 016#23 R
(1722447205.421174) can0 041#01 R
(1722447205.421356) can0 05C#61E161E1 R
(1722447205.421450) can0 016#23 R
(1722447205.436664) can0 00D#90E1 R
(1722447205.436802) can0 05B#90E1 R
(1722447205.437468) can0 014#01 R
(1722447205.437586) can0 008#01 R
(1722447205.437705) can0 055#01 R
(1722447205.437823) can0 05D#01 R
(1722447205.450771) can0 007#01 R
(1722447205.451808) can0 00E#2FE2 R
(1722447205.451969) can0 05C#2FE22FE2 R
(1722447205.452088) can0 041#01 R
(1722447205.452205) can0 016#23 R
(1722447205.452322) can0 015#01 R
(1722447205.452440) can0 017#01 R
(1722447205.452557) can0 056#01 R
(1722447205.466909) can0 05C#91E291E2 R
(1722447205.466978) can0 056#01 R
(1722447205.467138) can0 00E#92E2 R
(1722447205.482396) can0 015#01 R
(1722447205.482502) can0 016#23 R
(1722447205.482623) can0 041#01 R
(1722447205.482752) can0 00E#F4E2 R
(1722447205.482917) can0 05C#F4E2F4E2 R
(1722447205.483034) can0 016#23 R
(1722447205.497699) can0 00D#21E3 R
(1722447205.497831) can0 05B#21E3 R
(1722447205.497941) can0 014#01 R
(1722447205.498061) can0 008#01 R
(1722447205.498179) can0 055#01 R
(1722447205.498291) can0 05D#01 R
(1722447205.500792) can0 007#01 R
(1722447205.513715) can0 00E#BDE3 R
(1722447205.513872) can0 05C#BDE3BDE3 R
(1722447205.513994) can0 041#01 R
(1722447205.514101) can0 016#23 R
(1722447205.514218) can0 015#01 R
(1722447205.514337) can0 017#01 R
(1722447205.514812) can0 056#01 R
(1722447205.528619) can0 05C#1DE41DE4 R
(1722447205.528714) can0 056#01 R
(1722447205.528825) can0 00E#1DE4 R
(1722447205.543448) can0 015#01 R
(1722447205.543559) can0 016#23 R
(1722447205.543671) can0 041#01 R
(1722447205.543806) can0 00E#7DE4 R
(1722447205.543977) can0 05C#7DE47DE4 R
(1722447205.544091) can0 016#23 R
(1722447205.553600) can0 007#01 R
(1722447205.558623) can0 00D#AAE4 R
(1722447205.558816) can0 05B#AAE4 R
(1722447205.558930) can0 014#01 R
(1722447205.559047) can0 008#01 R
(1722447205.559162) can0 055#01 R
(1722447205.559282) can0 05D#01 R
(1722447205.574936) can0 00E#42E5 R
(1722447205.575104) can0 05C#42E542E5 R
(1722447205.575226) can0 041#01 R
(1722447205.575334) can0 016#23 R
(1722447205.575449) can0 015#01 R
(1722447205.575567) can0 017#01 R
(1722447205.575683) can0 056#01 R
(1722447205.575800) can0 015#01 R
(1722447205.575913) can0 016#23 R
(1722447205.576032) can0 041#01 R
(1722447205.576196) can0 05C#42E542E5 R
(1722447205.576312) can0 056#01 R
(1722447205.589793) can0 00E#A6E5 R
(1722447205.589922) can0 00E#A6E5 R
(1722447205.590088) can0 05C#A6E5A6E5 R
(1722447205.603750) can0 007#01 R
(1722447205.605734) can0 016#23 R
(1722447205.621352) can0 00D#2FE6 R
(1722447205.621463) can0 05B#2FE6 R
(1722447205.621583) can0 014#01 R
(1722447205.621691) can0 008#01 R
(1722447205.621807) can0 055#01 R
(1722447205.621925) can0 05D#01 R
(1722447205.636874) can0 00E#C9E6 R
(1722447205.637037) can0 05C#C9E6C9E6 R
(1722447205.637152) can0 041#01 R
(1722447205.637271) can0 016#24 R
(1722447205.637387) can0 015#01 R
(1722447205.637506) can0 017#01 R
(1722447205.637625) can0 056#01 R
(1722447205.652519) can0 015#01 R
(1722447205.652689) can0 05C#2BE72BE7 R
(1722447205.652825) can0 00E#2BE7 R
(1722447205.652953) can0 00E#2BE7 R
(1722447205.653345) can0 007#01 R
(1722447205.667952) can0 016#24 R
(1722447205.668074) can0 041#01 R
(1722447205.668186) can0 056#01 R
(1722447205.668346) can0 05C#86E786E7 R
(1722447205.668464) can0 016#24 R
(1722447205.682832) can0 00D#ABE7 R
(1722447205.682964) can0 05B#ABE7 R
(1722447205.683078) can0 014#01 R
(1722447205.683195) can0 008#01 R
(1722447205.683310) can0 055#01 R
(1722447205.683426) can0 05D#01 R
(1722447205.697888) can0 00E#3BE8 R
(1722447205.698060) can0 05C#3BE83BE8 R
(1722447205.698178) can0 041#01 R
(1722447205.698295) can0 016#24 R
(1722447205.698412) can0 015#01 R
(1722447205.698530) can0 017#01 R
(1722447205.698646) can0 056#01 R
(1722447205.698819) can0 05C#3BE83BE8 R
(1722447205.698954) can0 00E#3BE8 R
(1722447205.703015) can0 007#01 R
(1722447205.713582) can0 015#01 R
(1722447205.713702) can0 016#24 R
(1722447205.713820) can0 041#01 R
(1722447205.713935) can0 056#01 R
(1722447205.714061) can0 00E#9AE8 R
(1722447205.714221) can0 05C#9AE89AE8 R
(1722447205.714339) can0 016#24 R
(1722447205.743633) can0 00D#16E9 R
(1722447205.744246) can0 05B#16E9 R
(1722447205.744365) can0 014#01 R
(1722447205.744477) can0 008#01 R
(1722447205.744595) can0 055#01 R
(1722447205.744712) can0 05D#01 R
(1722447205.753866) can0 007#01 R
(1722447205.759398) can0 00E#A2E9 R
(1722447205.759561) can0 05C#A2E9A2E9 R
(1722447205.759950) can0 041#01 R
(1722447205.760068) can0 016#24 R
(1722447205.760183) can0 015#01 R
(1722447205.760302) can0 017#01 R
(1722447205.760418) can0 056#01 R
(1722447205.760535) can0 015#01 R
(1722447205.760652) can0 016#24 R
(1722447205.760788) can0 00E#A8E9 R
(1722447205.775860) can0 041#01 R
(1722447205.776031) can0 05C#FFE9FFE9 R
(1722447205.776147) can0 056#01 R
(1722447205.776281) can0 00E#FFE9 R
(1722447205.776449) can0 05C#05EA05EA R
(1722447205.776567) can0 016#24 R
(1722447205.804719) can0 007#01 R
(1722447205.806661) can0 00D#83EA R
(1722447205.806791) can0 05B#83EA R
(1722447205.806910) can0 014#01 R
(1722447205.807022) can0 008#01 R
(1722447205.807144) can0 055#01 R
(1722447205.807256) can0 05D#01 R
(1722447205.822166) can0 00E#0BEB R
(1722447205.822336) can0 05C#0BEB0BEB R
(1722447205.822454) can0 041#01 R
(1722447205.822568) can0 016#24 R
(1722447205.822688) can0 015#01 R
(1722447205.822801) can0 017#01 R
(1722447205.822918) can0 056#01 R
(1722447205.837501) can0 05C#5FEB5FEB R
(1722447205.837607) can0 056#01 R
(1722447205.837718) can0 015#01 R
(1722447205.837839) can0 016#24 R
(1722447205.837954) can0 041#01 R
(1722447205.838091) can0 00E#60EB R
(1722447205.838227) can0 00E#60EB R
(1722447205.838395) can0 05C#5FEB5FEB R
(1722447205.853332) can0 016#24 R
(1722447205.853946) can0 007#01 R
(1722447205.869230) can0 00D#E0EB R
(1722447205.869363) can0 05B#E0EB R
(1722447205.869479) can0 014#01 R
(1722447205.869594) can0 008#01 R
(1722447205.869710) can0 055#01 R
(1722447205.869828) can0 05D#01 R
(1722447205.884372) can0 00E#64EC R
(1722447205.884540) can0 05C#64EC64EC R
(1722447205.884654) can0 041#01 R
(1722447205.884798) can0 016#24 R
(1722447205.884876) can0 015#01 R
(1722447205.885010) can0 017#01 R
(1722447205.885123) can0 056#01 R
(1722447205.900418) can0 015#01 R
(1722447205.900531) can0 016#24 R
(1722447205.900827) can0 05C#BBECBBEC R
(1722447205.900956) can0 00E#BBEC R
(1722447205.901095) can0 00E#BBEC R
(1722447205.901229) can0 041#01 R
(1722447205.901324) can0 056#01 R
(1722447205.901491) can0 05C#BBECBBEC R
(1722447205.901607) can0 016#24 R
(1722447205.903795) can0 007#01 R
(1722447205.931203) can0 00D#32ED R
(1722447205.931335) can0 05B#32ED R
(1722447205.931449) can0 014#01 R
(1722447205.931566) can0 008#01 R
(1722447205.931681) can0 055#01 R
(1722447205.931800) can0 05D#01 R
(1722447205.946651) can0 00E#B2ED R
(1722447205.946800) can0 05C#B2EDB2ED R
(1722447205.946916) can0 041#01 R
(1722447205.947030) can0 016#25 R
(1722447205.947149) can0 015#01 R
(1722447205.947266) can0 017#01 R
(1722447205.947382) can0 056#01 R
(1722447205.947515) can0 00E#B2ED R
(1722447205.954300) can0 007#01 R
(1722447205.962602) can0 015#01 R
(1722447205.962694) can0 016#25 R
(1722447205.962829) can0 041#01 R
(1722447205.963223) can0 05C#06EE06EE R
(1722447205.963337) can0 056#01 R
(1722447205.963474) can0 00E#07EE R
(1722447205.963642) can0 05C#06EE06EE R
(1722447205.963753) can0 016#25 R
(1722447205.993327) can0 00D#7FEE R
(1722447205.993462) can0 05B#7FEE R
(1722447205.993573) can0 014#01 R
(1722447205.993691) can0 008#01 R
(1722447205.993804) can0 055#01 R
(1722447205.993926) can0 05D#01 R
(1722447206.003446) can0 007#01 R
(1722447206.008683) can0 00E#FBEE R
(1722447206.008854) can0 05C#FBEEFBEE R
(1722447206.008971) can0 041#01 R
(1722447206.009082) can0 016#25 R
(1722447206.009201) can0 015#01 R
(1722447206.009315) can0 017#01 R
(1722447206.009433) can0 056#01 R
(1722447206.024010) can0 015#01 R
(1722447206.024124) can0 016#25 R
(1722447206.024296) can0 05C#47EF47EF R
(1722447206.024405) can0 056#01 R
(1722447206.024539) can0 00E#47EF R
(1722447206.024656) can0 041#01 R
(1722447206.024812) can0 00E#47EF R
(1722447206.024956) can0 05C#47EF47EF R
(1722447206.025065) can0 016#25 R
(1722447206.054071) can0 007#01 R
(1722447206.056104) can0 00D#C1EF R
(1722447206.056236) can0 05B#C1EF R
(1722447206.056351) can0 014#01 R
(1722447206.056467) can0 008#01 R
(1722447206.056584) can0 055#01 R
(1722447206.056701) can0 05D#01 R
(1722447206.071954) can0 00E#38F0 R
(1722447206.072121) can0 05C#38F038F0 R
(1722447206.072230) can0 041#01 R
(1722447206.072345) can0 016#25 R
(1722447206.072462) can0 015#01 R
(1722447206.072580) can0 017#01 R
(1722447206.072702) can0 056#01 R
(1722447206.072821) can0 015#01 R
(1722447206.072932) can0 016#25 R
(1722447206.073045) can0 041#01 R
(1722447206.087734) can0 05C#82F082F0 R
(1722447206.087850) can0 056#01 R
(1722447206.087987) can0 00E#82F0 R
(1722447206.088127) can0 00E#82F0 R
(1722447206.088292) can0 05C#82F082F0 R
(1722447206.103141) can0 016#25 R
(1722447206.104111) can0 007#01 R
(1722447206.117610) can0 00D#EDF0 R
(1722447206.117777) can0 05B#EDF0 R
(1722447206.117885) can0 014#01 R
(1722447206.118002) can0 008#01 R
(1722447206.118116) can0 055#01 R
(1722447206.118237) can0 05D#01 R
(1722447206.133144) can0 00E#61F1 R
(1722447206.133314) can0 05C#61F161F1 R
(1722447206.133427) can0 041#01 R
(1722447206.133540) can0 016#25 R
(1722447206.133656) can0 015#01 R
(1722447206.133774) can0 017#01 R
(1722447206.133890) can0 056#01 R
(1722447206.134006) can0 015#01 R
(1722447206.134141) can0 00E#61F1 R
(1722447206.134271) can0 00E#61F1 R
(1722447206.149018) can0 016#25 R
(1722447206.149299) can0 041#01 R
(1722447206.149472) can0 05C#ADF1ADF1 R
(1722447206.149579) can0 056#01 R
(1722447206.149744) can0 05C#ADF1ADF1 R
(1722447206.149861) can0 016#25 R
(1722447206.153440) can0 007#01 R
(1722447206.179004) can0 00D#10F2 R
(1722447206.179116) can0 05B#10F2 R
(1722447206.179357) can0 014#01 R
(1722447206.179471) can0 008#01 R
(1722447206.179588) can0 055#01 R
(1722447206.179706) can0 05D#01 R
(1722447206.194696) can0 00E#7FF2 R
(1722447206.194865) can0 05C#7FF27FF2 R
(1722447206.194975) can0 041#01 R
(1722447206.195091) can0 016#25 R
(1722447206.195211) can0 015#01 R
(1722447206.195324) can0 017#01 R
(1722447206.195445) can0 056#01 R
(1722447206.206918) can0 007#01 R
(1722447206.209886) can0 015#01 R
(1722447206.210017) can0 00E#C8F2 R
(1722447206.210128) can0 016#25 R
(1722447206.210247) can0 041#01 R
(1722447206.210414) can0 05C#C8F2C8F2 R
(1722447206.210532) can0 056#01 R
(1722447206.210658) can0 00E#C8F2 R
(1722447206.210828) can0 05C#C8F2C8F2 R
(1722447206.210932) can0 016#25 R
(1722447206.240400) can0 00D#2CF3 R
(1722447206.240527) can0 05B#2CF3 R
(1722447206.240643) can0 014#01 R
(1722447206.240786) can0 008#01 R
(1722447206.240881) can0 055#01 R
(1722447206.240990) can0 05D#01 R
(1722447206.255575) can0 00E#92F3 R
(1722447206.255731) can0 05C#92F392F3 R
(1722447206.255852) can0 041#01 R
(1722447206.255966) can0 016#26 R
(1722447206.256088) can0 015#01 R
(1722447206.256210) can0 017#01 R
(1722447206.256320) can0 056#01 R
(1722447206.257176) can0 007#01 R
(1722447206.271629) can0 015#01 R
(1722447206.271741) can0 016#26 R
(1722447206.271914) can0 041#01 R
(1722447206.272078) can0 05C#D9F3D8F3 R
(1722447206.272192) can0 056#01 R
(1722447206.272326) can0 00E#D9F3 R
(1722447206.287755) can0 00E#1EF4 R
(1722447206.287917) can0 05C#1EF41EF4 R
(1722447206.288027) can0 016#26 R
(1722447206.302929) can0 00D#3DF4 R
(1722447206.303059) can0 05B#3DF4 R
(1722447206.303171) can0 014#01 R
(1722447206.303285) can0 008#01 R
(1722447206.303401) can0 055#01 R
(1722447206.303519) can0 05D#01 R
(1722447206.318207) can0 00E#A3F4 R
(1722447206.318375) can0 05C#A3F4A3F4 R
(1722447206.318490) can0 041#01 R
(1722447206.318605) can0 016#26 R
(1722447206.318724) can0 015#01 R
(1722447206.318841) can0 017#01 R
(1722447206.318958) can0 056#01 R
(1722447206.319079) can0 015#01 R
(1722447206.319244) can0 05C#A3F4A3F4 R
(1722447206.319354) can0 056#01 R
(1722447206.320143) can0 007#01 R
(1722447206.333511) can0 016#26 R
(1722447206.333624) can0 041#01 R
(1722447206.333763) can0 00E#E7F4 R
(1722447206.333897) can0 00E#E7F4 R
(1722447206.334063) can0 05C#E6F4E6F4 R
(1722447206.334173) can0 016#26 R
(1722447206.364310) can0 00D#42F5 R
(1722447206.364480) can0 05B#42F5 R
(1722447206.364590) can0 014#01 R
(1722447206.364710) can0 008#01 R
(1722447206.364835) can0 055#01 R
(1722447206.364942) can0 05D#01 R
(1722447206.369201) can0 007#01 R
(1722447206.379353) can0 00E#A0F5 R
(1722447206.379525) can0 05C#A0F5A0F5 R
(1722447206.379638) can0 041#01 R
(1722447206.379756) can0 016#26 R
(1722447206.379871) can0 015#01 R
(1722447206.379990) can0 017#01 R
(1722447206.380105) can0 056#01 R
(1722447206.380222) can0 015#01 R
(1722447206.380401) can0 05C#A0F5A0F5 R
(1722447206.380512) can0 056#01 R
(1722447206.380645) can0 00E#A0F5 R
(1722447206.380808) can0 00E#A0F5 R
(1722447206.394937) can0 016#26 R
(1722447206.395039) can0 041#01 R
(1722447206.395214) can0 05C#E1F5E1F5 R
(1722447206.395320) can0 016#26 R
(1722447206.419219) can0 007#01 R
(1722447206.426827) can0 00D#38F6 R
(1722447206.426952) can0 05B#38F6 R
(1722447206.427072) can0 014#01 R
(1722447206.427182) can0 008#01 R
(1722447206.427304) can0 055#01 R
(1722447206.427416) can0 05D#01 R
(1722447206.441071) can0 00E#96F6 R
(1722447206.441232) can0 05C#96F696F6 R
(1722447206.441344) can0 041#01 R
(1722447206.441463) can0 016#26 R
(1722447206.441585) can0 015#01 R
(1722447206.441698) can0 017#01 R
(1722447206.441819) can0 056#01 R
(1722447206.457065) can0 015#01 R
(1722447206.457180) can0 016#26 R
(1722447206.457302) can0 041#01 R
(1722447206.457470) can0 05C#D4F6D4F6 R
(1722447206.457612) can0 00E#D4F6 R
(1722447206.469808) can0 007#01 R
(1722447206.471850) can0 056#01 R
(1722447206.471983) can0 00E#0DF7 R
(1722447206.472159) can0 05C#0DF70DF7 R
(1722447206.472266) can0 016#26 R
(1722447206.487161) can0 00D#23F7 R
(1722447206.487296) can0 05B#23F7 R
(1722447206.487411) can0 014#01 R
(1722447206.487531) can0 008#01 R
(1722447206.487642) can0 055#01 R
(1722447206.487761) can0 05D#01 R
(1722447206.503029) can0 00E#81F7 R
(1722447206.503183) can0 05C#80F780F7 R
(1722447206.503300) can0 041#01 R
(1722447206.503415) can0 016#26 R
(1722447206.503532) can0 015#01 R
(1722447206.503649) can0 017#01 R
(1722447206.503765) can0 056#01 R
(1722447206.518216) can0 015#01 R
(1722447206.518346) can0 00E#B7F7 R
(1722447206.518609) can0 007#01 R
(1722447206.532840) can0 016#26 R
(1722447206.532951) can0 041#01 R
(1722447206.533125) can0 05C#EEF7EEF7 R
(1722447206.533234) can0 056#01 R
(1722447206.533366) can0 00E#EEF7 R
(1722447206.533533) can0 05C#EEF7EEF7 R
(1722447206.533645) can0 016#26 R
(1722447206.548311) can0 00D#03F8 R
(1722447206.548610) can0 05B#03F8 R
(1722447206.548726) can0 014#01 R
(1722447206.548856) can0 008#01 R
(1722447206.548967) can0 055#01 R
(1722447206.549078) can0 05D#01 R
(1722447206.564088) can0 00E#5CF8 R
(1722447206.564259) can0 05C#5CF85CF8 R
(1722447206.564376) can0 041#01 R
(1722447206.564493) can0 016#26 R
(1722447206.564608) can0 015#01 R
(1722447206.564727) can0 017#01 R
(1722447206.564852) can0 056#01 R
(1722447206.569201) can0 007#01 R
(1722447206.594675) can0 015#01 R
(1722447206.594791) can0 016#26 R
(1722447206.594909) can0 041#01 R
(1722447206.595079) can0 05C#C7F8C7F8 R
(1722447206.595191) can0 056#01 R
(1722447206.595328) can0 00E#C7F8 R
(1722447206.595484) can0 00E#C7F8 R
(1722447206.595632) can0 05C#C7F8C7F8 R
(1722447206.609041) can0 016#26 R
(1722447206.609164) can0 00D#D8F8 R
(1722447206.609288) can0 05B#D8F8 R
(1722447206.609409) can0 014#01 R
(1722447206.609520) can0 008#01 R
(1722447206.609636) can0 055#01 R
(1722447206.609755) can0 05D#01 R
(1722447206.618275) can0 007#01 R
(1722447206.623713) can0 00E#28F9 R
(1722447206.623882) can0 05C#28F928F9 R
(1722447206.623992) can0 041#01 R
(1722447206.624110) can0 016#26 R
(1722447206.624228) can0 015#01 R
(1722447206.624345) can0 017#01 R
(1722447206.624462) can0 056#01 R
(1722447206.638683) can0 015#01 R
(1722447206.638803) can0 016#26 R
(1722447206.638916) can0 041#01 R
(1722447206.639057) can0 00E#5AF9 R
(1722447206.639185) can0 00E#5AF9 R
(1722447206.639353) can0 05C#5AF95AF9 R
(1722447206.639467) can0 056#01 R
(1722447206.639635) can0 05C#5AF95AF9 R
(1722447206.639748) can0 016#26 R
(1722447206.668851) can0 00D#9EF9 R
(1722447206.668985) can0 05B#9EF9 R
(1722447206.669100) can0 014#01 R
(1722447206.669233) can0 008#01 R
(1722447206.669354) can0 055#01 R
(1722447206.669448) can0 05D#01 R
(1722447206.671399) can0 007#01 R
(1722447206.684723) can0 00E#EDF9 R
(1722447206.684891) can0 05C#EDF9EDF9 R
(1722447206.685004) can0 041#01 R
(1722447206.685121) can0 016#27 R
(1722447206.685236) can0 015#01 R
(1722447206.685356) can0 017#01 R
(1722447206.685473) can0 056#01 R
(1722447206.699791) can0 05C#1CFA1CFA R
(1722447206.699907) can0 056#01 R
(1722447206.700040) can0 00E#1CFA R
(1722447206.700153) can0 015#01 R
(1722447206.700271) can0 016#27 R
(1722447206.700387) can0 041#01 R
(1722447206.700522) can0 00E#1CFA R
(1722447206.700688) can0 05C#1CFA1CFA R
(1722447206.700817) can0 016#27 R
(1722447206.720951) can0 007#01 R
(1722447206.730054) can0 00D#5CFA R
(1722447206.730230) can0 05B#5CFA R
(1722447206.730347) can0 014#01 R
(1722447206.730463) can0 008#01 R
(1722447206.730584) can0 055#01 R
(1722447206.730698) can0 05D#01 R
(1722447206.746875) can0 00E#A7FA R
(1722447206.747044) can0 05C#A6FAA6FA R
(1722447206.747162) can0 041#01 R
(1722447206.747278) can0 016#27 R
(1722447206.747393) can0 015#01 R
(1722447206.747512) can0 017#01 R
(1722447206.747629) can0 056#01 R
(1722447206.747746) can0 015#01 R
(1722447206.747862) can0 016#27 R
(1722447206.747984) can0 041#01 R
(1722447206.748148) can0 05C#A6FAA6FA R
(1722447206.748281) can0 00E#A7FA R
(1722447206.761307) can0 056#01 R
(1722447206.761478) can0 00E#D2FA R
(1722447206.761643) can0 05C#D2FAD2FA R
(1722447206.761759) can0 016#27 R
(1722447206.770659) can0 007#01 R
(1722447206.791780) can0 00D#11FB R
(1722447206.791914) can0 05B#11FB R
(1722447206.792028) can0 014#01 R
(1722447206.792145) can0 008#01 R
(1722447206.792260) can0 055#01 R
(1722447206.792379) can0 05D#01 R
(1722447206.806721) can0 00E#54FB R
(1722447206.806886) can0 05C#54FB54FB R
(1722447206.807004) can0 041#01 R
(1722447206.807119) can0 016#27 R
(1722447206.807236) can0 015#01 R
(1722447206.807353) can0 017#01 R
(1722447206.807472) can0 056#01 R
(1722447206.821225) can0 007#01 R
(1722447206.822076) can0 015#01 R
(1722447206.838027) can0 016#27 R
(1722447206.838401) can0 041#01 R
(1722447206.838577) can0 05C#A8FBA8FB R
(1722447206.838685) can0 056#01 R
(1722447206.838826) can0 00E#A8FB R
(1722447206.838953) can0 00E#A8FB R
(1722447206.839121) can0 05C#A8FBA8FB R
(1722447206.853460) can0 016#27 R
(1722447206.854162) can0 00D#B8FB R
(1722447206.854293) can0 05B#B8FB R
(1722447206.854410) can0 014#01 R
(1722447206.854525) can0 008#01 R
(1722447206.854642) can0 055#01 R
(1722447206.854759) can0 05D#01 R
(1722447206.868611) can0 00E#F9FB R
(1722447206.868789) can0 05C#F9FBF9FB R
(1722447206.868903) can0 041#01 R
(1722447206.869019) can0 016#27 R
(1722447206.869134) can0 015#01 R
(1722447206.869255) can0 017#01 R
(1722447206.869370) can0 056#01 R
(1722447206.870935) can0 007#01 R
(1722447206.884216) can0 00E#1FFC R
(1722447206.884352) can0 00E#1FFC R
(1722447206.899620) can0 015#01 R
(1722447206.899736) can0 016#27 R
(1722447206.899855) can0 041#01 R
(1722447206.900020) can0 05C#44FC44FC R
(1722447206.900582) can0 056#01 R
(1722447206.900758) can0 05C#44FC44FC R
(1722447206.900864) can0 016#27 R
(1722447206.915028) can0 00D#56FC R
(1722447206.915160) can0 05B#56FC R
(1722447206.915275) can0 014#01 R
(1722447206.915392) can0 008#01 R
(1722447206.915507) can0 055#01 R
(1722447206.915626) can0 05D#01 R
(1722447206.921349) can0 007#01 R
(1722447206.929879) can0 00E#8FFC R
(1722447206.930046) can0 05C#8FFC8FFC R
(1722447206.930165) can0 041#01 R
(1722447206.930280) can0 016#27 R
(1722447206.930397) can0 015#01 R
(1722447206.930514) can0 017#01 R
(1722447206.930630) can0 056#01 R
(1722447206.944913) can0 00E#B3FC R
(1722447206.960851) can0 015#01 R
(1722447206.960957) can0 016#27 R
(1722447206.961076) can0 041#01 R
(1722447206.961242) can0 05C#D5FCD5FC R
(1722447206.961360) can0 056#01 R
(1722447206.961494) can0 00E#D5FC R
(1722447206.961665) can0 05C#D5FCD5FC R
(1722447206.961780) can0 016#27 R
(1722447206.974411) can0 007#01 R
(1722447206.975373) can0 00D#E5FC R
(1722447206.975505) can0 05B#E5FC R
(1722447206.975622) can0 014#01 R
(1722447206.975737) can0 008#01 R
(1722447206.975854) can0 055#01 R
(1722447206.975970) can0 05D#01 R
(1722447206.990830) can0 00E#1AFD R
(1722447206.991002) can0 05C#1AFD1AFD R
(1722447206.991117) can0 041#01 R
(1722447206.991235) can0 016#27 R
(1722447206.991349) can0 015#01 R
(1722447206.991470) can0 017#01 R
(1722447206.991586) can0 056#01 R
(1722447207.005850) can0 015#01 R
(1722447207.005970) can0 016#27 R
(1722447207.006090) can0 041#01 R
(1722447207.006219) can0 00E#3AFD R
(1722447207.006384) can0 05C#3AFD3AFD R
(1722447207.006500) can0 056#01 R
(1722447207.006632) can0 00E#3AFD R
(1722447207.006799) can0 05C#3AFD3AFD R
(1722447207.006915) can0 016#27 R
(1722447207.023812) can0 007#01 R
(1722447207.035840) can0 00D#66FD R
(1722447207.035971) can0 05B#66FD R
(1722447207.036077) can0 014#01 R
(1722447207.036209) can0 008#01 R
(1722447207.036314) can0 055#01 R
(1722447207.036435) can0 05D#01 R
(1722447207.051564) can0 00E#99FD R
(1722447207.051725) can0 05C#99FD99FD R
(1722447207.051843) can0 041#01 R
(1722447207.051963) can0 016#27 R
(1722447207.052076) can0 015#01 R
(1722447207.052206) can0 017#01 R
(1722447207.052309) can0 056#01 R
(1722447207.052475) can0 05C#99FD99FD R
(1722447207.052592) can0 056#01 R
(1722447207.066764) can0 015#01 R
(1722447207.066880) can0 016#27 R
(1722447207.066996) can0 041#01 R
(1722447207.067129) can0 00E#B6FD R
(1722447207.067260) can0 00E#B6FD R
(1722447207.067429) can0 05C#B6FDB6FD R
(1722447207.073601) can0 007#01 R
(1722447207.081970) can0 016#27 R
(1722447207.096810) can0 00D#DEFD R
(1722447207.096903) can0 05B#DEFD R
(1722447207.097024) can0 014#01 R
(1722447207.097139) can0 008#01 R
(1722447207.097256) can0 055#01 R
(1722447207.097372) can0 05D#01 R
(1722447207.112804) can0 00E#0CFE R
(1722447207.112973) can0 05C#0CFE0CFE R
(1722447207.113092) can0 041#01 R
(1722447207.113209) can0 016#27 R
(1722447207.113323) can0 015#01 R
(1722447207.113452) can0 017#01 R
(1722447207.113557) can0 056#01 R
(1722447207.113684) can0 015#01 R
(1722447207.113790) can0 016#27 R
(1722447207.113960) can0 05C#0CFE0CFE R
(1722447207.114096) can0 00E#0CFE R
(1722447207.114233) can0 00E#0CFE R
(1722447207.123675) can0 007#01 R
(1722447207.127623) can0 041#01 R
(1722447207.127725) can0 056#01 R
(1722447207.127965) can0 05C#25FE25FE R
(1722447207.128080) can0 016#27 R
(1722447207.158615) can0 00D#4CFE R
(1722447207.158746) can0 05B#4CFE R
(1722447207.158865) can0 014#01 R
(1722447207.158977) can0 008#01 R
(1722447207.159094) can0 055#01 R
(1722447207.159210) can0 05D#01 R
(1722447207.174435) can0 007#01 R
(1722447207.174996) can0 00E#73FE R
(1722447207.175168) can0 05C#73FE73FE R
(1722447207.175283) can0 041#01 R
(1722447207.175406) can0 016#27 R
(1722447207.175515) can0 015#01 R
(1722447207.175637) can0 017#01 R
(1722447207.175749) can0 056#01 R
(1722447207.190197) can0 00E#8CFE R
(1722447207.205761) can0 015#01 R
(1722447207.205974) can0 016#27 R
(1722447207.206091) can0 041#01 R
(1722447207.206257) can0 05C#A4FEA4FE R
(1722447207.206372) can0 056#01 R
(1722447207.206505) can0 00E#A5FE R
(1722447207.206670) can0 05C#A4FEA4FE R
(1722447207.206788) can0 016#27 R
(1722447207.220987) can0 00D#ADFE R
(1722447207.221119) can0 05B#ADFE R
(1722447207.221233) can0 014#01 R
(1722447207.222264) can0 008#01 R
(1722447207.222379) can0 055#01 R
(1722447207.222498) can0 05D#01 R
(1722447207.224258) can0 007#01 R
(1722447207.236551) can0 00E#D1FE R
(1722447207.236705) can0 05C#D1FED1FE R
(1722447207.236820) can0 041#01 R
(1722447207.236937) can0 016#27 R
(1722447207.237054) can0 015#01 R
(1722447207.237171) can0 017#01 R
(1722447207.237295) can0 056#01 R
(1722447207.252052) can0 00E#E6FE R
(1722447207.267413) can0 015#01 R
(1722447207.267527) can0 016#27 R
(1722447207.267647) can0 041#01 R
(1722447207.267817) can0 05C#F9FEF9FE R
(1722447207.267941) can0 056#01 R
(1722447207.268067) can0 00E#FAFE R
(1722447207.268239) can0 05C#F9FEF9FE R
(1722447207.268357) can0 016#27 R
(1722447207.273410) can0 007#01 R
(1722447207.282538) can0 00D#03FF R
(1722447207.282678) can0 05B#03FF R
(1722447207.282791) can0 014#01 R
(1722447207.282908) can0 008#01 R
(1722447207.283023) can0 055#01 R
(1722447207.283142) can0 05D#01 R
(1722447207.298197) can0 00E#20FF R
(1722447207.298362) can0 05C#20FF20FF R
(1722447207.298479) can0 041#01 R
(1722447207.298595) can0 016#27 R
(1722447207.298712) can0 015#01 R
(1722447207.298830) can0 017#01 R
(1722447207.298953) can0 056#01 R
(1722447207.313693) can0 015#01 R
(1722447207.313806) can0 016#27 R
(1722447207.313924) can0 041#01 R
(1722447207.328793) can0 05C#44FF44FF R
(1722447207.328873) can0 056#01 R
(1722447207.329022) can0 00E#44FF R
(1722447207.329156) can0 00E#44FF R
(1722447207.329329) can0 05C#44FF44FF R
(1722447207.334130) can0 007#01 R
(1722447207.344194) can0 00D#4BFF R
(1722447207.344302) can0 016#27 R
(1722447207.344441) can0 05B#4BFF R
(1722447207.344550) can0 014#01 R
(1722447207.344668) can0 008#01 R
(1722447207.344812) can0 055#01 R
(1722447207.344910) can0 05D#01 R
(1722447207.360562) can0 00E#65FF R
(1722447207.360730) can0 05C#65FF65FF R
(1722447207.360853) can0 041#01 R
(1722447207.360964) can0 016#27 R
(1722447207.361083) can0 015#01 R
(1722447207.361207) can0 017#01 R
(1722447207.361317) can0 056#01 R
(1722447207.375397) can0 015#01 R
(1722447207.375511) can0 016#27 R
(1722447207.375647) can0 00E#74FF R
(1722447207.375782) can0 00E#74FF R
(1722447207.384070) can0 007#01 R
(1722447207.391140) can0 041#01 R
(1722447207.391313) can0 05C#82FF82FF R
(1722447207.391428) can0 056#01 R
(1722447207.391603) can0 05C#82FF82FF R
(1722447207.391716) can0 016#27 R
(1722447207.406651) can0 00D#88FF R
(1722447207.407022) can0 05B#88FF R
(1722447207.407144) can0 014#01 R
(1722447207.407254) can0 008#01 R
(1722447207.407376) can0 055#01 R
(1722447207.407489) can0 05D#01 R
(1722447207.421663) can0 00E#9CFF R
(1722447207.421914) can0 05C#9CFF9CFF R
(1722447207.422030) can0 041#01 R
(1722447207.422147) can0 016#27 R
(1722447207.422262) can0 015#01 R
(1722447207.422381) can0 017#01 R
(1722447207.422496) can0 056#01 R
(1722447207.422612) can0 015#01 R
(1722447207.422744) can0 00E#9CFF R
(1722447207.434121) can0 007#01 R
(1722447207.437235) can0 016#27 R
(1722447207.437337) can0 041#01 R
(1722447207.437507) can0 05C#A7FFA7FF R
(1722447207.437622) can0 056#01 R
(1722447207.437755) can0 00E#A8FF R
(1722447207.437924) can0 05C#A7FFA7FF R
(1722447207.438040) can0 016#27 R
(1722447207.468715) can0 00D#B8FF R
(1722447207.468863) can0 05B#B8FF R
(1722447207.468963) can0 014#01 R
(1722447207.469066) can0 008#01 R
(1722447207.469210) can0 055#01 R
(1722447207.469287) can0 05D#01 R
(1722447207.483982) can0 007#01 R
(1722447207.484791) can0 00E#C7FF R
(1722447207.484959) can0 05C#C7FFC7FF R
(1722447207.485074) can0 041#01 R
(1722447207.485199) can0 016#27 R
(1722447207.485331) can0 015#01 R
(1722447207.485422) can0 017#01 R
(1722447207.485553) can0 056#01 R
(1722447207.499198) can0 00E#D0FF R
(1722447207.513998) can0 015#01 R
(1722447207.514173) can0 016#27 R
(1722447207.514292) can0 041#01 R
(1722447207.514460) can0 05C#D8FFD8FF R
(1722447207.514582) can0 056#01 R
(1722447207.514708) can0 00E#D8FF R
(1722447207.514876) can0 05C#D8FFD8FF R
(1722447207.514992) can0 016#27 R
(1722447207.529534) can0 00D#DBFF R
(1722447207.529679) can0 05B#DBFF R
(1722447207.529803) can0 014#01 R
(1722447207.529911) can0 008#01 R
(1722447207.530034) can0 055#01 R
(1722447207.530147) can0 05D#01 R
(1722447207.533973) can0 007#01 R
(1722447207.545707) can0 00E#E6FF R
(1722447207.545875) can0 05C#E6FFE6FF R
(1722447207.545994) can0 041#01 R
(1722447207.546110) can0 016#27 R
(1722447207.546226) can0 015#01 R
(1722447207.546345) can0 017#01 R
(1722447207.546462) can0 056#01 R
(1722447207.561152) can0 015#01 R
(1722447207.561251) can0 016#27 R
(1722447207.561371) can0 041#01 R
(1722447207.577090) can0 05C#F1FFF1FF R
(1722447207.577205) can0 056#01 R
(1722447207.577337) can0 00E#F1FF R
(1722447207.577474) can0 00E#F1FF R
(1722447207.577642) can0 05C#F1FFF1FF R
(1722447207.577765) can0 016#27 R
(1722447207.584575) can0 007#01 R
(1722447207.592897) can0 00D#F3FF R
(1722447207.593034) can0 05B#F3FF R
(1722447207.593149) can0 014#01 R
(1722447207.593264) can0 008#01 R
(1722447207.593383) can0 055#01 R
(1722447207.593500) can0 05D#01 R
(1722447207.608268) can0 00E#F9FF R
(1722447207.608435) can0 05C#F8FFF8FF R
(1722447207.608565) can0 041#01 R
(1722447207.608669) can0 016#27 R
(1722447207.608791) can0 015#01 R
(1722447207.608903) can0 017#01 R
(1722447207.609021) can0 056#01 R
(1722447207.609135) can0 015#01 R
(1722447207.609314) can0 05C#F8FFF8FF R
(1722447207.609423) can0 056#01 R
(1722447207.609567) can0 00E#F9FF R
(1722447207.609695) can0 00E#F9FF R
(1722447207.623499) can0 016#27 R
(1722447207.623621) can0 041#01 R
(1722447207.623790) can0 05C#FBFFFBFF R
(1722447207.623908) can0 016#27 R
(1722447207.633448) can0 007#01 R
(1722447207.654167) can0 00D#FEFF R
(1722447207.654307) can0 05B#FEFF R
(1722447207.654416) can0 014#01 R
(1722447207.654534) can0 008#01 R
(1722447207.654648) can0 055#01 R
(1722447207.654771) can0 05D#01 R
(1722447207.669898) can0 00E#FFFF R
(1722447207.670068) can0 05C#FEFFFEFF R
(1722447207.670177) can0 041#01 R
(1722447207.670295) can0 016#27 R
(1722447207.670408) can0 015#01 R
(1722447207.670532) can0 017#01 R
(1722447207.670642) can0 056#01 R
(1722447207.683836) can0 007#01 R
(1722447207.684690) can0 05C#FEFFFEFF R
(1722447207.684820) can0 056#01 R
(1722447207.684946) can0 00E#FEFF R
(1722447207.700291) can0 015#01 R
(1722447207.700457) can0 016#27 R
(1722447207.700567) can0 041#01 R
(1722447207.700709) can0 00E#FDFF R
(1722447207.700886) can0 05C#FDFFFDFF R
(1722447207.701000) can0 016#27 R
(1722447207.716247) can0 00D#FCFF R
(1722447207.716376) can0 05B#FCFF R
(1722447207.716497) can0 014#01 R
(1722447207.716607) can0 008#01 R
(1722447207.716728) can0 055#01 R
(1722447207.716828) can0 05D#01 R
(1722447207.731908) can0 00E#F8FF R
(1722447207.732082) can0 05C#F8FFF8FF R
(1722447207.732194) can0 041#01 R
(1722447207.732316) can0 016#27 R
(1722447207.732426) can0 015#01 R
(1722447207.732556) can0 017#01 R
(1722447207.732661) can0 056#01 R
(1722447207.734356) can0 007#01 R
(1722447207.746484) can0 015#01 R
(1722447207.746598) can0 016#27 R
(1722447207.746716) can0 041#01 R
(1722447207.746883) can0 05C#F5FFF5FF R
(1722447207.747000) can0 056#01 R
(1722447207.747133) can0 00E#F5FF R
(1722447207.762109) can0 00E#F1FF R
(1722447207.762281) can0 05C#F1FFF0FF R
(1722447207.762393) can0 016#27 R
(1722447207.777545) can0 00D#EFFF R
(1722447207.777665) can0 05B#EFFF R
(1722447207.777787) can0 014#01 R
(1722447207.777898) can0 008#01 R
(1722447207.778016) can0 055#01 R
(1722447207.778131) can0 05D#01 R
(1722447207.784320) can0 007#01 R
(1722447207.792627) can0 00E#E6FF R
(1722447207.792800) can0 05C#E6FFE6FF R
(1722447207.792918) can0 041#01 R
(1722447207.793031) can0 016#27 R
(1722447207.793148) can0 015#01 R
(1722447207.793265) can0 017#01 R
(1722447207.793382) can0 056#01 R
(1722447207.808136) can0 015#01 R
(1722447207.808309) can0 05C#DFFFDFFF R
(1722447207.823771) can0 016#27 R
(1722447207.824146) can0 041#01 R
(1722447207.824265) can0 056#01 R
(1722447207.824394) can0 00E#D8FF R
(1722447207.824531) can0 00E#D8FF R
(1722447207.824697) can0 05C#D8FFD8FF R
(1722447207.834379) can0 007#01 R
(1722447207.839521) can0 00D#D5FF R
(1722447207.839635) can0 016#27 R
(1722447207.839769) can0 05B#D5FF R
(1722447207.839887) can0 014#01 R
(1722447207.840004) can0 008#01 R
(1722447207.840119) can0 055#01 R
(1722447207.840238) can0 05D#01 R
(1722447207.855256) can0 00E#C7FF R
(1722447207.855422) can0 05C#C7FFC7FF R
(1722447207.855545) can0 041#01 R
(1722447207.855655) can0 016#27 R
(1722447207.855779) can0 015#01 R
(1722447207.855888) can0 017#01 R
(1722447207.856008) can0 056#01 R
(1722447207.871957) can0 05C#BDFFBDFF R
(1722447207.872084) can0 00E#BDFF R
(1722447207.872215) can0 00E#BDFF R
(1722447207.886333) can0 015#01 R
(1722447207.886444) can0 016#27 R
(1722447207.886557) can0 041#01 R
(1722447207.886682) can0 056#01 R
(1722447207.886838) can0 05C#B2FFB2FF R
(1722447207.886962) can0 016#27 R
(1722447207.887349) can0 007#01 R
(1722447207.902392) can0 00D#AEFF R
(1722447207.902619) can0 05B#AEFF R
(1722447207.902735) can0 014#01 R
(1722447207.902851) can0 008#01 R
(1722447207.902967) can0 055#01 R
(1722447207.903085) can0 05D#01 R
(1722447207.917707) can0 00E#9BFF R
(1722447207.917872) can0 05C#9BFF9BFF R
(1722447207.918395) can0 041#01 R
(1722447207.918508) can0 016#27 R
(1722447207.918627) can0 015#01 R
(1722447207.918743) can0 017#01 R
(1722447207.918862) can0 056#01 R
(1722447207.919024) can0 05C#9AFF9AFF R
(1722447207.919159) can0 00E#9AFF R
(1722447207.932866) can0 015#01 R
(1722447207.933219) can0 016#27 R
(1722447207.933358) can0 041#01 R
(1722447207.933449) can0 056#01 R
(1722447207.933589) can0 00E#8EFF R
(1722447207.933758) can0 05C#8EFF8EFF R
(1722447207.933871) can0 016#27 R
(1722447207.936585) can0 007#01 R
(1722447207.962470) can0 00D#7BFF R
(1722447207.962593) can0 05B#7BFF R
(1722447207.962709) can0 014#01 R
(1722447207.962827) can0 008#01 R
(1722447207.962941) can0 055#01 R
(1722447207.963067) can0 05D#01 R
(1722447207.977784) can0 00E#64FF R
(1722447207.977947) can0 05C#64FF64FF R
(1722447207.978065) can0 041#01 R
(1722447207.978180) can0 016#27 R
(1722447207.978297) can0 015#01 R
(1722447207.978414) can0 017#01 R
(1722447207.978531) can0 056#01 R
(1722447207.978698) can0 05C#64FF64FF R
(1722447207.978815) can0 056#01 R
(1722447207.978945) can0 00E#64FF R
(1722447207.993290) can0 015#01 R
(1722447207.993388) can0 016#27 R
(1722447207.993510) can0 041#01 R
(1722447207.993642) can0 00E#55FF R
(1722447207.993811) can0 05C#55FF55FF R
(1722447207.993928) can0 016#27 R
(1722447208.005627) can0 007#01 R
(1722447208.023640) can0 00D#3DFF R
(1722447208.023772) can0 05B#3DFF R
(1722447208.023889) can0 014#01 R
(1722447208.024004) can0 008#01 R
(1722447208.024121) can0 055#01 R
(1722447208.024238) can0 05D#01 R
(1722447208.038688) can0 00E#22FF R
(1722447208.038864) can0 05C#21FF21FF R
(1722447208.038979) can0 041#01 R
(1722447208.039098) can0 016#27 R
(1722447208.039210) can0 015#01 R
(1722447208.039329) can0 017#01 R
(1722447208.039444) can0 056#01 R
(1722447208.054195) can0 015#01 R
(1722447208.056200) can0 007#01 R
(1722447208.070172) can0 016#27 R
(1722447208.070294) can0 041#01 R
(1722447208.070463) can0 05C#FBFEFBFE R
(1722447208.070945) can0 056#01 R
(1722447208.071083) can0 00E#FBFE R
(1722447208.071220) can0 00E#FBFE R
(1722447208.071391) can0 05C#FBFEFBFE R
(1722447208.085141) can0 016#27 R
(1722447208.085272) can0 00D#F3FE R
(1722447208.085403) can0 05B#F3FE R
(1722447208.085519) can0 014#01 R
(1722447208.085635) can0 008#01 R
(1722447208.085751) can0 055#01 R
(1722447208.085868) can0 05D#01 R
(1722447208.100523) can0 00E#D3FE R
(1722447208.100679) can0 05C#D3FED3FE R
(1722447208.100798) can0 041#01 R
(1722447208.100911) can0 016#27 R
(1722447208.101026) can0 015#01 R
(1722447208.101145) can0 017#01 R
(1722447208.101260) can0 056#01 R
(1722447208.106450) can0 007#01 R
(1722447208.116106) can0 00E#BEFE R
(1722447208.116239) can0 00E#BEFE R
(1722447208.131099) can0 015#01 R
(1722447208.131212) can0 016#27 R
(1722447208.131336) can0 041#01 R
(1722447208.131496) can0 05C#A6FEA6FE R
(1722447208.131613) can0 056#01 R
(1722447208.131778) can0 05C#A6FEA6FE R
(1722447208.131905) can0 016#27 R
(1722447208.146587) can0 00D#9CFE R
(1722447208.146722) can0 05B#9CFE R
(1722447208.146840) can0 014#01 R
(1722447208.146954) can0 008#01 R
(1722447208.147077) can0 055#01 R
(1722447208.147187) can0 05D#01 R
(1722447208.155969) can0 007#01 R
(1722447208.162042) can0 00E#76FE R
(1722447208.162210) can0 05C#76FE76FE R
(1722447208.162328) can0 041#01 R
(1722447208.162443) can0 016#27 R
(1722447208.162560) can0 015#01 R
(1722447208.162677) can0 017#01 R
(1722447208.162794) can0 056#01 R
(1722447208.177989) can0 015#01 R
(1722447208.178114) can0 016#27 R
(1722447208.178228) can0 041#01 R
(1722447208.178363) can0 00E#5DFE R
(1722447208.178527) can0 05C#5DFE5CFE R
(1722447208.178645) can0 056#01 R
(1722447208.178775) can0 00E#5DFE R
(1722447208.178949) can0 05C#5DFE5CFE R
(1722447208.179057) can0 016#27 R
(1722447208.205874) can0 007#01 R
(1722447208.208887) can0 00D#38FE R
(1722447208.209013) can0 05B#38FE R
(1722447208.209129) can0 014#01 R
(1722447208.209244) can0 008#01 R
(1722447208.209361) can0 055#01 R
(1722447208.209478) can0 05D#01 R
(1722447208.223550) can0 00E#0EFE R
(1722447208.223793) can0 05C#0EFE0EFE R
(1722447208.223911) can0 041#01 R
(1722447208.224028) can0 016#27 R
(1722447208.224144) can0 015#01 R
(1722447208.224261) can0 017#01 R
(1722447208.224377) can0 056#01 R
(1722447208.239919) can0 015#01 R
(1722447208.240083) can0 05C#F3FDF3FD R
(1722447208.240206) can0 056#01 R
(1722447208.240332) can0 00E#F3FD R
(1722447208.255270) can0 016#27 R
(1722447208.255386) can0 041#01 R
(1722447208.255550) can0 00E#D5FD R
(1722447208.255720) can0 05C#D5FDD5FD R
(1722447208.255838) can0 016#27 R
(1722447208.256258) can0 007#01 R
(1722447208.270655) can0 00D#C8FD R
(1722447208.270785) can0 05B#C8FD R
(1722447208.270905) can0 014#01 R
(1722447208.271017) can0 008#01 R
(1722447208.271134) can0 055#01 R
(1722447208.271251) can0 05D#01 R
(1722447208.286136) can0 00E#99FD R
(1722447208.286307) can0 05C#99FD99FD R
(1722447208.286418) can0 041#01 R
(1722447208.286536) can0 016#27 R
(1722447208.286650) can0 015#01 R
(1722447208.286779) can0 017#01 R
(1722447208.286884) can0 056#01 R
(1722447208.301403) can0 05C#7BFD7BFD R
(1722447208.301515) can0 056#01 R
(1722447208.305442) can0 007#01 R
(1722447208.317067) can0 015#01 R
(1722447208.317186) can0 016#27 R
(1722447208.317287) can0 041#01 R
(1722447208.317421) can0 00E#5AFD R
(1722447208.317554) can0 00E#5AFD R
(1722447208.317724) can0 05C#5AFD5AFD R
(1722447208.332055) can0 016#27 R
(1722447208.332184) can0 00D#4DFD R
(1722447208.332321) can0 05B#4DFD R
(1722447208.332436) can0 014#01 R
(1722447208.332553) can0 008#01 R
(1722447208.332668) can0 055#01 R
(1722447208.332790) can0 05D#01 R
(1722447208.348124) can0 00E#18FD R
(1722447208.348291) can0 05C#18FD18FD R
(1722447208.348410) can0 041#01 R
(1722447208.348525) can0 016#27 R
(1722447208.348644) can0 015#01 R
(1722447208.348784) can0 017#01 R
(1722447208.348875) can0 056#01 R
(1722447208.358332) can0 007#01 R
(1722447208.363394) can0 05C#F7FCF7FC R
(1722447208.363511) can0 056#01 R
(1722447208.363644) can0 00E#F7FC R
(1722447208.363779) can0 00E#F7FC R
(1722447208.379149) can0 015#01 R
(1722447208.379263) can0 016#27 R
(1722447208.379381) can0 041#01 R
(1722447208.379548) can0 05C#D3FCD3FC R
(1722447208.379667) can0 016#27 R
(1722447208.394817) can0 00D#C3FC R
(1722447208.394949) can0 05B#C3FC R
(1722447208.395063) can0 014#01 R
(1722447208.395180) can0 008#01 R
(1722447208.395296) can0 055#01 R
(1722447208.395414) can0 05D#01 R
(1722447208.409948) can0 00E#8BFC R
(1722447208.410112) can0 05C#8BFC8BFC R
(1722447208.410231) can0 041#01 R
(1722447208.410346) can0 016#27 R
(1722447208.410465) can0 015#01 R
(1722447208.410582) can0 017#01 R
(1722447208.410700) can0 056#01 R
(1722447208.411005) can0 007#01 R
(1722447208.425718) can0 015#01 R
(1722447208.425816) can0 016#27 R
(1722447208.425952) can0 041#01 R
(1722447208.426103) can0 05C#67FC67FC R
(1722447208.426218) can0 056#01 R
(1722447208.426353) can0 00E#67FC R
(1722447208.441879) can0 00E#40FC R
(1722447208.442048) can0 05C#40FC40FC R
(1722447208.442176) can0 016#27 R
(1722447208.456826) can0 00D#2EFC R
(1722447208.456959) can0 05B#2EFC R
(1722447208.457079) can0 014#01 R
(1722447208.457201) can0 008#01 R
(1722447208.457309) can0 055#01 R
(1722447208.457432) can0 05D#01 R
(1722447208.461219) can0 007#01 R
(1722447208.472696) can0 00E#F2FB R
(1722447208.473030) can0 05C#F1FBEFFB R
(1722447208.473142) can0 041#01 R
(1722447208.473260) can0 016#27 R
(1722447208.473374) can0 015#01 R
(1722447208.473497) can0 017#01 R
(1722447208.473608) can0 056#01 R
(1722447208.474109) can0 015#01 R
(1722447208.474224) can0 016#27 R
(1722447208.474392) can0 05C#EFFBEFFB R
(1722447208.474508) can0 056#01 R
(1722447208.474643) can0 00E#EFFB R
(1722447208.488256) can0 041#01 R
(1722447208.488391) can0 00E#C8FB R
(1722447208.488557) can0 05C#C8FBC8FB R
(1722447208.488673) can0 016#27 R
(1722447208.511064) can0 007#01 R
(1722447208.519159) can0 00D#8EFB R
(1722447208.519296) can0 05B#8EFB R
(1722447208.519409) can0 014#01 R
(1722447208.519526) can0 008#01 R
(1722447208.519642) can0 055#01 R
(1722447208.519760) can0 05D#01 R
(1722447208.535147) can0 00E#4CFB R
(1722447208.535477) can0 05C#4CFB4CFB R
(1722447208.535593) can0 041#01 R
(1722447208.535709) can0 016#27 R
(1722447208.535831) can0 015#01 R
(1722447208.535946) can0 017#01 R
(1722447208.536069) can0 056#01 R
(1722447208.550405) can0 05C#20FB1FFB R
(1722447208.560984) can0 007#01 R
(1722447208.566476) can0 015#01 R
(1722447208.566593) can0 016#27 R
(1722447208.566711) can0 041#01 R
(1722447208.566833) can0 056#01 R
(1722447208.566961) can0 00E#F2FA R
(1722447208.567096) can0 00E#F2FA R
(1722447208.567263) can0 05C#F2FAF2FA R
(1722447208.581874) can0 016#27 R
(1722447208.582007) can0 00D#DEFA R
(1722447208.582138) can0 05B#DEFA R
(1722447208.582255) can0 014#01 R
(1722447208.582371) can0 008#01 R
(1722447208.582487) can0 055#01 R
(1722447208.582605) can0 05D#01 R
(1722447208.596779) can0 00E#98FA R
(1722447208.596924) can0 05C#98FA98FA R
(1722447208.597041) can0 041#01 R
(1722447208.597178) can0 016#27 R
(1722447208.597270) can0 015#01 R
(1722447208.597391) can0 017#01 R
(1722447208.597507) can0 056#01 R
(1722447208.597622) can0 015#01 R
(1722447208.597739) can0 016#27 R
(1722447208.597857) can0 041#01 R
(1722447208.598024) can0 05C#98FA98FA R
(1722447208.598158) can0 00E#98FA R
(1722447208.598288) can0 00E#98FA R
(1722447208.610767) can0 007#01 R
(1722447208.612169) can0 056#01 R
(1722447208.612337) can0 05C#6BFA6BFA R
(1722447208.612453) can0 016#27 R
(1722447208.642660) can0 00D#28FA R
(1722447208.642781) can0 05B#28FA R
(1722447208.642898) can0 014#01 R
(1722447208.643014) can0 008#01 R
(1722447208.643130) can0 055#01 R
(1722447208.643248) can0 05D#01 R
(1722447208.657586) can0 00E#DEF9 R
(1722447208.657777) can0 05C#DEF9DEF9 R
(1722447208.657894) can0 041#01 R
(1722447208.658011) can0 016#27 R
(1722447208.658127) can0 015#01 R
(1722447208.658245) can0 017#01 R
(1722447208.658361) can0 056#01 R
(1722447208.660586) can0 007#01 R
(1722447208.673715) can0 015#01 R
(1722447208.673852) can0 00E#ABF9 R
(1722447208.673964) can0 016#27 R
(1722447208.674088) can0 041#01 R
(1722447208.674248) can0 05C#ABF9ABF9 R
(1722447208.674369) can0 056#01 R
(1722447208.674499) can0 00E#ABF9 R
(1722447208.674667) can0 05C#ABF9ABF9 R
(1722447208.674781) can0 016#27 R
(1722447208.703850) can0 00D#67F9 R
(1722447208.703980) can0 05B#67F9 R
(1722447208.704098) can0 014#01 R
(1722447208.704212) can0 008#01 R
(1722447208.704329) can0 055#01 R
(1722447208.704446) can0 05D#01 R
(1722447208.711063) can0 007#01 R
(1722447208.719503) can0 00E#18F9 R
(1722447208.719672) can0 05C#18F918F9 R
(1722447208.719791) can0 041#01 R
(1722447208.719905) can0 016#26 R
(1722447208.720029) can0 015#01 R
(1722447208.720140) can0 017#01 R
(1722447208.720258) can0 056#01 R
(1722447208.720387) can0 00E#18F9 R
(1722447208.735251) can0 015#01 R
(1722447208.735372) can0 016#26 R
(1722447208.735486) can0 041#01 R
(1722447208.735657) can0 05C#E2F8E2F8 R
(1722447208.735770) can0 056#01 R
(1722447208.735906) can0 00E#E2F8 R
(1722447208.736072) can0 05C#E2F8E2F8 R
(1722447208.736200) can0 016#26 R
(1722447208.760970) can0 007#01 R
(1722447208.766030) can0 00D#97F8 R
(1722447208.766161) can0 05B#97F8 R
(1722447208.766276) can0 014#01 R
(1722447208.766392) can0 008#01 R
(1722447208.766507) can0 055#01 R
(1722447208.766626) can0 05D#01 R
(1722447208.781232) can0 00E#43F8 R
(1722447208.781463) can0 05C#43F843F8 R
(1722447208.781582) can0 041#01 R
(1722447208.781695) can0 016#26 R
(1722447208.781811) can0 015#01 R
(1722447208.781929) can0 017#01 R
(1722447208.782045) can0 056#01 R
(1722447208.782161) can0 015#01 R
(1722447208.782277) can0 016#26 R
(1722447208.782446) can0 05C#43F843F8 R
(1722447208.782561) can0 056#01 R
(1722447208.797056) can0 041#01 R
(1722447208.797188) can0 00E#0BF8 R
(1722447208.797320) can0 00E#0BF8 R
(1722447208.797490) can0 05C#0BF80BF8 R
(1722447208.811396) can0 007#01 R
(1722447208.812386) can0 016#26 R
(1722447208.828132) can0 00D#BBF7 R
(1722447208.828265) can0 05B#BBF7 R
(1722447208.828382) can0 014#01 R
(1722447208.828497) can0 008#01 R
(1722447208.828614) can0 055#01 R
(1722447208.828755) can0 05D#01 R
(1722447208.843916) can0 00E#5FF7 R
(1722447208.844533) can0 05C#5FF75FF7 R
(1722447208.844653) can0 041#01 R
(1722447208.844795) can0 016#26 R
(1722447208.844886) can0 015#01 R
(1722447208.845005) can0 017#01 R
(1722447208.845122) can0 056#01 R
(1722447208.859051) can0 05C#27F727F7 R
(1722447208.859163) can0 056#01 R
(1722447208.859296) can0 00E#27F7 R
(1722447208.859427) can0 00E#27F7 R
(1722447208.860756) can0 007#01 R
(1722447208.873800) can0 015#01 R
(1722447208.873906) can0 016#26 R
(1722447208.874021) can0 041#01 R
(1722447208.874196) can0 05C#EFF6EFF6 R
(1722447208.874305) can0 016#26 R
(1722447208.889197) can0 00D#D8F6 R
(1722447208.889331) can0 05B#D8F6 R
(1722447208.889441) can0 014#01 R
(1722447208.889569) can0 008#01 R
(1722447208.889674) can0 055#01 R
(1722447208.889801) can0 05D#01 R
(1722447208.905339) can0 00E#77F6 R
(1722447208.905507) can0 05C#77F677F6 R
(1722447208.905623) can0 041#01 R
(1722447208.905741) can0 016#26 R
(1722447208.905855) can0 015#01 R
(1722447208.905976) can0 017#01 R
(1722447208.906089) can0 056#01 R
(1722447208.910868) can0 007#01 R
(1722447208.919645) can0 015#01 R
(1722447208.919765) can0 016#26 R
(1722447208.919876) can0 041#01 R
(1722447208.920040) can0 05C#3CF63CF6 R
(1722447208.920170) can0 00E#3CF6 R
(1722447208.934717) can0 056#01 R
(1722447208.934849) can0 00E#01F6 R
(1722447208.935028) can0 05C#01F601F6 R
(1722447208.935137) can0 016#26 R
(1722447208.950399) can0 00D#E5F5 R
(1722447208.950533) can0 05B#E5F5 R
(1722447208.950647) can0 014#01 R
(1722447208.950764) can0 008#01 R
(1722447208.950879) can0 055#01 R
(1722447208.950998) can0 05D#01 R
(1722447208.965854) can0 00E#84F5 R
(1722447208.966010) can0 05C#84F584F5 R
(1722447208.966128) can0 041#01 R
(1722447208.966244) can0 016#26 R
(1722447208.966360) can0 015#01 R
(1722447208.966478) can0 017#01 R
(1722447208.966594) can0 056#01 R
(1722447208.972935) can0 007#01 R
(1722447208.981094) can0 015#01 R
(1722447208.981238) can0 00E#46F5 R
(1722447208.997056) can0 016#26 R
(1722447208.997233) can0 041#01 R
(1722447208.997399) can0 05C#04F504F5 R
(1722447208.997514) can0 056#01 R
(1722447208.997647) can0 00E#04F5 R
(1722447208.997814) can0 05C#04F504F5 R
(1722447208.997931) can0 016#26 R
(1722447209.012861) can0 00D#E7F4 R
(1722447209.012993) can0 05B#E7F4 R
(1722447209.013106) can0 014#01 R
(1722447209.013221) can0 008#01 R
(1722447209.013341) can0 055#01 R
(1722447209.013457) can0 05D#01 R
(1722447209.022624) can0 007#01 R
(1722447209.027852) can0 00E#81F4 R
(1722447209.028026) can0 05C#81F481F4 R
(1722447209.028142) can0 041#01 R
(1722447209.028259) can0 016#26 R
(1722447209.028373) can0 015#01 R
(1722447209.028492) can0 017#01 R
(1722447209.028608) can0 056#01 R
(1722447209.057678) can0 015#01 R
(1722447209.057800) can0 016#26 R
(1722447209.057911) can0 041#01 R
(1722447209.058086) can0 05C#00F400F4 R
(1722447209.058202) can0 056#01 R
(1722447209.058338) can0 00E#00F4 R
(1722447209.058475) can0 00E#00F4 R
(1722447209.058649) can0 05C#00F400F4 R
(1722447209.073349) can0 007#01 R
(1722447209.073475) can0 00D#E6F3 R
(1722447209.073594) can0 016#26 R
(1722447209.073723) can0 05B#E6F3 R
(1722447209.073841) can0 014#01 R
(1722447209.073957) can0 008#01 R
(1722447209.074072) can0 055#01 R
(1722447209.074189) can0 05D#01 R
(1722447209.089499) can0 00E#78F3 R
(1722447209.090181) can0 05C#78F378F3 R
(1722447209.090296) can0 041#01 R
(1722447209.090413) can0 016#26 R
(1722447209.090529) can0 015#01 R
(1722447209.090647) can0 017#01 R
(1722447209.090763) can0 056#01 R
(1722447209.104850) can0 00E#35F3 R
(1722447209.104981) can0 00E#35F3 R
(1722447209.120250) can0 015#01 R
(1722447209.120363) can0 016#25 R
(1722447209.120487) can0 041#01 R
(1722447209.120647) can0 05C#EDF2EDF2 R
(1722447209.120790) can0 056#01 R
(1722447209.120929) can0 05C#EDF2EDF2 R
(1722447209.121050) can0 016#25 R
(1722447209.123161) can0 007#01 R
(1722447209.136144) can0 00D#CDF2 R
(1722447209.136277) can0 05B#CDF2 R
(1722447209.136502) can0 014#01 R
(1722447209.136616) can0 008#01 R
(1722447209.136753) can0 055#01 R
(1722447209.136847) can0 05D#01 R
(1722447209.152014) can0 00E#5FF2 R
(1722447209.152181) can0 05C#5FF25FF2 R
(1722447209.152305) can0 041#01 R
(1722447209.152412) can0 016#25 R
(1722447209.152535) can0 015#01 R
(1722447209.152647) can0 017#01 R
(1722447209.152781) can0 056#01 R
(1722447209.152884) can0 015#01 R
(1722447209.153000) can0 016#25 R
(1722447209.153113) can0 041#01 R
(1722447209.153245) can0 00E#5AF2 R
(1722447209.167181) can0 05C#15F215F2 R
(1722447209.167292) can0 056#01 R
(1722447209.167431) can0 00E#15F2 R
(1722447209.167593) can0 05C#15F215F2 R
(1722447209.167709) can0 016#25 R
(1722447209.173063) can0 007#01 R
(1722447209.198568) can0 00D#A9F1 R
(1722447209.198691) can0 05B#A9F1 R
(1722447209.198805) can0 014#01 R
(1722447209.198919) can0 008#01 R
(1722447209.199035) can0 055#01 R
(1722447209.199153) can0 05D#01 R
(1722447209.213182) can0 00E#3BF1 R
(1722447209.213341) can0 05C#3BF13BF1 R
(1722447209.213459) can0 041#01 R
(1722447209.213579) can0 016#25 R
(1722447209.213688) can0 015#01 R
(1722447209.213815) can0 017#01 R
(1722447209.213923) can0 056#01 R
(1722447209.222873) can0 007#01 R
(1722447209.229622) can0 015#01 R
(1722447209.229753) can0 00E#EEF0 R
(1722447209.245383) can0 016#25 R
(1722447209.245502) can0 041#01 R
(1722447209.245674) can0 05C#A0F0A0F0 R
(1722447209.245799) can0 056#01 R
(1722447209.245924) can0 00E#A0F0 R
(1722447209.247004) can0 05C#A0F0A0F0 R
(1722447209.247117) can0 016#25 R
(1722447209.260344) can0 00D#82F0 R
(1722447209.260479) can0 05B#82F0 R
(1722447209.260596) can0 014#01 R
(1722447209.260713) can0 008#01 R
(1722447209.260832) can0 055#01 R
(1722447209.260955) can0 05D#01 R
(1722447209.272779) can0 007#01 R
(1722447209.276076) can0 00E#07F0 R
(1722447209.276247) can0 05C#07F007F0 R
(1722447209.276371) can0 041#01 R
(1722447209.276479) can0 016#25 R
(1722447209.276600) can0 015#01 R
(1722447209.276715) can0 017#01 R
(1722447209.276827) can0 056#01 R
(1722447209.291575) can0 05C#B7EFB7EF R
(1722447209.291741) can0 056#01 R
(1722447209.307289) can0 015#01 R
(1722447209.307421) can0 016#25 R
(1722447209.307541) can0 041#01 R
(1722447209.307669) can0 00E#6BEF R
(1722447209.307806) can0 00E#6BEF R
(1722447209.307970) can0 05C#6BEF6BEF R
(1722447209.322551) can0 007#01 R
(1722447209.322680) can0 00D#48EF R
(1722447209.322793) can0 016#25 R
(1722447209.322923) can0 05B#48EF R
(1722447209.323040) can0 014#01 R
(1722447209.323155) can0 008#01 R
(1722447209.323272) can0 055#01 R
(1722447209.323389) can0 05D#01 R
(1722447209.338439) can0 00E#CDEE R
(1722447209.338597) can0 05C#CDEECDEE R
(1722447209.338715) can0 041#01 R
(1722447209.338832) can0 016#25 R
(1722447209.338945) can0 015#01 R
(1722447209.339073) can0 017#01 R
(1722447209.339178) can0 056#01 R
(1722447209.354325) can0 015#01 R
(1722447209.354434) can0 016#25 R
(1722447209.354561) can0 041#01 R
(1722447209.354716) can0 05C#7AEE7AEE R
(1722447209.354832) can0 056#01 R
(1722447209.354961) can0 00E#7AEE R
(1722447209.355091) can0 00E#7AEE R
(1722447209.370717) can0 05C#26EE26EE R
(1722447209.371356) can0 016#25 R
(1722447209.373091) can0 007#01 R
(1722447209.385520) can0 00D#02EE R
(1722447209.385653) can0 05B#02EE R
(1722447209.385775) can0 014#01 R
(1722447209.385885) can0 008#01 R
(1722447209.386006) can0 055#01 R
(1722447209.386118) can0 05D#01 R
(1722447209.401040) can0 00E#83ED R
(1722447209.401206) can0 05C#82ED82ED R
(1722447209.401319) can0 041#01 R
(1722447209.401440) can0 016#25 R
(1722447209.401548) can0 015#01 R
(1722447209.401676) can0 017#01 R
(1722447209.401782) can0 056#01 R
(1722447209.416128) can0 015#01 R
(1722447209.416225) can0 016#25 R
(1722447209.416390) can0 05C#32ED32ED R
(1722447209.416512) can0 056#01 R
(1722447209.416634) can0 00E#32ED R
(1722447209.416781) can0 041#01 R
(1722447209.416884) can0 00E#32ED R
(1722447209.417052) can0 05C#32ED32ED R
(1722447209.417158) can0 016#25 R
(1722447209.423098) can0 007#01 R
(1722447209.447255) can0 00D#B6EC R
(1722447209.447660) can0 05B#B6EC R
(1722447209.447776) can0 014#01 R
(1722447209.447892) can0 008#01 R
(1722447209.448007) can0 055#01 R
(1722447209.448126) can0 05D#01 R
(1722447209.462208) can0 00E#38EC R
(1722447209.462354) can0 05C#38EC38EC R
(1722447209.462469) can0 041#01 R
(1722447209.462586) can0 016#24 R
(1722447209.462705) can0 015#01 R
(1722447209.462826) can0 017#01 R
(1722447209.462955) can0 056#01 R
(1722447209.473432) can0 007#01 R
(1722447209.477561) can0 05C#E5EBE5EB R
(1722447209.477689) can0 00E#E6EB R
(1722447209.477804) can0 015#01 R
(1722447209.477921) can0 016#24 R
(1722447209.478040) can0 041#01 R
(1722447209.478155) can0 056#01 R
(1722447209.478286) can0 00E#E6EB R
(1722447209.478455) can0 05C#E5EBE5EB R
(1722447209.478570) can0 016#24 R
(1722447209.508588) can0 00D#65EB R
(1722447209.508854) can0 05B#65EB R
(1722447209.508979) can0 014#01 R
(1722447209.509086) can0 008#01 R
(1722447209.509226) can0 055#01 R
(1722447209.509317) can0 05D#01 R
(1722447209.523186) can0 007#01 R
(1722447209.524212) can0 00E#DEEA R
(1722447209.524377) can0 05C#DEEADEEA R
(1722447209.524496) can0 041#01 R
(1722447209.524614) can0 016#24 R
(1722447209.524747) can0 015#01 R
(1722447209.524844) can0 017#01 R
(1722447209.524965) can0 056#01 R
(1722447209.525082) can0 015#01 R
(1722447209.538808) can0 016#24 R
(1722447209.538923) can0 041#01 R
(1722447209.539088) can0 05C#89EA89EA R
(1722447209.539208) can0 056#01 R
(1722447209.539333) can0 00E#89EA R
(1722447209.539461) can0 00E#89EA R
(1722447209.539626) can0 05C#89EA89EA R
(1722447209.539742) can0 016#24 R
(1722447209.570531) can0 00D#05EA R
(1722447209.570664) can0 05B#05EA R
(1722447209.571157) can0 014#01 R
(1722447209.571271) can0 008#01 R
(1722447209.571389) can0 055#01 R
(1722447209.571505) can0 05D#01 R
(1722447209.572809) can0 007#01 R
(1722447209.586210) can0 00E#7AE9 R
(1722447209.586374) can0 05C#7AE97AE9 R
(1722447209.586490) can0 041#01 R
(1722447209.586613) can0 016#24 R
(1722447209.586724) can0 015#01 R
(1722447209.586847) can0 017#01 R
(1722447209.586957) can0 056#01 R
(1722447209.587075) can0 015#01 R
(1722447209.587192) can0 016#24 R
(1722447209.587310) can0 041#01 R
(1722447209.587472) can0 05C#7AE97AE9 R
(1722447209.587596) can0 056#01 R
(1722447209.587718) can0 00E#7AE9 R
(1722447209.587853) can0 00E#7AE9 R
(1722447209.601981) can0 05C#1CE91CE9 R
(1722447209.602103) can0 016#24 R
(1722447209.632228) can0 00D#9AE8 R
(1722447209.632393) can0 05B#9AE8 R
(1722447209.632503) can0 014#01 R
(1722447209.632621) can0 008#01 R
(1722447209.632756) can0 055#01 R
(1722447209.632859) can0 05D#01 R
(1722447209.642333) can0 007#01 R
(1722447209.647412) can0 00E#11E8 R
(1722447209.647579) can0 05C#11E811E8 R
(1722447209.647694) can0 041#01 R
(1722447209.647823) can0 016#24 R
(1722447209.647928) can0 015#01 R
(1722447209.648055) can0 017#01 R
(1722447209.648163) can0 056#01 R
(1722447209.648300) can0 00E#11E8 R
(1722447209.662370) can0 015#01 R
(1722447209.662533) can0 016#24 R
(1722447209.662648) can0 041#01 R
(1722447209.662824) can0 05C#B7E7B7E7 R
(1722447209.662932) can0 056#01 R
(1722447209.663072) can0 00E#B7E7 R
(1722447209.663235) can0 05C#B7E7B7E7 R
(1722447209.663352) can0 016#24 R
(1722447209.691780) can0 007#01 R
(1722447209.692780) can0 00D#32E7 R
(1722447209.692912) can0 05B#32E7 R
(1722447209.693027) can0 014#01 R
(1722447209.693150) can0 008#01 R
(1722447209.693260) can0 055#01 R
(1722447209.693375) can0 05D#01 R
(1722447209.707913) can0 00E#9FE6 R
(1722447209.708083) can0 05C#9FE69FE6 R
(1722447209.708197) can0 041#01 R
(1722447209.708317) can0 016#24 R
(1722447209.708431) can0 015#01 R
(1722447209.708550) can0 017#01 R
(1722447209.708666) can0 056#01 R
(1722447209.723275) can0 05C#42E642E6 R
(1722447209.723403) can0 00E#42E6 R
(1722447209.738654) can0 015#01 R
(1722447209.738749) can0 016#23 R
(1722447209.738936) can0 041#01 R
(1722447209.739043) can0 056#01 R
(1722447209.739180) can0 00E#DFE5 R
(1722447209.739343) can0 05C#DFE5DFE5 R
(1722447209.739462) can0 016#23 R
(1722447209.741682) can0 007#01 R
(1722447209.753897) can0 00D#B9E5 R
(1722447209.754028) can0 05B#B9E5 R
(1722447209.754141) can0 014#01 R
(1722447209.754259) can0 008#01 R
(1722447209.754374) can0 055#01 R
(1722447209.754497) can0 05D#01 R
(1722447209.769225) can0 00E#23E5 R
(1722447209.769390) can0 05C#23E523E5 R
(1722447209.769530) can0 041#01 R
(1722447209.769644) can0 016#23 R
(1722447209.769760) can0 015#01 R
(1722447209.769877) can0 017#01 R
(1722447209.769994) can0 056#01 R
(1722447209.784770) can0 015#01 R
(1722447209.784862) can0 016#23 R
(1722447209.785466) can0 041#01 R
(1722447209.785632) can0 05C#C4E4BDE4 R
(1722447209.785745) can0 056#01 R
(1722447209.785878) can0 00E#BDE4 R
(1722447209.786005) can0 00E#BDE4 R
(1722447209.786177) can0 05C#BDE4BDE4 R
(1722447209.792567) can0 007#01 R
(1722447209.800340) can0 016#23 R
(1722447209.814994) can0 00D#38E4 R
(1722447209.815130) can0 05B#38E4 R
(1722447209.815245) can0 014#01 R
(1722447209.815362) can0 008#01 R
(1722447209.815477) can0 055#01 R
(1722447209.815601) can0 05D#01 R
(1722447209.830743) can0 00E#97E3 R
(1722447209.830911) can0 05C#97E396E3 R
(1722447209.831026) can0 041#01 R
(1722447209.831143) can0 016#23 R
(1722447209.831256) can0 015#01 R
(1722447209.831378) can0 017#01 R
(1722447209.831490) can0 056#01 R
(1722447209.831659) can0 05C#97E396E3 R
(1722447209.831773) can0 056#01 R
(1722447209.831909) can0 00E#97E3 R
(1722447209.832040) can0 00E#97E3 R
(1722447209.843007) can0 007#01 R
(1722447209.846309) can0 015#01 R
(1722447209.846431) can0 016#23 R
(1722447209.846540) can0 041#01 R
(1722447209.846705) can0 05C#35E335E3 R
(1722447209.846818) can0 016#23 R
(1722447209.877046) can0 00D#A6E2 R
(1722447209.877380) can0 05B#A6E2 R
(1722447209.877490) can0 014#01 R
(1722447209.877606) can0 008#01 R
(1722447209.877724) can0 055#01 R
(1722447209.877840) can0 05D#01 R
(1722447209.892840) can0 00E#01E2 R
(1722447209.893002) can0 05C#01E201E2 R
(1722447209.893121) can0 041#01 R
(1722447209.893237) can0 016#23 R
(1722447209.893358) can0 015#01 R
(1722447209.893471) can0 017#01 R
(1722447209.893590) can0 007#01 R
(1722447209.893705) can0 056#01 R
(1722447209.893821) can0 015#01 R
(1722447209.893936) can0 016#23 R
(1722447209.894053) can0 041#01 R
(1722447209.894223) can0 05C#01E201E2 R
(1722447209.894338) can0 056#01 R
(1722447209.894473) can0 00E#01E2 R
(1722447209.907946) can0 00E#9DE1 R
(1722447209.908109) can0 05C#9DE19DE1 R
(1722447209.908216) can0 016#23 R
(1722447209.938028) can0 00D#11E1 R
(1722447209.938180) can0 05B#11E1 R
(1722447209.938289) can0 014#01 R
(1722447209.938407) can0 008#01 R
(1722447209.938521) can0 055#01 R
(1722447209.938640) can0 05D#01 R
(1722447209.942909) can0 007#01 R
(1722447209.954084) can0 00E#68E0 R
(1722447209.954251) can0 05C#68E068E0 R
(1722447209.954366) can0 041#01 R
(1722447209.954482) can0 016#23 R
(1722447209.954596) can0 015#01 R
(1722447209.954715) can0 017#01 R
(1722447209.954831) can0 056#01 R
(1722447209.954966) can0 00E#68E0 R
(1722447209.969582) can0 015#01 R
(1722447209.969696) can0 016#22 R
(1722447209.969805) can0 041#01 R
(1722447209.969977) can0 05C#FCDFFCDF R
(1722447209.970087) can0 056#01 R
(1722447209.970226) can0 00E#FCDF R
(1722447209.970397) can0 05C#FCDFFCDF R
(1722447209.970510) can0 016#22 R
(1722447209.994881) can0 007#01 R
(1722447210.000077) can0 00D#65DF R
(1722447210.000213) can0 05B#65DF R
(1722447210.000324) can0 014#01 R
(1722447210.000442) can0 008#01 R
(1722447210.000558) can0 055#01 R
(1722447210.000677) can0 05D#01 R
(1722447210.016099) can0 00E#C0DE R
(1722447210.016261) can0 05C#C0DEC0DE R
(1722447210.016380) can0 041#01 R
(1722447210.016492) can0 016#22 R
(1722447210.016610) can0 015#01 R
(1722447210.016727) can0 017#01 R
(1722447210.016853) can0 056#01 R
(1722447210.016965) can0 015#01 R
(1722447210.017128) can0 05C#C0DEC0DE R
(1722447210.017241) can0 056#01 R
(1722447210.031839) can0 016#22 R
(1722447210.031954) can0 041#01 R
(1722447210.032141) can0 00E#51DE R
(1722447210.032272) can0 00E#51DE R
(1722447210.032441) can0 05C#51DE51DE R
(1722447210.032546) can0 016#22 R
(1722447210.047526) can0 007#01 R
(1722447210.062582) can0 00D#B7DD R
(1722447210.062772) can0 05B#B7DD R
(1722447210.062884) can0 014#01 R
(1722447210.063003) can0 008#01 R
(1722447210.063118) can0 055#01 R
(1722447210.063237) can0 05D#01 R
(1722447210.078732) can0 00E#0EDD R
(1722447210.078902) can0 05C#0EDD0EDD R
(1722447210.079017) can0 041#01 R
(1722447210.079134) can0 016#22 R
(1722447210.079249) can0 015#01 R
(1722447210.079367) can0 017#01 R
(1722447210.079484) can0 056#01 R
(1722447210.079600) can0 015#01 R
(1722447210.079713) can0 016#22 R
(1722447210.079849) can0 00E#0EDD R
(1722447210.079983) can0 00E#0EDD R
(1722447210.093831) can0 041#01 R
(1722447210.094036) can0 05C#9DDC9DDC R
(1722447210.094152) can0 056#01 R
(1722447210.094319) can0 05C#9DDC9DDC R
(1722447210.094430) can0 016#22 R
(1722447210.097215) can0 007#01 R
(1722447210.125681) can0 00D#00DC R
(1722447210.125812) can0 05B#00DC R
(1722447210.125930) can0 014#01 R
(1722447210.126042) can0 008#01 R
(1722447210.126161) can0 055#01 R
(1722447210.126278) can0 05D#01 R
(1722447210.139743) can0 00E#54DB R
(1722447210.139908) can0 05C#53DB53DB R
(1722447210.140020) can0 041#01 R
(1722447210.140136) can0 016#22 R
(1722447210.140250) can0 015#01 R
(1722447210.140370) can0 017#01 R
(1722447210.140484) can0 056#01 R
(1722447210.146833) can0 007#01 R
(1722447210.155814) can0 05C#E7DAE7DA R
(1722447210.155917) can0 056#01 R
(1722447210.156049) can0 00E#E7DA R
(1722447210.170801) can0 015#01 R
(1722447210.170908) can0 016#22 R
(1722447210.171027) can0 041#01 R
(1722447210.171157) can0 00E#73DA R
(1722447210.171327) can0 05C#73DA73DA R
(1722447210.171433) can0 016#22 R
(1722447210.185899) can0 00D#47DA R
(1722447210.186031) can0 05B#47DA R
(1722447210.186148) can0 014#01 R
(1722447210.186265) can0 008#01 R
(1722447210.186382) can0 055#01 R
(1722447210.186500) can0 05D#01 R
(1722447210.197223) can0 007#01 R
(1722447210.201708) can0 00E#90D9 R
(1722447210.201863) can0 05C#90D990D9 R
(1722447210.201984) can0 041#01 R
(1722447210.202096) can0 016#21 R
(1722447210.202213) can0 015#01 R
(1722447210.202331) can0 017#01 R
(1722447210.202449) can0 056#01 R
(1722447210.217876) can0 015#01 R
(1722447210.217989) can0 016#21 R
(1722447210.218107) can0 041#01 R
(1722447210.218271) can0 05C#21D921D9 R
(1722447210.218383) can0 056#01 R
(1722447210.218514) can0 00E#21D9 R
(1722447210.233614) can0 00E#ABD8 R
(1722447210.233771) can0 05C#ABD8ABD8 R
(1722447210.233886) can0 016#21 R
(1722447210.246844) can0 007#01 R
(1722447210.248100) can0 00D#7ED8 R
(1722447210.248232) can0 05B#7ED8 R
(1722447210.248348) can0 014#01 R
(1722447210.248463) can0 008#01 R
(1722447210.248581) can0 055#01 R
(1722447210.248704) can0 05D#01 R
(1722447210.263485) can0 00E#CBD7 R
(1722447210.263637) can0 05C#CBD7CBD7 R
(1722447210.263754) can0 041#01 R
(1722447210.263867) can0 016#21 R
(1722447210.263983) can0 015#01 R
(1722447210.264101) can0 017#01 R
(1722447210.264217) can0 056#01 R
(1722447210.278916) can0 015#01 R
(1722447210.279027) can0 016#21 R
(1722447210.279195) can0 05C#53D753D7 R
(1722447210.279305) can0 056#01 R
(1722447210.294326) can0 041#01 R
(1722447210.294454) can0 00E#E2D6 R
(1722447210.294584) can0 00E#E2D6 R
(1722447210.294751) can0 05C#E2D6E2D6 R
(1722447210.296586) can0 007#01 R
(1722447210.309962) can0 00D#ADD6 R
(1722447210.310081) can0 016#21 R
(1722447210.310202) can0 05B#ADD6 R
(1722447210.310313) can0 014#01 R
(1722447210.310432) can0 008#01 R
(1722447210.310546) can0 055#01 R
(1722447210.310665) can0 05D#01 R
(1722447210.325223) can0 00E#F7D5 R
(1722447210.325383) can0 05C#F6D5F6D5 R
(1722447210.325500) can0 041#01 R
(1722447210.325617) can0 016#21 R
(1722447210.325733) can0 015#01 R
(1722447210.325852) can0 017#01 R
(1722447210.325965) can0 056#01 R
(1722447210.341289) can0 015#01 R
(1722447210.341449) can0 05C#7CD57CD5 R
(1722447210.341567) can0 056#01 R
(1722447210.341700) can0 00E#7CD5 R
(1722447210.341839) can0 00E#7CD5 R
(1722447210.347059) can0 007#01 R
(1722447210.356632) can0 016#21 R
(1722447210.356760) can0 041#01 R
(1722447210.356917) can0 05C#09D509D5 R
(1722447210.357027) can0 016#21 R
(1722447210.371855) can0 00D#D3D4 R
(1722447210.371965) can0 05B#D3D4 R
(1722447210.372087) can0 014#01 R
(1722447210.372203) can0 008#01 R
(1722447210.372319) can0 055#01 R
(1722447210.372438) can0 05D#01 R
(1722447210.387408) can0 00E#1AD4 R
(1722447210.387579) can0 05C#19D419D4 R
(1722447210.387687) can0 041#01 R
(1722447210.387805) can0 016#21 R
(1722447210.387919) can0 015#01 R
(1722447210.388037) can0 017#01 R
(1722447210.388153) can0 056#01 R
(1722447210.396953) can0 007#01 R
(1722447210.403549) can0 05C#9DD39DD3 R
(1722447210.403661) can0 056#01 R
(1722447210.403794) can0 00E#9DD3 R
(1722447210.418420) can0 015#01 R
(1722447210.418538) can0 016#20 R
(1722447210.418656) can0 041#01 R
(1722447210.418790) can0 00E#20D3 R
(1722447210.418959) can0 05C#20D320D3 R
(1722447210.419080) can0 016#20 R
(1722447210.434414) can0 00D#F1D2 R
(1722447210.434541) can0 05B#F1D2 R
(1722447210.434658) can0 014#01 R
(1722447210.434773) can0 008#01 R
(1722447210.434890) can0 055#01 R
(1722447210.435008) can0 05D#01 R
(1722447210.447061) can0 007#01 R
(1722447210.449748) can0 00E#34D2 R
(1722447210.449914) can0 05C#34D234D2 R
(1722447210.450026) can0 041#01 R
(1722447210.450147) can0 016#20 R
(1722447210.450263) can0 015#01 R
(1722447210.450380) can0 017#01 R
(1722447210.450497) can0 056#01 R
(1722447210.464685) can0 05C#B6D1B6D1 R
(1722447210.464820) can0 056#01 R
(1722447210.464923) can0 00E#B6D1 R
(1722447210.480537) can0 015#01 R
(1722447210.480653) can0 016#20 R
(1722447210.480796) can0 041#01 R
(1722447210.480904) can0 00E#3FD1 R
(1722447210.481075) can0 05C#3FD13FD1 R
(1722447210.481191) can0 016#20 R
(1722447210.495497) can0 00D#07D1 R
(1722447210.495632) can0 05B#07D1 R
(1722447210.495744) can0 014#01 R
(1722447210.495862) can0 008#01 R
(1722447210.495977) can0 055#01 R
(1722447210.496098) can0 05D#01 R
(1722447210.497353) can0 007#01 R
(1722447210.511086) can0 00E#4FD0 R
(1722447210.511257) can0 05C#4FD04FD0 R
(1722447210.511372) can0 041#01 R
(1722447210.511494) can0 016#20 R
(1722447210.511608) can0 015#01 R
(1722447210.511727) can0 017#01 R
(1722447210.511842) can0 056#01 R
(1722447210.526226) can0 015#01 R
(1722447210.526344) can0 016#20 R
(1722447210.526461) can0 041#01 R
(1722447210.526635) can0 05C#CFCFCFCF R
(1722447210.526746) can0 056#01 R
(1722447210.541355) can0 00E#56CF R
(1722447210.541482) can0 00E#56CF R
(1722447210.541647) can0 05C#56CF56CF R
(1722447210.546402) can0 007#01 R
(1722447210.556938) can0 00D#1DCF R
(1722447210.557058) can0 016#20 R
(1722447210.557190) can0 05B#1DCF R
(1722447210.557315) can0 014#01 R
(1722447210.557421) can0 008#01 R
(1722447210.557537) can0 055#01 R
(1722447210.557656) can0 05D#01 R
(1722447210.572630) can0 00E#5ACE R
(1722447210.572819) can0 05C#5ACE5ACE R
(1722447210.572885) can0 041#01 R
(1722447210.573029) can0 016#20 R
(1722447210.573143) can0 015#01 R
(1722447210.573262) can0 017#01 R
(1722447210.573376) can0 056#01 R
(1722447210.587200) can0 015#01 R
(1722447210.587314) can0 016#20 R
(1722447210.587482) can0 05C#E0CDE0CD R
(1722447210.587596) can0 056#01 R
(1722447210.587730) can0 00E#E0CD R
(1722447210.587868) can0 00E#E0CD R
(1722447210.596639) can0 007#01 R
(1722447210.602929) can0 041#01 R
(1722447210.603093) can0 05C#5DCD5DCD R
(1722447210.603210) can0 016#20 R
(1722447210.617950) can0 00D#2CCD R
(1722447210.618074) can0 05B#2CCD R
(1722447210.618196) can0 014#01 R
(1722447210.618306) can0 008#01 R
(1722447210.618428) can0 055#01 R
(1722447210.618539) can0 05D#01 R
(1722447210.632651) can0 00E#66CC R
(1722447210.632814) can0 05C#66CC66CC R
(1722447210.632929) can0 041#01 R
(1722447210.633038) can0 016#1F R
(1722447210.633155) can0 015#01 R
(1722447210.633272) can0 017#01 R
(1722447210.633388) can0 056#01 R
(1722447210.646431) can0 007#01 R
(1722447210.647791) can0 015#01 R
(1722447210.647958) can0 05C#EACBEACB R
(1722447210.648068) can0 056#01 R
(1722447210.648201) can0 00E#EACB R
(1722447210.663030) can0 016#1F R
(1722447210.663142) can0 041#01 R
(1722447210.663276) can0 00E#6ECB R
(1722447210.663443) can0 05C#6DCB6DCB R
(1722447210.663556) can0 016#1F R
(1722447210.678702) can0 00D#33CB R
(1722447210.678823) can0 05B#33CB R
(1722447210.678937) can0 014#01 R
(1722447210.679053) can0 008#01 R
(1722447210.679169) can0 055#01 R
(1722447210.679287) can0 05D#01 R
(1722447210.693625) can0 00E#73CA R
(1722447210.693782) can0 05C#73CA73CA R
(1722447210.693903) can0 041#01 R
(1722447210.694018) can0 016#1F R
(1722447210.694137) can0 015#01 R
(1722447210.694254) can0 017#01 R
(1722447210.694371) can0 056#01 R
(1722447210.696787) can0 007#01 R
(1722447210.708519) can0 05C#EDC9EDC9 R
(1722447210.708632) can0 056#01 R
(1722447210.708786) can0 00E#EDC9 R
(1722447210.725091) can0 015#01 R
(1722447210.725204) can0 016#1F R
(1722447210.725323) can0 041#01 R
(1722447210.725455) can0 00E#66C9 R
(1722447210.725622) can0 05C#66C966C9 R
(1722447210.725734) can0 016#1F R
(1722447210.740363) can0 00D#34C9 R
(1722447210.740491) can0 05B#34C9 R
(1722447210.740605) can0 014#01 R
(1722447210.740721) can0 008#01 R
(1722447210.740841) can0 055#01 R
(1722447210.740955) can0 05D#01 R
(1722447210.746642) can0 007#01 R
(1722447210.756139) can0 00E#68C8 R
(1722447210.756297) can0 05C#68C868C8 R
(1722447210.756417) can0 041#01 R
(1722447210.756532) can0 016#1F R
(1722447210.756648) can0 015#01 R
(1722447210.756790) can0 017#01 R
(1722447210.756886) can0 056#01 R
(1722447210.770257) can0 05C#E9C7E9C7 R
(1722447210.770369) can0 056#01 R
(1722447210.785732) can0 015#01 R
(1722447210.785835) can0 016#1F R
(1722447210.785954) can0 041#01 R
(1722447210.786088) can0 00E#60C7 R
(1722447210.786222) can0 00E#60C7 R
(1722447210.786392) can0 05C#60C760C7 R
(1722447210.799990) can0 007#01 R
(1722447210.801158) can0 016#1F R
(1722447210.801288) can0 00D#25C7 R
(1722447210.801424) can0 05B#25C7 R
(1722447210.801533) can0 014#01 R
(1722447210.801652) can0 008#01 R
(1722447210.801766) can0 055#01 R
(1722447210.801886) can0 05D#01 R
(1722447210.817059) can0 00E#57C6 R
(1722447210.817227) can0 05C#57C657C6 R
(1722447210.817342) can0 041#01 R
(1722447210.817457) can0 016#1E R
(1722447210.817571) can0 015#01 R
(1722447210.817692) can0 017#01 R
(1722447210.817806) can0 056#01 R
(1722447210.832579) can0 015#01 R
(1722447210.832686) can0 016#1E R
(1722447210.832821) can0 041#01 R
(1722447210.832969) can0 05C#D5C5D5C5 R
(1722447210.833083) can0 056#01 R
(1722447210.833215) can0 00E#D5C5 R
(1722447210.833344) can0 00E#D5C5 R
(1722447210.847608) can0 05C#4BC54BC5 R
(1722447210.847717) can0 016#1E R
(1722447210.849590) can0 007#01 R
(1722447210.863188) can0 00D#17C5 R
(1722447210.863318) can0 05B#17C5 R
(1722447210.863433) can0 014#01 R
(1722447210.863549) can0 008#01 R
(1722447210.863666) can0 055#01 R
(1722447210.863783) can0 05D#01 R
(1722447210.879184) can0 00E#47C4 R
(1722447210.879351) can0 05C#47C447C4 R
(1722447210.879467) can0 041#01 R
(1722447210.879581) can0 016#1E R
(1722447210.879696) can0 015#01 R
(1722447210.879818) can0 017#01 R
(1722447210.879929) can0 056#01 R
(1722447210.894524) can0 015#01 R
(1722447210.894611) can0 016#1E R
(1722447210.894787) can0 05C#B2C3B2C3 R
(1722447210.894900) can0 056#01 R
(1722447210.895033) can0 00E#B2C3 R
(1722447210.900027) can0 007#01 R
(1722447210.910090) can0 041#01 R
(1722447210.910220) can0 00E#2FC3 R
(1722447210.910393) can0 05C#2FC32FC3 R
(1722447210.910500) can0 016#1E R
(1722447210.925508) can0 00D#F2C2 R
(1722447210.925639) can0 05B#F2C2 R
(1722447210.925753) can0 014#01 R
(1722447210.925870) can0 008#01 R
(1722447210.925986) can0 055#01 R
(1722447210.926104) can0 05D#01 R
(1722447210.941057) can0 00E#1FC2 R
(1722447210.941229) can0 05C#1FC21FC2 R
(1722447210.941341) can0 041#01 R
(1722447210.941454) can0 016#1E R
(1722447210.941571) can0 015#01 R
(1722447210.941689) can0 017#01 R
(1722447210.941805) can0 056#01 R
(1722447210.950078) can0 007#01 R
(1722447210.956752) can0 015#01 R
(1722447210.956897) can0 05C#9AC19AC1 R
(1722447210.957014) can0 056#01 R
(1722447210.957146) can0 00E#9AC1 R
(1722447210.971931) can0 016#1E R
(1722447210.972052) can0 041#01 R
(1722447210.972181) can0 00E#0DC1 R
(1722447210.972350) can0 05C#0DC10DC1 R
(1722447210.972462) can0 016#1E R
(1722447210.986633) can0 00D#D8C0 R
(1722447210.986765) can0 05B#D8C0 R
(1722447210.986876) can0 014#01 R
(1722447210.986995) can0 008#01 R
(1722447210.987109) can0 055#01 R
(1722447210.987229) can0 05D#01 R
(1722447210.999505) can0 007#01 R
(1722447211.002092) can0 00E#02C0 R
(1722447211.002263) can0 05C#02C002C0 R
(1722447211.002376) can0 041#01 R
(1722447211.002491) can0 016#1E R
(1722447211.002607) can0 015#01 R
(1722447211.002725) can0 017#01 R
(1722447211.002841) can0 056#01 R
(1722447211.017520) can0 05C#7CBF7CBF R
(1722447211.017633) can0 056#01 R
(1722447211.033166) can0 015#01 R
(1722447211.033277) can0 016#1D R
(1722447211.033396) can0 041#01 R
(1722447211.033531) can0 00E#EDBE R
(1722447211.033665) can0 00E#EDBE R
(1722447211.033835) can0 05C#EDBEEDBE R
(1722447211.048537) can0 00D#B7BE R
(1722447211.048674) can0 05B#B7BE R
(1722447211.048812) can0 014#01 R
(1722447211.048908) can0 008#01 R
(1722447211.049012) can0 016#1D R
(1722447211.049130) can0 055#01 R
(1722447211.049247) can0 05D#01 R
(1722447211.050652) can0 007#01 R
(1722447211.064652) can0 00E#D6BD R
(1722447211.064835) can0 05C#D6BDD6BD R
(1722447211.064892) can0 041#01 R
(1722447211.065033) can0 016#1D R
(1722447211.065146) can0 015#01 R
(1722447211.065263) can0 017#01 R
(1722447211.065378) can0 056#01 R
(1722447211.079449) can0 05C#46BD46BD R
(1722447211.079566) can0 056#01 R
(1722447211.079691) can0 00E#46BD R
(1722447211.079823) can0 00E#46BD R
(1722447211.095303) can0 015#01 R
(1722447211.095413) can0 016#1D R
(1722447211.095527) can0 041#01 R
(1722447211.095696) can0 05C#BEBCBEBC R
(1722447211.095815) can0 016#1D R
(1722447211.100790) can0 007#01 R
(1722447211.111426) can0 00D#7FBC R
(1722447211.111556) can0 05B#7FBC R
(1722447211.111672) can0 014#01 R
(1722447211.111787) can0 008#01 R
(1722447211.111904) can0 055#01 R
(1722447211.112021) can0 05D#01 R
(1722447211.127197) can0 00E#9BBB R
(1722447211.127367) can0 05C#9BBB9BBB R
(1722447211.127474) can0 041#01 R
(1722447211.127589) can0 016#1D R
(1722447211.127705) can0 015#01 R
(1722447211.127822) can0 017#01 R
(1722447211.127939) can0 056#01 R
(1722447211.142737) can0 015#01 R
(1722447211.142810) can0 016#1D R
(1722447211.142957) can0 041#01 R
(1722447211.143129) can0 05C#09BB09BB R
(1722447211.143233) can0 056#01 R
(1722447211.143370) can0 00E#09BB R
(1722447211.151229) can0 007#01 R
(1722447211.157811) can0 00E#80BA R
(1722447211.157981) can0 05C#80BA80BA R
(1722447211.158085) can0 016#1D R
(1722447211.173437) can0 00D#49BA R
(1722447211.173572) can0 05B#49BA R
(1722447211.173681) can0 014#01 R
(1722447211.173803) can0 008#01 R
(1722447211.173913) can0 055#01 R
(1722447211.174032) can0 05D#01 R
(1722447211.188673) can0 00E#6DB9 R
(1722447211.188831) can0 05C#6DB96DB9 R
(1722447211.188950) can0 041#01 R
(1722447211.189059) can0 016#1C R
(1722447211.189178) can0 015#01 R
(1722447211.189320) can0 017#01 R
(1722447211.189416) can0 056#01 R
(1722447211.201060) can0 007#01 R
(1722447211.204603) can0 015#01 R
(1722447211.204716) can0 016#1C R
(1722447211.204889) can0 05C#DAB8D9B8 R
(1722447211.204999) can0 056#01 R
(1722447211.205131) can0 00E#DAB8 R
(1722447211.219577) can0 041#01 R
(1722447211.219705) can0 00E#46B8 R
(1722447211.219872) can0 05C#46B846B8 R
(1722447211.219982) can0 016#1C R
(1722447211.235196) can0 00D#0EB8 R
(1722447211.235330) can0 05B#0EB8 R
(1722447211.235443) can0 014#01 R
(1722447211.235558) can0 008#01 R
(1722447211.235675) can0 055#01 R
(1722447211.235793) can0 05D#01 R
(1722447211.251025) can0 007#01 R
(1722447211.251236) can0 00E#27B7 R
(1722447211.251401) can0 05C#26B726B7 R
(1722447211.251514) can0 041#01 R
(1722447211.251629) can0 016#1C R
(1722447211.251749) can0 015#01 R
(1722447211.251866) can0 017#01 R
(1722447211.251982) can0 056#01 R
(1722447211.266754) can0 015#01 R
(1722447211.266926) can0 05C#92B692B6 R
(1722447211.267031) can0 056#01 R
(1722447211.282042) can0 016#1C R
(1722447211.282154) can0 041#01 R
(1722447211.282290) can0 00E#06B6 R
(1722447211.282422) can0 00E#06B6 R
(1722447211.282590) can0 05C#06B606B6 R
(1722447211.297943) can0 00D#C5B5 R
(1722447211.298054) can0 016#1C R
(1722447211.298189) can0 05B#C5B5 R
(1722447211.298303) can0 014#01 R
(1722447211.298419) can0 008#01 R
(1722447211.298535) can0 055#01 R
(1722447211.298654) can0 05D#01 R
(1722447211.300492) can0 007#01 R
(1722447211.312769) can0 00E#E4B4 R
(1722447211.312875) can0 05C#E4B4E4B4 R
(1722447211.312998) can0 041#01 R
(1722447211.313114) can0 016#1C R
(1722447211.313228) can0 015#01 R
(1722447211.313347) can0 017#01 R
(1722447211.313463) can0 056#01 R
(1722447211.328123) can0 05C#57B457B4 R
(1722447211.328236) can0 056#01 R
(1722447211.328369) can0 00E#57B4 R
(1722447211.328500) can0 00E#57B4 R
(1722447211.343597) can0 015#01 R
(1722447211.343711) can0 016#1C R
(1722447211.343829) can0 041#01 R
(1722447211.343994) can0 05C#CAB3CAB3 R
(1722447211.344107) can0 016#1C R
(1722447211.350655) can0 007#01 R
(1722447211.359336) can0 00D#7FB3 R
(1722447211.359468) can0 05B#7FB3 R
(1722447211.359583) can0 014#01 R
(1722447211.359698) can0 008#01 R
(1722447211.359816) can0 055#01 R
(1722447211.359933) can0 05D#01 R
(1722447211.374932) can0 00E#9CB2 R
(1722447211.375091) can0 05C#9CB29CB2 R
(1722447211.375211) can0 041#01 R
(1722447211.375327) can0 016#1B R
(1722447211.375444) can0 015#01 R
(1722447211.375567) can0 017#01 R
(1722447211.375678) can0 056#01 R
(1722447211.390861) can0 05C#0EB20EB2 R
(1722447211.390975) can0 056#01 R
(1722447211.391110) can0 00E#0EB2 R
(1722447211.405096) can0 007#01 R
(1722447211.405211) can0 015#01 R
(1722447211.405328) can0 016#1B R
(1722447211.405445) can0 041#01 R
(1722447211.405579) can0 00E#80B1 R
(1722447211.405746) can0 05C#80B180B1 R
(1722447211.405862) can0 016#1B R
(1722447211.421053) can0 00D#3DB1 R
(1722447211.421178) can0 05B#3DB1 R
(1722447211.421300) can0 014#01 R
(1722447211.421400) can0 008#01 R
(1722447211.421522) can0 055#01 R
(1722447211.421636) can0 05D#01 R
(1722447211.436472) can0 00E#59B0 R
(1722447211.436637) can0 05C#59B059B0 R
(1722447211.436785) can0 041#01 R
(1722447211.436882) can0 016#1B R
(1722447211.436991) can0 015#01 R
(1722447211.437109) can0 017#01 R
(1722447211.437226) can0 056#01 R
(1722447211.451245) can0 015#01 R
(1722447211.451362) can0 016#1B R
(1722447211.451479) can0 041#01 R
(1722447211.451651) can0 05C#CAAFCAAF R
(1722447211.451763) can0 056#01 R
(1722447211.451897) can0 00E#CAAF R
(1722447211.453260) can0 007#01 R
(1722447211.466853) can0 00E#31AF R
(1722447211.467015) can0 05C#31AF31AF R
(1722447211.467126) can0 016#1B R
(1722447211.481880) can0 00D#F8AE R
(1722447211.482011) can0 05B#F8AE R
(1722447211.482123) can0 014#01 R
(1722447211.482240) can0 008#01 R
(1722447211.482355) can0 055#01 R
(1722447211.482475) can0 05D#01 R
(1722447211.496955) can0 00E#11AE R
(1722447211.497119) can0 05C#11AE11AE R
(1722447211.497231) can0 041#01 R
(1722447211.497351) can0 016#1B R
(1722447211.497465) can0 015#01 R
(1722447211.497585) can0 017#01 R
(1722447211.497702) can0 056#01 R
(1722447211.504128) can0 007#01 R
(1722447211.512772) can0 015#01 R
(1722447211.512842) can0 016#1B R
(1722447211.513023) can0 05C#81AD81AD R
(1722447211.513133) can0 056#01 R
(1722447211.527715) can0 041#01 R
(1722447211.527820) can0 00E#F1AC R
(1722447211.527937) can0 00E#F1AC R
(1722447211.528083) can0 05C#F1ACF1AC R
(1722447211.543674) can0 016#1A R
(1722447211.543816) can0 00D#A4AC R
(1722447211.543939) can0 05B#A4AC R
(1722447211.544059) can0 014#01 R
(1722447211.544169) can0 008#01 R
(1722447211.544286) can0 055#01 R
(1722447211.544404) can0 05D#01 R
(1722447211.553978) can0 007#01 R
(1722447211.559260) can0 00E#BCAB R
(1722447211.559429) can0 05C#BCABBCAB R
(1722447211.559537) can0 041#01 R
(1722447211.559654) can0 016#1A R
(1722447211.559769) can0 015#01 R
(1722447211.559887) can0 017#01 R
(1722447211.560002) can0 056#01 R
(1722447211.574510) can0 015#01 R
(1722447211.574675) can0 05C#21AB21AB R
(1722447211.574786) can0 056#01 R
(1722447211.574916) can0 00E#21AB R
(1722447211.575047) can0 00E#21AB R
(1722447211.589588) can0 016#1A R
(1722447211.589706) can0 041#01 R
(1722447211.589876) can0 05C#8FAA8FAA R
(1722447211.589988) can0 016#1A R
(1722447211.604201) can0 007#01 R
(1722447211.604330) can0 00D#55AA R
(1722447211.604467) can0 05B#55AA R
(1722447211.604579) can0 014#01 R
(1722447211.604693) can0 008#01 R
(1722447211.604828) can0 055#01 R
(1722447211.604927) can0 05D#01 R
(1722447211.620388) can0 00E#6CA9 R
(1722447211.620549) can0 05C#6CA96CA9 R
(1722447211.620672) can0 041#01 R
(1722447211.620805) can0 016#1A R
(1722447211.620900) can0 015#01 R
(1722447211.621014) can0 017#01 R
(1722447211.621130) can0 056#01 R
(1722447211.635737) can0 05C#D9A8D9A8 R
(1722447211.635840) can0 056#01 R
(1722447211.635969) can0 00E#D9A8 R
(1722447211.650473) can0 015#01 R
(1722447211.650586) can0 016#1A R
(1722447211.650703) can0 041#01 R
(1722447211.650834) can0 00E#3DA8 R
(1722447211.651005) can0 05C#3DA83DA8 R
(1722447211.651114) can0 016#1A R
(1722447211.654077) can0 007#01 R
(1722447211.666656) can0 00D#F9A7 R
(1722447211.666786) can0 05B#F9A7 R
(1722447211.666901) can0 014#01 R
(1722447211.667016) can0 008#01 R
(1722447211.667133) can0 055#01 R
(1722447211.667250) can0 05D#01 R
(1722447211.681975) can0 00E#0EA7 R
(1722447211.682138) can0 05C#0EA70EA7 R
(1722447211.682784) can0 041#01 R
(1722447211.682900) can0 016#1A R
(1722447211.683022) can0 015#01 R
(1722447211.683135) can0 017#01 R
(1722447211.683250) can0 056#01 R
(1722447211.696570) can0 05C#7BA67AA6 R
(1722447211.696681) can0 056#01 R
(1722447211.696815) can0 00E#7BA6 R
(1722447211.704423) can0 007#01 R
(1722447211.711846) can0 015#01 R
(1722447211.711955) can0 016#19 R
(1722447211.712074) can0 041#01 R
(1722447211.712205) can0 00E#E7A5 R
(1722447211.712371) can0 05C#E7A5E7A5 R
(1722447211.712486) can0 016#19 R
(1722447211.726695) can0 00D#ACA5 R
(1722447211.726821) can0 05B#ACA5 R
(1722447211.727416) can0 014#01 R
(1722447211.727530) can0 008#01 R
(1722447211.727646) can0 055#01 R
(1722447211.727764) can0 05D#01 R
(1722447211.742291) can0 00E#C0A4 R
(1722447211.742439) can0 05C#C0A4C0A4 R
(1722447211.742557) can0 041#01 R
(1722447211.742670) can0 016#19 R
(1722447211.742787) can0 015#01 R
(1722447211.742904) can0 017#01 R
(1722447211.743021) can0 056#01 R
(1722447211.753588) can0 007#01 R
(1722447211.757815) can0 015#01 R
(1722447211.757926) can0 016#19 R
(1722447211.758045) can0 041#01 R
(1722447211.758223) can0 05C#22A422A4 R
(1722447211.758329) can0 056#01 R
(1722447211.773320) can0 00E#8EA3 R
(1722447211.773427) can0 00E#8EA3 R
(1722447211.773591) can0 05C#8EA38EA3 R
(1722447211.788809) can0 00D#48A3 R
(1722447211.788919) can0 016#19 R
(1722447211.789050) can0 05B#48A3 R
(1722447211.789175) can0 014#01 R
(1722447211.789280) can0 008#01 R
(1722447211.789397) can0 055#01 R
(1722447211.789516) can0 05D#01 R
(1722447211.804351) can0 007#01 R
(1722447211.804484) can0 00E#5BA2 R
(1722447211.804646) can0 05C#5BA25BA2 R
(1722447211.804789) can0 041#01 R
(1722447211.804865) can0 016#19 R
(1722447211.804996) can0 015#01 R
(1722447211.805112) can0 017#01 R
(1722447211.805232) can0 056#01 R
(1722447211.820617) can0 015#01 R
(1722447211.820727) can0 016#19 R
(1722447211.820908) can0 05C#BCA1BCA1 R
(1722447211.821006) can0 056#01 R
(1722447211.821140) can0 00E#BCA1 R
(1722447211.821268) can0 00E#BCA1 R
(1722447211.836237) can0 041#01 R
(1722447211.836400) can0 05C#1DA11DA1 R
(1722447211.836510) can0 016#19 R
(1722447211.852383) can0 00D#D7A0 R
(1722447211.852506) can0 05B#D7A0 R
(1722447211.852614) can0 014#01 R
(1722447211.852759) can0 008#01 R
(1722447211.852822) can0 055#01 R
(1722447211.852970) can0 05D#01 R
(1722447211.854880) can0 007#01 R
(1722447211.867707) can0 00E#E89F R
(1722447211.867875) can0 05C#E89FE89F R
(1722447211.867986) can0 041#01 R
(1722447211.868103) can0 016#18 R
(1722447211.868219) can0 015#01 R
(1722447211.868336) can0 017#01 R
(1722447211.868452) can0 056#01 R
(1722447211.882414) can0 05C#499F499F R
(1722447211.882547) can0 00E#499F R
(1722447211.897533) can0 015#01 R
(1722447211.897722) can0 016#18 R
(1722447211.897838) can0 041#01 R
(1722447211.897954) can0 056#01 R
(1722447211.898087) can0 00E#B39E R
(1722447211.898251) can0 05C#B39EB39E R
(1722447211.898364) can0 016#18 R
(1722447211.905392) can0 007#01 R
(1722447211.912829) can0 00D#779E R
(1722447211.912956) can0 05B#779E R
(1722447211.913076) can0 014#01 R
(1722447211.913187) can0 008#01 R
(1722447211.913309) can0 055#01 R
(1722447211.913421) can0 05D#01 R
(1722447211.928935) can0 00E#7D9D R
(1722447211.929099) can0 05C#7D9D7D9D R
(1722447211.929219) can0 041#01 R
(1722447211.929334) can0 016#18 R
(1722447211.929453) can0 015#01 R
(1722447211.929568) can0 017#01 R
(1722447211.929685) can0 056#01 R
(1722447211.944044) can0 015#01 R
(1722447211.944155) can0 016#18 R
(1722447211.944278) can0 041#01 R
(1722447211.944407) can0 00E#E69C R
(1722447211.954948) can0 007#01 R
(1722447211.960027) can0 05C#469C469C R
(1722447211.960143) can0 056#01 R
(1722447211.960275) can0 00E#469C R
(1722447211.960439) can0 05C#469C469C R
(1722447211.960550) can0 016#18 R
(1722447211.974895) can0 00D#0A9C R
(1722447211.975026) can0 05B#0A9C R
(1722447211.975137) can0 014#01 R
(1722447211.975254) can0 008#01 R
(1722447211.975369) can0 055#01 R
(1722447211.975488) can0 05D#01 R
(1722447211.990640) can0 00E#0E9B R
(1722447211.990806) can0 05C#0E9B0E9B R
(1722447211.990921) can0 041#01 R
(1722447211.991037) can0 016#18 R
(1722447211.991153) can0 015#01 R
(1722447211.991272) can0 017#01 R
(1722447211.991389) can0 056#01 R
(1722447212.005238) can0 007#01 R
(1722447212.006494) can0 015#01 R
(1722447212.006772) can0 016#18 R
(1722447212.006888) can0 041#01 R
(1722447212.007048) can0 05C#779A779A R
(1722447212.007166) can0 056#01 R
(1722447212.007296) can0 00E#779A R
(1722447212.007429) can0 00E#779A R
(1722447212.007589) can0 05C#779A779A R
(1722447212.021722) can0 016#18 R
(1722447212.036975) can0 00D#9999 R
(1722447212.037110) can0 05B#9999 R
(1722447212.037230) can0 014#01 R
(1722447212.037339) can0 008#01 R
(1722447212.037456) can0 055#01 R
(1722447212.037576) can0 05D#01 R
(1722447212.052188) can0 00E#A798 R
(1722447212.052345) can0 05C#A798A798 R
(1722447212.052461) can0 041#01 R
(1722447212.052578) can0 016#17 R
(1722447212.052698) can0 015#01 R
(1722447212.052843) can0 017#01 R
(1722447212.052941) can0 056#01 R
(1722447212.055004) can0 007#01 R
(1722447212.067189) can0 05C#10981098 R
(1722447212.067296) can0 056#01 R
(1722447212.067434) can0 00E#1098 R
(1722447212.067559) can0 00E#1098 R
(1722447212.083086) can0 015#01 R
(1722447212.083198) can0 016#17 R
(1722447212.083315) can0 041#01 R
(1722447212.083481) can0 05C#6E976E97 R
(1722447212.083591) can0 016#17 R
(1722447212.097934) can0 00D#3197 R
(1722447212.098061) can0 05B#3197 R
(1722447212.098177) can0 014#01 R
(1722447212.098293) can0 008#01 R
(1722447212.098409) can0 055#01 R
(1722447212.098529) can0 05D#01 R
(1722447212.104765) can0 007#01 R
(1722447212.113042) can0 00E#3E96 R
(1722447212.113210) can0 05C#3E963E96 R
(1722447212.113322) can0 041#01 R
(1722447212.113436) can0 016#17 R
(1722447212.113553) can0 015#01 R
(1722447212.113670) can0 017#01 R
(1722447212.113787) can0 056#01 R
(1722447212.128233) can0 015#01 R
(1722447212.128346) can0 016#17 R
(1722447212.128462) can0 041#01 R
(1722447212.128630) can0 05C#A695A695 R
(1722447212.128757) can0 056#01 R
(1722447212.128872) can0 00E#A695 R
(1722447212.144549) can0 00E#0395 R
(1722447212.144712) can0 05C#03950395 R
(1722447212.144801) can0 016#17 R
(1722447212.158929) can0 007#01 R
(1722447212.159050) can0 00D#C694 R
(1722447212.159182) can0 05B#C694 R
(1722447212.159298) can0 014#01 R
(1722447212.159413) can0 008#01 R
(1722447212.159529) can0 055#01 R
(1722447212.159647) can0 05D#01 R
(1722447212.174899) can0 00E#C893 R
(1722447212.175064) can0 05C#C893C893 R
(1722447212.175177) can0 041#01 R
(1722447212.175288) can0 016#17 R
(1722447212.175404) can0 015#01 R
(1722447212.175522) can0 017#01 R
(1722447212.175638) can0 056#01 R
(1722447212.190733) can0 015#01 R
(1722447212.190899) can0 05C#30933093 R
(1722447212.191008) can0 056#01 R
(1722447212.191146) can0 00E#3093 R
(1722447212.206170) can0 016#16 R
(1722447212.206286) can0 041#01 R
(1722447212.206418) can0 00E#8D92 R
(1722447212.206584) can0 05C#8D928D92 R
(1722447212.206692) can0 016#16 R
(1722447212.218102) can0 007#01 R
(1722447212.221326) can0 00D#4692 R
(1722447212.221436) can0 05B#4692 R
(1722447212.221879) can0 014#01 R
(1722447212.221991) can0 008#01 R
(1722447212.222110) can0 055#01 R
(1722447212.222227) can0 05D#01 R
(1722447212.236478) can0 00E#5191 R
(1722447212.236640) can0 05C#51915191 R
(1722447212.236778) can0 041#01 R
(1722447212.236873) can0 016#16 R
(1722447212.236986) can0 015#01 R
(1722447212.237104) can0 017#01 R
(1722447212.237221) can0 056#01 R
(1722447212.237384) can0 05C#51915191 R
(1722447212.251750) can0 015#01 R
(1722447212.251860) can0 016#16 R
(1722447212.251979) can0 041#01 R
(1722447212.252096) can0 056#01 R
(1722447212.252228) can0 00E#B890 R
(1722447212.252361) can0 00E#B890 R
(1722447212.252524) can0 05C#B890B890 R
(1722447212.252635) can0 016#16 R
(1722447212.268003) can0 007#01 R
(1722447212.283476) can0 00D#CD8F R
(1722447212.283608) can0 05B#CD8F R
(1722447212.283719) can0 014#01 R
(1722447212.283838) can0 008#01 R
(1722447212.283953) can0 055#01 R
(1722447212.284072) can0 05D#01 R
(1722447212.298504) can0 00E#D88E R
(1722447212.298662) can0 05C#D88ED88E R
(1722447212.298780) can0 041#01 R
(1722447212.298892) can0 016#16 R
(1722447212.299010) can0 015#01 R
(1722447212.299127) can0 017#01 R
(1722447212.299244) can0 056#01 R
(1722447212.313843) can0 015#01 R
(1722447212.314020) can0 00E#3E8E R
(1722447212.314149) can0 00E#3E8E R
(1722447212.317975) can0 007#01 R
(1722447212.329373) can0 016#16 R
(1722447212.329555) can0 041#01 R
(1722447212.329718) can0 05C#A58DA58D R
(1722447212.329830) can0 056#01 R
(1722447212.329995) can0 05C#A58DA58D R
(1722447212.330107) can0 016#16 R
(1722447212.345226) can0 00D#5D8D R
(1722447212.345354) can0 05B#5D8D R
(1722447212.345471) can0 014#01 R
(1722447212.345587) can0 008#01 R
(1722447212.345705) can0 055#01 R
(1722447212.345824) can0 05D#01 R
(1722447212.361502) can0 00E#5D8C R
(1722447212.361673) can0 05C#5D8C5D8C R
(1722447212.361781) can0 041#01 R
(1722447212.361899) can0 016#15 R
(1722447212.362014) can0 015#01 R
(1722447212.362133) can0 017#01 R
(1722447212.362247) can0 056#01 R
(1722447212.368725) can0 007#01 R
(1722447212.377340) can0 00E#B98B R
(1722447212.392233) can0 015#01 R
(1722447212.392350) can0 016#15 R
(1722447212.392466) can0 041#01 R
(1722447212.392641) can0 05C#1F8B1F8B R
(1722447212.392759) can0 056#01 R
(1722447212.392889) can0 00E#1F8B R
(1722447212.393058) can0 05C#1F8B1F8B R
(1722447212.393172) can0 016#15 R
(1722447212.407597) can0 00D#E28A R
(1722447212.407723) can0 05B#E28A R
(1722447212.407839) can0 014#01 R
(1722447212.407955) can0 008#01 R
(1722447212.408072) can0 055#01 R
(1722447212.408188) can0 05D#01 R
(1722447212.419322) can0 007#01 R
(1722447212.423486) can0 00E#E189 R
(1722447212.423712) can0 05C#E189E189 R
(1722447212.423828) can0 041#01 R
(1722447212.423950) can0 016#15 R
(1722447212.424060) can0 015#01 R
(1722447212.424184) can0 017#01 R
(1722447212.424294) can0 056#01 R
(1722447212.438605) can0 00E#3D89 R
(1722447212.453666) can0 015#01 R
(1722447212.453854) can0 016#15 R
(1722447212.453970) can0 041#01 R
(1722447212.454136) can0 05C#A388A388 R
(1722447212.454249) can0 056#01 R
(1722447212.454381) can0 00E#A388 R
(1722447212.454551) can0 05C#A388A388 R
(1722447212.454658) can0 016#15 R
(1722447212.469376) can0 007#01 R
(1722447212.469505) can0 00D#6588 R
(1722447212.469631) can0 05B#6588 R
(1722447212.469748) can0 014#01 R
(1722447212.469862) can0 008#01 R
(1722447212.469979) can0 055#01 R
(1722447212.470097) can0 05D#01 R
(1722447212.484322) can0 00E#6F87 R
(1722447212.484495) can0 05C#6F876F87 R
(1722447212.484607) can0 041#01 R
(1722447212.484725) can0 016#15 R
(1722447212.484821) can0 015#01 R
(1722447212.484962) can0 017#01 R
(1722447212.485076) can0 056#01 R
(1722447212.499752) can0 015#01 R
(1722447212.500412) can0 016#15 R
(1722447212.500526) can0 041#01 R
(1722447212.514853) can0 05C#30863086 R
(1722447212.514967) can0 056#01 R
(1722447212.515098) can0 00E#3086 R
(1722447212.515229) can0 00E#3086 R
(1722447212.515396) can0 05C#30863086 R
(1722447212.519128) can0 007#01 R
(1722447212.530153) can0 016#14 R
(1722447212.530284) can0 00D#E885 R
(1722447212.530429) can0 05B#E885 R
(1722447212.530532) can0 014#01 R
(1722447212.530646) can0 008#01 R
(1722447212.530763) can0 055#01 R
(1722447212.530881) can0 05D#01 R
(1722447212.545934) can0 00E#F184 R
(1722447212.546111) can0 05C#F184F184 R
(1722447212.546224) can0 041#01 R
(1722447212.546338) can0 016#14 R
(1722447212.546454) can0 015#01 R
(1722447212.546575) can0 017#01 R
(1722447212.546688) can0 056#01 R
(1722447212.546811) can0 015#01 R
(1722447212.546920) can0 016#14 R
(1722447212.547058) can0 00E#F184 R
(1722447212.547187) can0 00E#F184 R
(1722447212.561508) can0 041#01 R
(1722447212.561677) can0 05C#4D844D84 R
(1722447212.561785) can0 056#01 R
(1722447212.561956) can0 05C#4D844D84 R
(1722447212.562062) can0 016#14 R
(1722447212.579158) can0 007#01 R
(1722447212.591577) can0 00D#7583 R
(1722447212.591703) can0 05B#7583 R
(1722447212.591823) can0 014#01 R
(1722447212.591933) can0 008#01 R
(1722447212.592051) can0 055#01 R
(1722447212.592167) can0 05D#01 R
(1722447212.606558) can0 00E#7E82 R
(1722447212.606722) can0 05C#7E827E82 R
(1722447212.606840) can0 041#01 R
(1722447212.606954) can0 016#14 R
(1722447212.607070) can0 015#01 R
(1722447212.607188) can0 017#01 R
(1722447212.607304) can0 056#01 R
(1722447212.621730) can0 05C#E381E381 R
(1722447212.621842) can0 056#01 R
(1722447212.621981) can0 00E#E381 R
(1722447212.629035) can0 007#01 R
(1722447212.636589) can0 015#01 R
(1722447212.636800) can0 016#14 R
(1722447212.636865) can0 041#01 R
(1722447212.637027) can0 00E#5381 R
(1722447212.637203) can0 05C#53815381 R
(1722447212.637331) can0 016#14 R
(1722447212.651960) can0 00D#0B81 R
(1722447212.652172) can0 05B#0B81 R
(1722447212.652283) can0 014#01 R
(1722447212.652401) can0 008#01 R
(1722447212.652516) can0 055#01 R
(1722447212.652636) can0 05D#01 R
(1722447212.666854) can0 00E#1E80 R
(1722447212.667029) can0 05C#1E801E80 R
(1722447212.667141) can0 041#01 R
(1722447212.667256) can0 016#14 R
(1722447212.667371) can0 015#01 R
(1722447212.667491) can0 017#01 R
(1722447212.667605) can0 056#01 R
(1722447212.681421) can0 007#00 R
(1722447212.681528) can0 015#00 R
(1722447212.681639) can0 016#13 R
(1722447212.681759) can0 041#00 R
(1722447212.681930) can0 05C#7A7F797F R
(1722447212.682050) can0 056#00 R
(1722447212.682212) can0 00E#7A7F R
(1722447212.697240) can0 00E#DF7E R
(1722447212.697409) can0 05C#DF7EDF7E R
(1722447212.697520) can0 016#13 R
(1722447212.713259) can0 00D#977E R
(1722447212.713398) can0 05B#977E R
(1722447212.713506) can0 014#00 R
(1722447212.713625) can0 008#00 R
(1722447212.713744) can0 055#00 R
(1722447212.713863) can0 05D#00 R
(1722447212.728411) can0 00E#A07D R
(1722447212.728585) can0 05C#A07DA07D R
(1722447212.728704) can0 041#00 R
(1722447212.728822) can0 016#13 R
(1722447212.728937) can0 015#00 R
(1722447212.729055) can0 017#00 R
(1722447212.729174) can0 056#00 R
(1722447212.731637) can0 007#00 R
(1722447212.744253) can0 056#00 R
(1722447212.760311) can0 015#00 R
(1722447212.760439) can0 00E#577C R
(1722447212.760576) can0 00E#577C R
(1722447212.760759) can0 05C#577C577C R
(1722447212.774537) can0 00D#197C R
(1722447212.774648) can0 016#13 R
(1722447212.774770) can0 041#00 R
